(1486049329.111457) vcan0 083#4020002008000000
(1486049329.112433) vcan0 078#0168800000000000
(1486049329.113436) vcan0 085#7C50800066E07C43
(1486049329.113505) vcan0 3CC#3000000000000000
(1486049329.114431) vcan0 455#A000000000000000
(1486049329.114479) vcan0 05A#00000045E8C10000
(1486049329.117059) vcan0 217#0FC80FC80FA40FA8
(1486049329.118058) vcan0 091#7F057EFA35C8F000
(1486049329.118127) vcan0 092#6FB57021732600C8
(1486049329.119063) vcan0 047#2000000000000000
(1486049329.119111) vcan0 05C#80F000EC201E0000
(1486049329.119167) vcan0 165#10F55A0000000000
(1486049329.119215) vcan0 3CA#FE80080000000000
(1486049329.120061) vcan0 167#7280C610001AB100
(1486049329.120132) vcan0 200#00007FDD80C70000
(1486049329.120181) vcan0 202#0485780060AC1256
(1486049329.120226) vcan0 204#C0007D0386000000
(1486049329.120919) vcan0 186#14F0025E0071065E
(1486049329.120972) vcan0 187#D71408C800C00300
(1486049329.121017) vcan0 230#4006000097000000
(1486049329.122333) vcan0 05D#83588F5F3A000000
(1486049329.123458) vcan0 082#950814008B804000
(1486049329.123521) vcan0 085#7C50800065F07C43
(1486049329.125290) vcan0 242#05B31FE8CF000001
(1486049329.126338) vcan0 3C3#62C0000000000000
(1486049329.126399) vcan0 3A8#0100271000000000
(1486049329.127330) vcan0 04A#0200000000000000
(1486049329.127376) vcan0 04B#00C0D8D8D8D8C000
(1486049329.127409) vcan0 04C#105FFFC000000000
(1486049329.127439) vcan0 076#3E80C0800FFF0000
(1486049329.128333) vcan0 077#125807FF7FF80223
(1486049329.128397) vcan0 07D#0000F3C0001E0802
(1486049329.128445) vcan0 091#7F0B7EF632C9F000
(1486049329.128489) vcan0 092#6FB87011734AE8C9
(1486049329.129290) vcan0 167#7280C610001AB100
(1486049329.129323) vcan0 213#FFFF000400021940
(1486049329.129366) vcan0 214#000000000000F3C0
(1486049329.129409) vcan0 202#0490000060AC125A
(1486049329.130276) vcan0 204#C0007D0386000000
(1486049329.130310) vcan0 216#DC31C98C00000000
(1486049329.130354) vcan0 217#0FCC0FC80FA40FA8
(1486049329.130394) vcan0 415#1271C07907FF07FF
(1486049329.131270) vcan0 416#5000FE0001000000
(1486049329.131314) vcan0 41D#8000600000000000
(1486049329.131344) vcan0 42F#7D04002E66700381
(1486049329.131383) vcan0 4B0#01008000C00000F3
(1486049329.132404) vcan0 078#0168800000000000
(1486049329.133390) vcan0 085#7C50800074007C43
(1486049329.136547) vcan0 091#7F177EF526CAF000
(1486049329.137578) vcan0 092#6FC170067367CCCA
(1486049329.137640) vcan0 217#0FCC0FCC0FAC0FB0
(1486049329.138546) vcan0 047#2000000000000000
(1486049329.138581) vcan0 165#10F55A0000000000
(1486049329.139537) vcan0 167#7280C610001AB100
(1486049329.139569) vcan0 178#000002010E77CE79
(1486049329.139614) vcan0 186#14F2025E0072065E
(1486049329.140541) vcan0 187#D71408C800C00300
(1486049329.140573) vcan0 200#00007FDD80C70000
(1486049329.140602) vcan0 202#048C080060AC125D
(1486049329.140647) vcan0 204#C0007D0386000000
(1486049329.141707) vcan0 230#4006000097000000
(1486049329.141752) vcan0 261#0000000000000000
(1486049329.142707) vcan0 082#940814008B804000
(1486049329.143808) vcan0 085#7C50800073107C43
(1486049329.143884) vcan0 3CC#3000000000000000
(1486049329.146305) vcan0 3A8#0100271000000000
(1486049329.147214) vcan0 091#7F227EF619CBF000
(1486049329.147278) vcan0 092#6FC770027379B7CB
(1486049329.148304) vcan0 076#3E80C0800FFF0000
(1486049329.148339) vcan0 077#125F07FD7FF7FE1B
(1486049329.148384) vcan0 07D#0000F2D0001F1809
(1486049329.148426) vcan0 213#FFFF000400021940
(1486049329.149297) vcan0 214#000000000000F2D0
(1486049329.149344) vcan0 167#7280C610001AB200
(1486049329.149386) vcan0 216#EB43DA9C00000000
(1486049329.149426) vcan0 202#0488100060AC1260
(1486049329.150263) vcan0 204#C0007D038D000000
(1486049329.150311) vcan0 217#0FD00FD00FB00FB4
(1486049329.150353) vcan0 3CA#FE80080000000000
(1486049329.150384) vcan0 415#1278C47107FF07FF
(1486049329.150424) vcan0 41D#8000600000000000
(1486049329.151268) vcan0 4B0#01008000D00000F2
(1486049329.152433) vcan0 078#0469000000000000
(1486049329.153436) vcan0 085#7C50800072207C43
(1486049329.154439) vcan0 3A7#0E401A045F700000
(1486049329.155432) vcan0 3C3#7EC0000000000000
(1486049329.155504) vcan0 42C#8C20000008C00000
(1486049329.156332) vcan0 456#8000000000000000
(1486049329.157465) vcan0 091#7F247EF814CCF000
(1486049329.157527) vcan0 092#6FC770057373B9CC
(1486049329.157574) vcan0 217#0FD40FD40FB80FBC
(1486049329.158464) vcan0 047#2000000000000000
(1486049329.158510) vcan0 165#10F55A0000000000
(1486049329.159464) vcan0 167#7280C610001AB200
(1486049329.159509) vcan0 200#00007FDD80C70000
(1486049329.159541) vcan0 202#0483180060AC1264
(1486049329.160456) vcan0 186#14F4025E0072065E
(1486049329.160518) vcan0 187#D71408C800C00300
(1486049329.160553) vcan0 204#C0007D038D000000
(1486049329.160582) vcan0 230#4006000097000000
(1486049329.161418) vcan0 42F#7D04002E66700386
(1486049329.161465) vcan0 33B#0000000000000000
(1486049329.162540) vcan0 082#930814008B804000
(1486049329.163670) vcan0 085#7C50800071307C43
(1486049329.165328) vcan0 242#05B31FEAD0000001
(1486049329.166338) vcan0 3A8#0100271000000000
(1486049329.167330) vcan0 091#7F137EF725CDF000
(1486049329.167393) vcan0 092#6FBF700C735DCFCD
(1486049329.168296) vcan0 076#3E80C0800FFF0000
(1486049329.168330) vcan0 077#126407FD7FF81216
(1486049329.168374) vcan0 07D#0000F1E0001FF80C
(1486049329.168417) vcan0 213#FFFF000400021940
(1486049329.168448) vcan0 167#7280C710001AB200
(1486049329.169426) vcan0 214#000000000000F1E0
(1486049329.169472) vcan0 216#FD52EAAD00000000
(1486049329.169514) vcan0 202#047F200060AC1267
(1486049329.169557) vcan0 204#C0007D038D000000
(1486049329.170396) vcan0 217#0FD80FD80FB80FC0
(1486049329.170443) vcan0 415#127EC86A07FF07FF
(1486049329.170483) vcan0 41D#8000600000000000
(1486049329.170514) vcan0 4B0#01008000E00000F1
(1486049329.171893) vcan0 078#0168800000000000
(1486049329.172894) vcan0 3A6#0E401A045F700000
(1486049329.172926) vcan0 085#7C50800070407C43
(1486049329.172969) vcan0 3CC#3000000000000000
(1486049329.176918) vcan0 217#0FD80FDC0FB80FC4
(1486049329.177963) vcan0 091#7EF77EF543CEF000
(1486049329.178025) vcan0 092#6FB470117351E0CE
(1486049329.178954) vcan0 047#2000000000000000
(1486049329.178999) vcan0 165#10F55A0000000000
(1486049329.179032) vcan0 3CA#FE80080000000000
(1486049329.179062) vcan0 167#7280C710001AB200
(1486049329.179966) vcan0 200#00007FDD80C80000
(1486049329.180029) vcan0 202#047A280060AC126B
(1486049329.180076) vcan0 186#14F4025E0072065E
(1486049329.180108) vcan0 187#D71408C800C00300
(1486049329.180137) vcan0 18A#0020180114000000
(1486049329.181039) vcan0 204#C0007D038D000000
(1486049329.181071) vcan0 230#4006000097000000
(1486049329.181100) vcan0 3E5#0000000080000000
(1486049329.181129) vcan0 083#4020002008000000
(1486049329.182062) vcan0 2A1#FFFFFFFF00000000
(1486049329.183061) vcan0 082#910814008B804000
(1486049329.183123) vcan0 085#7C4F800070507C43
(1486049329.186171) vcan0 3A8#0100271000000000
(1486049329.187443) vcan0 091#7EED7EF44DCFF000
(1486049329.187516) vcan0 092#6FB27014736AC5CF
(1486049329.188341) vcan0 076#3E80C0800FFF0000
(1486049329.188386) vcan0 077#126907FE7FF80619
(1486049329.188437) vcan0 07D#0000F0F0001F7808
(1486049329.188482) vcan0 213#FFFF000400021940
(1486049329.189299) vcan0 167#7280C710001AB200
(1486049329.189332) vcan0 214#000000000000F0F0
(1486049329.189377) vcan0 216#0C62FABD00000000
(1486049329.189419) vcan0 217#0FDC0FE00FB80FC8
(1486049329.190276) vcan0 202#0476300060AC126E
(1486049329.190323) vcan0 204#C0007D0391000000
(1486049329.190366) vcan0 415#1289CC5E07FF07FF
(1486049329.190407) vcan0 41D#8000600000000000
(1486049329.190436) vcan0 4B0#01008000F00000F0
(1486049329.191269) vcan0 261#0000000000000000
(1486049329.191302) vcan0 42F#7D04002E6671038D
(1486049329.192266) vcan0 078#0168800000000000
(1486049329.193332) vcan0 422#000000933802FE02
(1486049329.193396) vcan0 085#7C4F80006F607C43
(1486049329.193444) vcan0 423#9720000000000000
(1486049329.193489) vcan0 430#37000CECC88C7700
(1486049329.194962) vcan0 3EB#C604140022200000
(1486049329.196961) vcan0 091#7EFA7EF43FD0F000
(1486049329.197963) vcan0 092#6FBA701773978CD0
(1486049329.198023) vcan0 217#0FE00FE40FC00FC8
(1486049329.198919) vcan0 047#2000000000000000
(1486049329.198954) vcan0 165#10F55A0000000000
(1486049329.198983) vcan0 167#7280C810001AB200
(1486049329.199027) vcan0 200#00007FDD80C80000
(1486049329.199922) vcan0 186#14F5025E0072065E
(1486049329.199968) vcan0 187#D71408C800C00300
(1486049329.199999) vcan0 202#0471380060AC1272
(1486049329.200040) vcan0 204#C0007D0391000000
(1486049329.200890) vcan0 230#4006000097000000
(1486049329.202680) vcan0 082#910814008B804000
(1486049329.203695) vcan0 085#7C4F80006E707C43
(1486049329.203766) vcan0 3CC#3000000000000000
(1486049329.205303) vcan0 242#05B31FEACF000001
(1486049329.206430) vcan0 3A8#0100271000000000
(1486049329.207439) vcan0 091#7F157EF422D1F000
(1486049329.207511) vcan0 092#6FC3701873B266D1
(1486049329.207560) vcan0 076#3E7FC0800FFF0000
(1486049329.208441) vcan0 077#127007FD7FF7FA1C
(1486049329.208512) vcan0 07D#0000FF00001FA7FD
(1486049329.208560) vcan0 213#FFFF000400021840
(1486049329.208605) vcan0 214#000000000000FF00
(1486049329.209335) vcan0 216#1D730BCD00000000
(1486049329.209397) vcan0 217#0FE40FE40FC80FC4
(1486049329.209445) vcan0 167#7280C710001AB200
(1486049329.209488) vcan0 3CA#FE80080000000000
(1486049329.209520) vcan0 202#046C400060AC1276
(1486049329.210390) vcan0 40A#C104014107F670C1
(1486049329.210439) vcan0 204#C0007D0391000000
(1486049329.210469) vcan0 415#1290D05608000800
(1486049329.210509) vcan0 41D#8000600000000000
(1486049329.211380) vcan0 42C#8C20000008C00000
(1486049329.211411) vcan0 4B0#01008000000000FF
(1486049330.521633) vcan0 083#4020000008000000
(1486049330.522637) vcan0 05D#8358BF5F2E000000
(1486049330.523640) vcan0 082#950814008B804000
(1486049330.523748) vcan0 085#7C4B80006EB07C43
(1486049330.523830) vcan0 3CC#3000000000000000
(1486049330.525316) vcan0 242#05B31FF6CF000001
(1486049330.526501) vcan0 3A8#0100271000000000
(1486049330.527502) vcan0 04A#0200000000000000
(1486049330.527602) vcan0 04B#00C0D8D8D8D8C000
(1486049330.528389) vcan0 04C#105FFFC000000000
(1486049330.528494) vcan0 076#3E80C0800FFF0000
(1486049330.528581) vcan0 077#144807FD7FF8061E
(1486049330.528659) vcan0 07D#0000FD200020381C
(1486049330.528735) vcan0 091#7F617EF45255F000
(1486049330.529379) vcan0 092#6FAB701C73565255
(1486049330.529486) vcan0 167#7280D810001AC200
(1486049330.529566) vcan0 186#14FA026500810665
(1486049330.529638) vcan0 187#D91408C800A00300
(1486049330.530419) vcan0 202#0489600060AC1453
(1486049330.530500) vcan0 204#C0007D03EB000000
(1486049330.530573) vcan0 213#FFFF000400021C40
(1486049330.530645) vcan0 214#000000000000FD20
(1486049330.531415) vcan0 216#89E06F3100000000
(1486049330.531491) vcan0 217#117C118011681160
(1486049330.531560) vcan0 3CA#FE80080000000000
(1486049330.531627) vcan0 415#146DD87507FF07FF
(1486049330.532408) vcan0 416#5E00F00001000000
(1486049330.532485) vcan0 078#0068000000000000
(1486049330.532552) vcan0 41D#8000600000000000
(1486049330.532616) vcan0 4B0#01008000200000FD
(1486049330.533404) vcan0 085#7C4B80006DC07C43
(1486049330.536948) vcan0 091#7F497EF46956F000
(1486049330.537936) vcan0 092#6FA8702073545256
(1486049330.538016) vcan0 217#1180118411681160
(1486049330.538934) vcan0 047#2000000000000000
(1486049330.539008) vcan0 165#10F55A0000000000
(1486049330.539934) vcan0 167#7280D810001AC200
(1486049330.540009) vcan0 178#000002030E77CE79
(1486049330.540933) vcan0 200#00007FDE80D90000
(1486049330.541011) vcan0 202#0484680060AC1457
(1486049330.541081) vcan0 204#C0007D03EB000000
(1486049330.541145) vcan0 230#4006000097000000
(1486049330.541914) vcan0 261#0000000000000000
(1486049330.541976) vcan0 33B#0000000000000000
(1486049330.542905) vcan0 42F#7D04002E667903EE
(1486049330.542972) vcan0 082#930814008B804000
(1486049330.543032) vcan0 085#7C4B80006CD07C43
(1486049330.545276) vcan0 3C3#62C0000000000000
(1486049330.546285) vcan0 3A8#0100271000000000
(1486049330.547309) vcan0 091#7F2E7EF48357F000
(1486049330.547379) vcan0 092#6FB3702573583D57
(1486049330.548307) vcan0 076#3E80C0800FFF0000
(1486049330.548373) vcan0 077#145107FD7FF7F21E
(1486049330.548437) vcan0 07D#0000FC30001F5820
(1486049330.548500) vcan0 213#FFFF000400021C40
(1486049330.548560) vcan0 167#7280D810001AC200
(1486049330.549271) vcan0 186#14FC026500810665
(1486049330.549336) vcan0 187#D91408C800A00300
(1486049330.549397) vcan0 202#0480700060AC145A
(1486049330.549478) vcan0 204#C0007D03EC000000
(1486049330.550283) vcan0 214#000000000000FC30
(1486049330.550352) vcan0 216#9BF1804300000000
(1486049330.550415) vcan0 217#1184118411681164
(1486049330.550478) vcan0 415#1476DC6B07FF07FF
(1486049330.551283) vcan0 41D#8000600000000000
(1486049330.551346) vcan0 4B0#01008000300000FC
(1486049330.551409) vcan0 078#0569800000000000
(1486049330.552516) vcan0 085#7C4A80006DE07C42
(1486049330.553550) vcan0 3CC#3000000000000000
(1486049330.554810) vcan0 42C#8C20000008C00000
(1486049330.555801) vcan0 3A7#0E401A045F700000
(1486049330.556801) vcan0 091#7F1D7EF49358F000
(1486049330.557939) vcan0 092#6FC07027735D2858
(1486049330.558007) vcan0 217#11881188116C1160
(1486049330.558070) vcan0 454#3646200372204242
(1486049330.558937) vcan0 047#2000000000000000
(1486049330.559002) vcan0 3CA#FE80080000000000
(1486049330.559061) vcan0 165#10F55A0000000000
(1486049330.559121) vcan0 167#7280D710001AC200
(1486049330.559895) vcan0 200#00007FDE80D90000
(1486049330.559957) vcan0 202#047A780060AC145F
(1486049330.560018) vcan0 204#C0007D03E9000000
(1486049330.560078) vcan0 230#4006000097000000
(1486049330.562529) vcan0 082#930814008B804000
(1486049330.563527) vcan0 085#7C4A80006CF07C42
(1486049330.565277) vcan0 242#05B31FF6CF000001
(1486049330.566369) vcan0 3A8#0100271000000000
(1486049330.567503) vcan0 091#7F1E7EF49159F000
(1486049330.567597) vcan0 092#6FC7702773631A59
(1486049330.567668) vcan0 076#3E80C0800FFF0000
(1486049330.568439) vcan0 077#145907FD7FF7FE20
(1486049330.568510) vcan0 07D#0000FB40001F5810
(1486049330.568575) vcan0 186#14FD026500810665
(1486049330.568641) vcan0 167#7280D710001AC200
(1486049330.569401) vcan0 187#D91408C800A00300
(1486049330.569465) vcan0 18A#0020180114000000
(1486049330.569524) vcan0 213#FFFF000400021C40
(1486049330.569582) vcan0 214#000000000000FB40
(1486049330.570414) vcan0 202#0486000060AC1462
(1486049330.570482) vcan0 204#C0007D03E9000000
(1486049330.570541) vcan0 216#AC04935400000000
(1486049330.570602) vcan0 217#118C118811681164
(1486049330.571410) vcan0 415#147CE06408000800
(1486049330.571477) vcan0 41D#8000600000000000
(1486049330.571535) vcan0 42F#7D04002E667903EC
(1486049330.571595) vcan0 4B0#01008000400000FB
(1486049330.572405) vcan0 078#0168800000000000
(1486049330.572471) vcan0 3A6#0E401A045F700000
(1486049330.573403) vcan0 085#7C4A80007B007C42
(1486049330.574906) vcan0 3C3#7EC0000000000000
(1486049330.576933) vcan0 091#7F2F7EF3805AF000
(1486049330.577998) vcan0 092#6FC570267367185A
(1486049330.578092) vcan0 217#1190118811681168
(1486049330.578946) vcan0 047#2000000000000000
(1486049330.579017) vcan0 165#10F55A0000000000
(1486049330.579080) vcan0 167#7280D810001AC200
(1486049330.579146) vcan0 200#00007FDE80D90000
(1486049330.579935) vcan0 202#0481080060AC1466
(1486049330.580005) vcan0 204#C0007D03F0000000
(1486049330.580068) vcan0 230#4006000097000000
(1486049330.581517) vcan0 083#4020000008000000
(1486049330.582561) vcan0 2A1#FFFFFFFF00000000
(1486049330.583565) vcan0 082#940814008B804000
(1486049330.583635) vcan0 085#7C4B800078107C43
(1486049330.583697) vcan0 3CC#3000000000000000
(1486049330.586304) vcan0 3A8#0100271000000000
(1486049330.587379) vcan0 091#7F3B7EF1755BF000
(1486049330.587473) vcan0 092#6FBE7024736A1D5B
(1486049330.588361) vcan0 076#3E80C0800FFF0000
(1486049330.588452) vcan0 077#146007FD7FF81221
(1486049330.588525) vcan0 07D#0000FA50001F880B
(1486049330.588591) vcan0 213#FFFF000400021C40
(1486049330.588654) vcan0 167#7280D810001AC200
(1486049330.589317) vcan0 186#14FE026500810665
(1486049330.589387) vcan0 187#D91408C800A00300
(1486049330.589448) vcan0 202#047C100060AC146A
(1486049330.589509) vcan0 204#C0007D03F1000000
(1486049330.590279) vcan0 214#000000000000FA50
(1486049330.590349) vcan0 216#BF15A46700000000
(1486049330.590410) vcan0 217#1190118C116C116C
(1486049330.590468) vcan0 261#0000000000000000
(1486049330.591283) vcan0 3CA#FE80080000000000
(1486049330.591346) vcan0 415#1481E45E08000800
(1486049330.591406) vcan0 41D#8000600000000000
(1486049330.591464) vcan0 4B0#01008000500000FA
(1486049330.592406) vcan0 078#0068000000000000
(1486049330.592490) vcan0 422#000000933802FE02
(1486049330.592552) vcan0 423#9720000000000000
(1486049330.592610) vcan0 430#37000CECC88C7700
(1486049330.593406) vcan0 085#7C4B800077207C43
(1486049330.596907) vcan0 091#7F317EF07F5CF000
(1486049330.597908) vcan0 092#6FB47022736C265C
(1486049330.597978) vcan0 217#1194119411701170
(1486049330.599001) vcan0 047#2000000000000000
(1486049330.599092) vcan0 165#10F55A0000000000
(1486049330.599162) vcan0 167#7280D810001AC200
(1486049330.599947) vcan0 200#00007FDE80D90000
(1486049330.600016) vcan0 202#0478180060AC146D
(1486049330.600082) vcan0 204#C0007D03F1000000
(1486049330.600142) vcan0 230#4006000097000000
(1486049330.600895) vcan0 42F#7D04002E667903F0
(1486049330.601930) vcan0 33B#0000000000000000
(1486049330.603123) vcan0 082#940814008B804000
(1486049330.603227) vcan0 085#7C4B800076307C43
(1486049330.605489) vcan0 242#05B31FF9CF000001
(1486049330.606497) vcan0 40A#C110409060250000
(1486049330.606610) vcan0 42C#8C20000008C00000
(1486049330.606682) vcan0 3A8#0100271000000000
(1486049330.607497) vcan0 091#7F0E7EEEA35DF000
(1486049330.607605) vcan0 092#6FAD7020736D2D5D
(1486049330.607679) vcan0 076#3E80C0800FFF0000
(1486049330.608377) vcan0 077#146807FD7FF80620
(1486049330.608471) vcan0 07D#0000F960001FA814
(1486049330.608545) vcan0 186#1502026600820666
(1486049330.608612) vcan0 187#D81408C800B00300
(1486049330.609377) vcan0 167#7280D810001AC200
(1486049330.609471) vcan0 213#FFFF000400021C40
(1486049330.609539) vcan0 214#000000000000F960
(1486049330.609608) vcan0 202#0474200060AC1470
(1486049330.610302) vcan0 204#C0007D03EE000000
(1486049330.610384) vcan0 216#D227B67800000000
(1486049330.610470) vcan0 217#1198119C11701174
(1486049330.610557) vcan0 415#148AE85408000800
(1486049330.610652) vcan0 41D#8000600000000000
(1486049330.611290) vcan0 4B0#01008000600000F9
(1486049330.611365) vcan0 078#0168800000000000
(1486049330.612521) vcan0 085#7C4B800075407C43
(1486049330.613599) vcan0 3CC#3000000000000000
(1486049330.613692) vcan0 455#A000000000000000
(1486049330.614729) vcan0 05A#00000045F2210000
(1486049330.616925) vcan0 091#7EE87EEEC95EF000
(1486049330.617920) vcan0 092#6FAF701F7372265E
(1486049330.617994) vcan0 217#119C11A01170117C
(1486049330.618917) vcan0 047#2000000000000000
(1486049330.618984) vcan0 05C#805000F6201E0000
(1486049330.619050) vcan0 3CA#FE80080000000000
(1486049330.619110) vcan0 165#10F55A0000000000
(1486049330.619900) vcan0 167#7280D810001AC200
(1486049330.619963) vcan0 200#00007FDE80D90000
(1486049330.620021) vcan0 202#046F280060AC1474
(1486049330.620083) vcan0 204#C0007D03F0000000
(1486049330.620888) vcan0 230#4006000097000000
(1486049330.622474) vcan0 05D#8358A75F34000000
(1486049330.623442) vcan0 082#950814008B804000
(1486049330.623508) vcan0 085#7C4B800074507C43
(1486049330.626304) vcan0 3A8#0100271000000000
(1486049330.627309) vcan0 04A#0200000000000000
(1486049330.627362) vcan0 04B#00C0D8D8D8D8C000
(1486049330.627403) vcan0 04C#105FFFC000000000
(1486049330.627446) vcan0 076#3E80C0800FFF0000
(1486049330.628304) vcan0 077#146F07FC7FF7F61F
(1486049330.628356) vcan0 07D#0000F870001FB806
(1486049330.628404) vcan0 091#7ED27EEFDD5FF000
(1486049330.628451) vcan0 092#6FBC701C737F0E5F
(1486049330.629503) vcan0 167#7280D810001AC200
(1486049330.629573) vcan0 186#1502026600820666
(1486049330.629623) vcan0 187#D81408C800B00300
(1486049330.629670) vcan0 202#046A300060AC1478
(1486049330.630498) vcan0 204#C0007D03F0000000
(1486049330.630568) vcan0 213#FFFF000400021C40
(1486049330.630617) vcan0 214#000000000000F870
(1486049330.630665) vcan0 216#E33AC88B00000000
(1486049330.630713) vcan0 217#11A411A011741180
(1486049330.631492) vcan0 415#149AEC4308000800
(1486049330.631565) vcan0 416#5F00EF0001000000
(1486049330.631616) vcan0 41D#8000600000000000
(1486049330.631663) vcan0 42F#7D04002E667903EE
(1486049330.632476) vcan0 4B0#01008000700000F8
(1486049330.632548) vcan0 078#0168800000000000
(1486049330.633500) vcan0 085#7C4B800073607C43
(1486049330.636871) vcan0 091#7EC77EF2E460F000
(1486049330.638005) vcan0 092#6FCA701C738FEF60
(1486049330.638083) vcan0 217#11A411A011781180
(1486049330.638992) vcan0 047#2000000000000000
(1486049330.639061) vcan0 165#10F55A0000000000
(1486049330.640022) vcan0 167#7280D810001AC200
(1486049330.640092) vcan0 178#000002020E77CE79
(1486049330.640147) vcan0 200#00007FDE80DB0000
(1486049330.641124) vcan0 202#0464380060AC147D
(1486049330.641209) vcan0 204#C0007D03F2000000
(1486049330.641265) vcan0 230#4006000097000000
(1486049330.641310) vcan0 261#0000000000000000
(1486049330.642753) vcan0 082#970814008B804000
(1486049330.643742) vcan0 085#7C4B800072707C43
(1486049330.643826) vcan0 3CC#3000000000000000
(1486049330.645364) vcan0 084#110000211B340A00
(1486049330.646391) vcan0 242#05B31FF9CF000001
(1486049330.647370) vcan0 3A8#0100271000000000
(1486049330.647510) vcan0 091#7EBF7EF2EB61F000
(1486049330.647566) vcan0 092#6FCF70207396DE61
(1486049330.647615) vcan0 076#3E80C0800FFF0000
(1486049330.648372) vcan0 077#147607FC7FF8021E
(1486049330.648445) vcan0 07D#0000F780002007F5
(1486049330.648497) vcan0 186#1504026600820666
(1486049330.648546) vcan0 187#D81408C800B00300
(1486049330.649372) vcan0 167#7280D810001AC200
(1486049330.649441) vcan0 213#FFFF000400021C40
(1486049330.649491) vcan0 214#000000000000F780
(1486049330.649541) vcan0 202#045E400060AC1482
(1486049330.650353) vcan0 204#C0007D03F4000000
(1486049330.650427) vcan0 216#F54BDA9C00000000
(1486049330.650479) vcan0 217#11A411A411801188
(1486049330.650523) vcan0 3CA#FE80080000000000
(1486049330.651501) vcan0 415#149CF04008000800
(1486049330.651586) vcan0 41D#8000600000000000
(1486049330.651638) vcan0 4B0#01008000800000F7
(1486049330.651688) vcan0 078#0469000000000000
(1486049330.652750) vcan0 085#7C4B800071807C43
(1486049330.654885) vcan0 42C#8C20000008C00000
(1486049330.657000) vcan0 091#7EBC7EF3EC62F000
(1486049330.658003) vcan0 092#6FC770237391E762
(1486049330.658076) vcan0 217#11A411A81188118C
(1486049330.659003) vcan0 047#2000000000000000
(1486049330.659073) vcan0 3D8#0000000080446030
(1486049330.659124) vcan0 165#10F55A0000000000
(1486049330.659171) vcan0 167#7280D810001AC200
(1486049330.660117) vcan0 3CD#0000000000000000
(1486049330.660198) vcan0 200#00007FDE80DB0000
(1486049330.660251) vcan0 202#0459480060AC1486
(1486049330.660302) vcan0 204#C0007D03F4000000
(1486049330.661119) vcan0 230#4006000097000000
(1486049330.661200) vcan0 42F#7D04002E667903F2
(1486049330.662106) vcan0 33B#0000000000000000
(1486049330.663118) vcan0 082#990814048B804000
(1486049330.663205) vcan0 085#7C4B800070907C43
(1486049330.666356) vcan0 3A8#0100271000000000
(1486049330.667370) vcan0 091#7EBF7EF4E763F000
(1486049330.667456) vcan0 092#6FBD70247386FA63
(1486049330.668242) vcan0 076#3E80C0800FFF0000
(1486049330.668310) vcan0 077#147E07FD7FF81A1F
(1486049330.668362) vcan0 07D#0000F690002077EF
(1486049330.668411) vcan0 186#1506026600820666
(1486049330.669372) vcan0 187#D81408C800B00300
(1486049330.669441) vcan0 167#7280D810001AC200
(1486049330.669493) vcan0 18A#0020180114000000
(1486049330.669539) vcan0 213#FFFF000400021C40
(1486049330.669581) vcan0 202#0455500060AC1489
(1486049330.670396) vcan0 204#C0007D03EF000000
(1486049330.670523) vcan0 214#000000000000F690
(1486049330.670686) vcan0 216#085EEDAF00000000
(1486049330.670831) vcan0 217#11A811AC11901190
(1486049330.671356) vcan0 415#14A0F43B08000800
(1486049330.671430) vcan0 41D#8000600000000000
(1486049330.671482) vcan0 4B0#01008000900000F6
(1486049330.671534) vcan0 078#0168800000000000
(1486049330.672350) vcan0 083#4020001008000000
(1486049330.673366) vcan0 085#7C4B80006FA07C43
(1486049330.673440) vcan0 3CC#3000000000000000
(1486049330.676999) vcan0 091#7EC87EF3DE64F000
(1486049330.677993) vcan0 092#6FBD7022737C0564
(1486049330.678065) vcan0 217#11AC11AC11941190
(1486049330.678993) vcan0 047#2000000000000000
(1486049330.679060) vcan0 165#10F55A0000000000
(1486049330.679110) vcan0 3CA#FE80080000000000
(1486049330.679157) vcan0 167#7280D810001AC200
(1486049330.679930) vcan0 200#00007FDE80DB0000
(1486049330.679977) vcan0 202#0450580060AC148D
(1486049330.680024) vcan0 204#C0007D03F0000000
(1486049330.680071) vcan0 230#4006000097000000
(1486049330.681585) vcan0 2A1#FFFFFFFF00000000
(1486049330.682597) vcan0 082#990814048B804000
(1486049330.683599) vcan0 085#7C4C80006DB07C43
(1486049330.685497) vcan0 242#05B31FF6CF000001
(1486049330.686371) vcan0 3A8#0100271000000000
(1486049330.687377) vcan0 091#7ED57EF2D165F000
(1486049330.687446) vcan0 092#6FC6702173700865
(1486049330.687497) vcan0 076#3E80C0800FFF0000
(1486049330.688507) vcan0 077#148607FD7FF80620
(1486049330.688575) vcan0 07D#0000F5A0002027EF
(1486049330.688626) vcan0 186#1507026600820666
(1486049330.688676) vcan0 167#7280D810001AC200
(1486049330.689482) vcan0 187#D81408C800B00300
(1486049330.689547) vcan0 213#FFFF000400021C40
(1486049330.689597) vcan0 214#000000000000F5A0
(1486049330.689647) vcan0 216#1970FEC100000000
(1486049330.690503) vcan0 202#044C600060AC1490
(1486049330.690573) vcan0 204#C0007D03F0000000
(1486049330.690623) vcan0 217#11AC11AC11981194
(1486049330.690671) vcan0 415#14A6F83408000800
(1486049330.691499) vcan0 41D#8000600000000000
(1486049330.691563) vcan0 261#0000000000000000
(1486049330.691612) vcan0 4B0#01008000A00000F5
(1486049330.691662) vcan0 078#0168800000000000
(1486049330.692498) vcan0 422#000000933802FE02
(1486049330.692563) vcan0 423#9720000000000000
(1486049330.692612) vcan0 42F#7D04002E667903EF
(1486049330.692663) vcan0 430#37000CECC88C7700
(1486049330.693488) vcan0 085#7C4C80006CC07C43
(1486049330.696869) vcan0 091#7EE97EF4BA66F000
(1486049330.697908) vcan0 092#6FCE7024735C1066
(1486049330.697963) vcan0 217#11B011B011981194
(1486049330.698972) vcan0 047#2000000000000000
(1486049330.699026) vcan0 165#10F55A0000000000
(1486049330.699067) vcan0 167#7280D810001AC300
(1486049330.699977) vcan0 200#00007FDE80DB0000
(1486049330.700030) vcan0 202#0448680060AC1493
(1486049330.700073) vcan0 204#C0007D03F4000000
(1486049330.700111) vcan0 230#4006000097000000
(1486049330.701512) vcan0 083#4020001008000000
(1486049330.702713) vcan0 082#990814008B804000
(1486049330.703703) vcan0 085#7C4D800069D07C44
(1486049330.703767) vcan0 3CC#3000000000000000
(1486049330.705976) vcan0 42C#8C20000008C00000
(1486049330.707082) vcan0 3A8#0100271000000000
(1486049330.707224) vcan0 186#1507026600830666
(1486049330.707289) vcan0 091#7F037EF49E67F000
(1486049330.708213) vcan0 092#6FCE702673561367
(1486049330.708300) vcan0 076#3E80C0800FFF0000
(1486049330.708359) vcan0 077#148F07FD7FF80E1F
(1486049330.708415) vcan0 07D#0000F4B0001FC7F6
(1486049330.709101) vcan0 187#D71408C800C00300
(1486049330.709177) vcan0 167#7280D910001AC300
(1486049330.709235) vcan0 213#FFFF000400021C40
(1486049330.709288) vcan0 214#000000000000F4B0
(1486049330.710052) vcan0 202#0444700060AC1496
(1486049330.710110) vcan0 204#C0007D03F8000000
(1486049330.710161) vcan0 216#2C8211D200000000
(1486049330.710210) vcan0 217#11B811B411981194
(1486049330.711033) vcan0 3CA#FE80080000000000
(1486049330.711087) vcan0 415#14ABFC2E08000800
(1486049330.711137) vcan0 41D#8000600000000000
(1486049330.711184) vcan0 4B0#01008000B00000F4
(1486049330.711232) vcan0 078#0068000000000000
(1486049330.712512) vcan0 085#7C4D800069E07C43
(1486049330.713639) vcan0 455#A000000000000000
(1486049330.714848) vcan0 05A#00000045E8C10000
(1486049330.716973) vcan0 091#7F1E7EF48268F000
(1486049330.718007) vcan0 092#6FC5702273720368
(1486049330.718079) vcan0 217#11C011B811981194
(1486049330.718931) vcan0 047#2000000000000000
(1486049330.718990) vcan0 05C#80F000EC201E0000
(1486049330.719045) vcan0 165#10F55A0000000000
(1486049330.719096) vcan0 167#7280D910001AC300
(1486049330.719891) vcan0 200#00007FDD80DB0000
(1486049330.719947) vcan0 202#0440780060AC1499
(1486049330.719998) vcan0 204#C0007D03F8000000
(1486049330.720897) vcan0 230#4006000097000000
(1486049330.720966) vcan0 42F#7D04002E667A03F4
(1486049330.721895) vcan0 33B#0000000000000000
(1486049330.723102) vcan0 05D#83588F6039000000
(1486049330.723189) vcan0 082#960814008B804000
(1486049330.723236) vcan0 085#7C4E800067F07C43
(1486049330.725345) vcan0 242#05B31FF7CF000001
(1486049330.726359) vcan0 3A8#0100271000000000
(1486049330.727316) vcan0 04A#0200000000000000
(1486049330.727364) vcan0 04B#00C0D8D8D8D8C000
(1486049330.727401) vcan0 04C#105FFFC000000000
(1486049330.727438) vcan0 076#3E82C0800FFF0000
(1486049330.728486) vcan0 077#149607FD7FF81A20
(1486049330.728570) vcan0 07D#0000F3C0001F5803
(1486049330.728617) vcan0 091#7F2D7EF47269F000
(1486049330.728658) vcan0 092#6FB8701D73A2E469
(1486049330.729365) vcan0 167#7280D910001AC300
(1486049330.729419) vcan0 186#1507026600830666
(1486049330.729460) vcan0 187#D71408C800C00300
(1486049330.729497) vcan0 202#044C000060AA149C
(1486049330.730491) vcan0 204#C0007D03F9000000
(1486049330.730552) vcan0 213#FFFF000400021C40
(1486049330.730595) vcan0 214#000000000000F3C0
(1486049330.730637) vcan0 216#3E9422E500000000
(1486049330.730677) vcan0 217#11C411C01198119C
(1486049330.731482) vcan0 415#14BBC02D08000800
(1486049330.731541) vcan0 416#5000FE0001000000
(1486049330.731585) vcan0 41D#8000600000000000
(1486049330.731623) vcan0 4B0#01008000C00000F3
(1486049330.732473) vcan0 078#0168800000000000
(1486049330.733477) vcan0 085#7C4E800076007C43
(1486049330.733535) vcan0 3CC#3000000000000000
(1486049330.736984) vcan0 091#7F307EF46E6AF000
(1486049330.737983) vcan0 092#6FAE701C73BBD56A
(1486049330.738041) vcan0 217#11C811C4119C11A0
(1486049330.738940) vcan0 047#2000000000000000
(1486049330.738985) vcan0 3CA#FE80080000000000
(1486049330.739020) vcan0 165#10F5590000000000
(1486049330.740098) vcan0 167#7280D910001AC300
(1486049330.740176) vcan0 178#000002020E78CE79
(1486049330.740225) vcan0 200#00007FDD80DB0000
(1486049330.741105) vcan0 202#0446080060AA14A1
(1486049330.741188) vcan0 204#C0007D03F7000000
(1486049330.741233) vcan0 230#4006000097000000
(1486049330.741270) vcan0 261#0000000000000000
(1486049330.742593) vcan0 082#9A0814048B804000
(1486049330.743849) vcan0 085#7C4E800075107C43
(1486049330.746346) vcan0 3A8#0100271100000000
(1486049330.747370) vcan0 186#1508026600830666
(1486049330.747449) vcan0 091#7F2D7EF4706BF000
(1486049330.747495) vcan0 092#6FAD701F73A0ED6B
(1486049330.747535) vcan0 187#D71408C800C00300
(1486049330.748359) vcan0 076#3E83C0800FFF0000
(1486049330.748445) vcan0 077#149D07FD7FF7FE1E
(1486049330.748490) vcan0 07D#0000F2D00020A810
(1486049330.748530) vcan0 213#FFFF000400021C40
(1486049330.749192) vcan0 167#7280D910001AC300
(1486049330.749234) vcan0 214#000000000000F2D0
(1486049330.749273) vcan0 216#51A734F800000000
(1486049330.749312) vcan0 217#11CC11CC11A011A8
(1486049330.750216) vcan0 202#0441100060AA14A5
(1486049330.750274) vcan0 204#C0007D03F7000000
(1486049330.750313) vcan0 415#14C7C42008000800
(1486049330.750351) vcan0 41D#8000600000000000
(1486049330.751364) vcan0 4B0#01008000D00000F2
(1486049330.751423) vcan0 078#0569800000000000
(1486049330.751470) vcan0 42F#7D04002E667A03F9
(1486049330.752598) vcan0 085#7C4F800073207C43
(1486049330.753972) vcan0 3A7#0E401A045F700000
(1486049330.754960) vcan0 42C#8C20000008C00000
(1486049330.756985) vcan0 091#7F247EF4786CF000
(1486049330.758102) vcan0 092#6FB370237361216C
(1486049330.758185) vcan0 217#11CC11CC11A411AC
(1486049330.758982) vcan0 047#2000000000000000
(1486049330.759036) vcan0 165#10F5590000000000
(1486049330.759077) vcan0 167#7280D910001AC300
(1486049330.759113) vcan0 200#00007FDD80DB0000
(1486049330.759992) vcan0 202#043B180060AA14AA
(1486049330.760052) vcan0 204#C0007D03F9000000
(1486049330.760094) vcan0 230#4006000097000000
(1486049330.762724) vcan0 082#980814048B804000
(1486049330.763732) vcan0 085#7C50800071307C43
(1486049330.763808) vcan0 3CC#3000000000000000
(1486049330.765720) vcan0 242#05B31FF6CF000001
(1486049330.766730) vcan0 3A8#0100271300000000
(1486049330.766866) vcan0 091#7F107EF48B6DF000
(1486049330.767727) vcan0 186#1508026600830666
(1486049330.767809) vcan0 092#6FB97026732C4C6D
(1486049330.767862) vcan0 076#3E83C0800FFF0000
(1486049330.767901) vcan0 077#14A407FD7FF7F61E
(1486049330.768612) vcan0 07D#0000F1E00020A810
(1486049330.768670) vcan0 187#D71408C800C00300
(1486049330.768710) vcan0 18A#0020180114000000
(1486049330.768747) vcan0 167#7280D910001AC300
(1486049330.769607) vcan0 213#FFFF000400021C40
(1486049330.769664) vcan0 202#0435200060AA14AF
(1486049330.769709) vcan0 204#C0007D03FC000000
(1486049330.769750) vcan0 214#000000000000F1E0
(1486049330.770735) vcan0 216#62BA470900000000
(1486049330.770795) vcan0 217#11CC11CC11A811AC
(1486049330.770839) vcan0 3CA#FE80080000000000
(1486049330.770878) vcan0 415#14D1C81508000800
(1486049330.770915) vcan0 41D#8000600000000000
(1486049330.771708) vcan0 4B0#01008000E00000F1
(1486049330.771768) vcan0 078#0068000000000000
(1486049330.772725) vcan0 3A6#0E401A045F700000
(1486049330.772782) vcan0 085#7C51800070407C42
(1486049330.776975) vcan0 091#7EF67EF4A56EF000
(1486049330.777975) vcan0 092#6FBD702773234F6E
(1486049330.778032) vcan0 217#11C811D011AC11AC
(1486049330.778969) vcan0 047#2000000000000000
(1486049330.779023) vcan0 165#10F5590000000000
(1486049330.779064) vcan0 167#7280D910001AC300
(1486049330.779976) vcan0 200#00007FDD80DB0000
(1486049330.780031) vcan0 202#042F280060AA14B4
(1486049330.780075) vcan0 204#C0007D03FC000000
(1486049330.780113) vcan0 230#4006000097000000
(1486049330.780960) vcan0 42F#7D04002E667A03F9
(1486049330.781961) vcan0 083#4020001008000000
(1486049330.782033) vcan0 2A1#FFFFFFFF00000000
(1486049330.783105) vcan0 33B#0000000000000000
(1486049330.783175) vcan0 188#4000000000000000
(1486049330.783233) vcan0 082#970814008B804000
(1486049330.783289) vcan0 085#7C5280006D507C43
(1486049330.786346) vcan0 186#1508026700830667
(1486049330.787292) vcan0 187#D71408C800C00300
(1486049330.787352) vcan0 3A8#0100271300000000
(1486049330.787462) vcan0 091#7EE17EF7B66FF000
(1486049330.787516) vcan0 092#6FC370257346276F
(1486049330.788311) vcan0 076#3E85C0800FFF0000
(1486049330.788368) vcan0 077#14AC07FD7FF80220
(1486049330.788420) vcan0 07D#0000F0F0001E9807
(1486049330.788470) vcan0 213#FFFF000400021C40
(1486049330.789357) vcan0 167#7280D910001AC300
(1486049330.789427) vcan0 214#000000000000F0F0
(1486049330.789487) vcan0 216#75CB581B00000000
(1486049330.789541) vcan0 202#0429300060AA14B9
(1486049330.790266) vcan0 204#C0007D03F9000000
(1486049330.790308) vcan0 217#11D011D411B011B4
(1486049330.790345) vcan0 415#14CBCC1A08000800
(1486049330.790379) vcan0 41D#8000600000000000
(1486049330.790411) vcan0 261#0000000000000000
(1486049330.791380) vcan0 4B0#01008000F00000F0
(1486049330.791419) vcan0 078#0168800000000000
(1486049330.791454) vcan0 422#000000933802FE02
(1486049330.792361) vcan0 423#9720000000000000
(1486049330.792397) vcan0 430#37000CECC88CF700
(1486049330.793375) vcan0 085#7C5380006B607C43
(1486049330.793413) vcan0 3CC#3000000000000000
(1486049330.796879) vcan0 091#7ED27EFBC070F000
(1486049330.798040) vcan0 092#6FCA7021737DEC70
(1486049330.798112) vcan0 217#11D411D411B411B8
(1486049330.799015) vcan0 047#2000000000000000
(1486049330.799077) vcan0 3CA#FE80080000000000
(1486049330.799118) vcan0 165#10F5590000000000
(1486049330.799156) vcan0 167#7280D910001AC300
(1486049330.799910) vcan0 200#00007FDD80DB0000
(1486049330.799950) vcan0 202#0425380060AA14BC
(1486049330.799988) vcan0 204#C0007D03FA000000
(1486049330.800022) vcan0 230#4006000097000000
(1486049330.802491) vcan0 082#990814048B804000
(1486049330.803611) vcan0 085#7C5380006A707C43
(1486049330.805249) vcan0 242#05B31FF7CF000001
(1486049330.806324) vcan0 3B3#4048020F10050002
(1486049330.806374) vcan0 40A#C000000740ACB200
(1486049330.806415) vcan0 186#1508026700840667
(1486049330.806454) vcan0 187#D61408C800D00300
(1486049330.807262) vcan0 3A8#0100271400000000
(1486049330.807344) vcan0 42C#8C20000008C00000
(1486049330.807380) vcan0 091#7ECD7F00BE71F000
(1486049330.807415) vcan0 092#6FCF702073A8BC71
(1486049330.808260) vcan0 076#3E87C0800FFF0000
(1486049330.808299) vcan0 077#14B307FE7FF80A20
(1486049330.808335) vcan0 07D#0000FF00001F07FA
(1486049330.808369) vcan0 213#FFFF000400021C40
(1486049330.809243) vcan0 167#7280D910001AC300
(1486049330.809281) vcan0 214#000000000000FF00
(1486049330.809315) vcan0 216#87DD6B2E00000000
(1486049330.809349) vcan0 217#11D811D811BC11BC
(1486049330.810244) vcan0 202#0422400060AA14BE
(1486049330.810283) vcan0 204#C0007D03FA000000
(1486049330.810316) vcan0 415#14D7D00D08010801
(1486049330.810348) vcan0 41D#8000600000000000
(1486049330.810380) vcan0 4B0#01008000000000FF
(1486049330.811240) vcan0 42F#7D04002E667A03F9
(1486049330.812224) vcan0 078#0168800000000000
(1486049330.813236) vcan0 085#7C53800069807C43
(1486049330.814253) vcan0 455#A000000000000000
(1486049330.814292) vcan0 05A#00000045EE610000
(1486049330.816749) vcan0 091#7ED87F00B272F000
(1486049330.817915) vcan0 092#6FD2702273AEB072
(1486049330.817966) vcan0 217#11DC11DC11C011BC
(1486049330.818885) vcan0 047#2000000000000000
(1486049330.818926) vcan0 05C#809000F2201E0000
(1486049330.818965) vcan0 165#10F5590000000000
(1486049330.819000) vcan0 167#7280D910001AC400
(1486049330.819868) vcan0 200#00007FDD80DB0000
(1486049330.819905) vcan0 202#041D480060AA14C2
(1486049330.819941) vcan0 204#C0007D03F9000000
(1486049330.819975) vcan0 230#4006000097000000
(1486049330.822398) vcan0 05D#8358B7602F000000
(1486049330.823382) vcan0 082#9B0814088B804000
(1486049330.823425) vcan0 085#7C53800068907C43
(1486049330.823463) vcan0 3CC#3000000000000000
(1486049330.825617) vcan0 186#1508026700840667
(1486049330.826665) vcan0 187#D61408C800D00300
(1486049330.826713) vcan0 3A8#0100271600000000
(1486049330.827638) vcan0 04A#0200000000000000
(1486049330.827680) vcan0 04B#00C0D8D8D8D8C000
(1486049330.827715) vcan0 04C#105FFFC000000000
(1486049330.827751) vcan0 076#3E88C0800FFF0000
(1486049330.827787) vcan0 077#14BB08007FF81A1F
(1486049330.828621) vcan0 07D#0000FE100020C7F3
(1486049330.828661) vcan0 091#7EEA7EFCA473F000
(1486049330.828696) vcan0 092#6FCB70237396CD73
(1486049330.828730) vcan0 167#7280DA10001AC400
(1486049330.829616) vcan0 213#FFFF000400021C40
(1486049330.829653) vcan0 202#0419500060AA14C5
(1486049330.829688) vcan0 204#C0007D03FC000000
(1486049330.829721) vcan0 214#000000000000FE10
(1486049330.830617) vcan0 216#9AF07D3F00000000
(1486049330.830656) vcan0 217#11DC11E011C011BC
(1486049330.830690) vcan0 3CA#FE80080000000000
(1486049330.830723) vcan0 415#14DED40508010801
(1486049330.831741) vcan0 416#5100FD0001000000
(1486049330.831779) vcan0 41D#8000600000000000
(1486049330.831812) vcan0 078#0268000000000000
(1486049330.831845) vcan0 4B0#01008000100000FE
(1486049330.832735) vcan0 085#7C54800066A07C43
(1486049330.836932) vcan0 091#7EF17EFA9E74F000
(1486049330.837924) vcan0 092#6FBE7021737FF274
(1486049330.838008) vcan0 217#11E011E411C411BC
(1486049330.839117) vcan0 047#2000000000000000
(1486049330.839232) vcan0 165#10F5590000000000
(1486049330.840147) vcan0 167#7280DA10001AC400
(1486049330.840303) vcan0 178#000002030E78CE79
(1486049330.841040) vcan0 200#00007FDD80DD0000
(1486049330.841141) vcan0 202#0414580060AA14C9
(1486049330.841220) vcan0 204#C0007D0400000000
(1486049330.841942) vcan0 230#4006000097000000
(1486049330.842020) vcan0 261#0000000000000000
(1486049330.842092) vcan0 33B#0000000000000000
(1486049330.842946) vcan0 42F#7D04002E667A03F9
(1486049330.843021) vcan0 082#980814048B804000
(1486049330.843090) vcan0 085#7C55800064B07C43
(1486049330.845275) vcan0 242#05B31FF7CF000001
(1486049330.846482) vcan0 186#1508026700840667
(1486049330.846642) vcan0 187#D61408C800D00300
(1486049330.847538) vcan0 3A8#0100271700000000
(1486049330.847789) vcan0 091#7EE67EF6AC75F000
(1486049330.847879) vcan0 092#6FB77020737DFB75
(1486049330.847957) vcan0 076#3E88C0800FFF0000
(1486049330.848338) vcan0 077#14C307FF7FF81220
(1486049330.848419) vcan0 07D#0000FD20002077FC
(1486049330.848491) vcan0 213#FFFF000400021C40
(1486049330.848561) vcan0 167#7280DA10001AC400
(1486049330.849426) vcan0 214#000000000000FD20
(1486049330.849504) vcan0 216#AD03905200000000
(1486049330.849573) vcan0 202#0410600060AA14CC
(1486049330.849641) vcan0 204#C0007D0400000000
(1486049330.850423) vcan0 217#11E411E411C411C0
(1486049330.850492) vcan0 415#14E5D8FD08020802
(1486049330.850553) vcan0 41D#8000600000000000
(1486049330.850610) vcan0 4B0#01008000200000FD
(1486049330.851409) vcan0 078#0569800000000000
(1486049330.852409) vcan0 083#4020000008000000
(1486049330.853413) vcan0 085#7C56800062C07C43
(1486049330.853489) vcan0 3CC#3000000000000000
(1486049330.854997) vcan0 42C#8C20000008C00000
(1486049330.855994) vcan0 265#2001010410000000
(1486049330.857013) vcan0 453#3257364570646166
(1486049330.857081) vcan0 091#7ECB7EF4C876F000
(1486049330.858008) vcan0 092#6FBB701E7390E576
(1486049330.858079) vcan0 217#11E811E811C411C0
(1486049330.859148) vcan0 047#2000000000000000
(1486049330.859241) vcan0 3CA#FE80080000000000
(1486049330.859295) vcan0 165#10F5590000000000
(1486049330.859342) vcan0 167#7280DA10001AC500
(1486049330.860020) vcan0 200#00007FDD80DD0000
(1486049330.860088) vcan0 202#040B680060AA14D0
(1486049330.860142) vcan0 204#C0007D03FD000000
(1486049330.860190) vcan0 230#4006000097000000
(1486049330.862766) vcan0 082#990814008B804000
(1486049330.863652) vcan0 085#7C56800061D07C43
(1486049330.865762) vcan0 186#1508026700840667
(1486049330.866774) vcan0 187#D61408C800D00300
(1486049330.866852) vcan0 18A#0020180114000000
(1486049330.866911) vcan0 3A8#0100271700000000
(1486049330.867775) vcan0 091#7EB37EF6DD77F000
(1486049330.867845) vcan0 092#6FC5701A739ED077
(1486049330.867901) vcan0 076#3E8AC0800FFF0000
(1486049330.867948) vcan0 077#14CA07FE7FF7FE1F
(1486049330.868761) vcan0 07D#0000FC30002007FB
(1486049330.868833) vcan0 213#FFFF000400021C40
(1486049330.868885) vcan0 214#000000000000FC30
(1486049330.868933) vcan0 167#7280DA10001AC500
(1486049330.869768) vcan0 216#BE15A16400000000
(1486049330.869883) vcan0 217#11EC11EC11C411C8
(1486049330.869929) vcan0 202#0407700060AA14D3
(1486049330.869969) vcan0 204#C0007D0403000000
(1486049330.870691) vcan0 415#14EDDCF408030803
(1486049330.870773) vcan0 41D#8000600000000000
(1486049330.870848) vcan0 4B0#01008000300000FC
(1486049330.871707) vcan0 078#0168800000000000
(1486049330.871767) vcan0 42F#7D04002E667A0400
(1486049330.872705) vcan0 085#7C56800060E07C43
(1486049330.876956) vcan0 091#7EAC7EFDDC78F000
(1486049330.878102) vcan0 092#6FD2701C738BD378
(1486049330.878183) vcan0 217#11F011F011C811D0
(1486049330.879068) vcan0 047#2000000000000000
(1486049330.879136) vcan0 165#10F5590000000000
(1486049330.879181) vcan0 167#7280DA10001AC500
(1486049330.879217) vcan0 200#00007FDD80DD0000
(1486049330.879997) vcan0 202#0402780060AA14D7
(1486049330.880056) vcan0 204#C0007D0403000000
(1486049330.880098) vcan0 230#4006000097000000
(1486049330.881556) vcan0 5B3#B300FFFFFFFFFFFF
(1486049330.882783) vcan0 081#0000000000000000
(1486049330.882835) vcan0 083#4020000008000000
(1486049330.882867) vcan0 2A1#FFFFFFFF00000000
(1486049330.882893) vcan0 082#990814048B804000
(1486049330.883784) vcan0 085#7C5780005DF07C44
(1486049330.883839) vcan0 3CC#3000000000000000
(1486049330.883871) vcan0 3E6#0001040880000000
(1486049330.885397) vcan0 242#05B31FF7CF000001
(1486049330.886410) vcan0 186#1508026700850667
(1486049330.886465) vcan0 187#D61408C800D00300
(1486049330.887325) vcan0 3A8#0100271900000000
(1486049330.887408) vcan0 091#7EB77F08C479F000
(1486049330.887439) vcan0 092#6FDA7024735BF279
(1486049330.888415) vcan0 076#3E8AC0800FFF0000
(1486049330.888466) vcan0 077#14D107FE7FF80E1D
(1486049330.888498) vcan0 07D#0000FB40002097EB
(1486049330.888528) vcan0 213#FFFF000400021C40
(1486049330.888554) vcan0 167#7280DA10001AC500
(1486049330.889319) vcan0 214#000000000000FB40
(1486049330.889360) vcan0 216#D028B47700000000
(1486049330.889393) vcan0 202#040D000060AA14DB
(1486049330.889420) vcan0 204#C0007D0406000000
(1486049330.890315) vcan0 217#11F411F411C811D4
(1486049330.890356) vcan0 3CA#FE80080000000000
(1486049330.890385) vcan0 415#14F8E0E808030803
(1486049330.890412) vcan0 261#0000000000000000
(1486049330.891292) vcan0 41D#8000600000000000
(1486049330.891330) vcan0 4B0#01008000400000FB
(1486049330.891361) vcan0 078#0068000000000000
(1486049330.891390) vcan0 422#000000933802FE02
(1486049330.892413) vcan0 423#9720000000000000
(1486049330.892451) vcan0 430#3F000CECE88C7700
(1486049330.893413) vcan0 085#7C5780006D007C43
(1486049330.896932) vcan0 091#7ECA7F0EAA7AF000
(1486049330.898037) vcan0 092#6FD57027733E107A
(1486049330.898095) vcan0 217#11FC11FC11C811D4
(1486049330.898934) vcan0 047#2000000000000000
(1486049330.898971) vcan0 165#10F5590000000000
(1486049330.899002) vcan0 167#7280DA10001AC500
(1486049330.899944) vcan0 200#00007FDD80DD0000
(1486049330.899983) vcan0 202#0408080060AA14DF
(1486049330.900014) vcan0 204#C0007D0405000000
(1486049330.900041) vcan0 230#4006000097000000
(1486049330.900928) vcan0 42F#7D04002E667A0403
(1486049330.901921) vcan0 33B#0000000000000000
(1486049330.902938) vcan0 082#980814008B804000
(1486049330.902978) vcan0 085#7C5780006C107C43
(1486049330.905386) vcan0 186#1508026700850667
(1486049330.906411) vcan0 187#D51408C800E00300
(1486049330.906464) vcan0 42C#8C20000008C00000
(1486049330.906491) vcan0 3A8#0100271900000000
(1486049330.907416) vcan0 091#7EE07F0F927BF000
(1486049330.907469) vcan0 092#6FC870267353087B
(1486049330.907501) vcan0 076#3E8CC0800FFF0000
(1486049330.908315) vcan0 077#14D808027FF82620
(1486049330.908355) vcan0 07D#0000FA50001F67EC
(1486049330.908388) vcan0 213#FFFF000400021C40
(1486049330.908415) vcan0 167#7280DA10001AC500
(1486049330.909310) vcan0 214#000000000000FA50
(1486049330.909350) vcan0 216#E33AC68800000000
(1486049330.909384) vcan0 202#0403100060AA14E3
(1486049330.909410) vcan0 204#C0007D0405000000
(1486049330.910447) vcan0 217#120011FC11CC11D8
(1486049330.910487) vcan0 415#1504E4DA08040804
(1486049330.910517) vcan0 41D#8000600000000000
(1486049330.910544) vcan0 4B0#01008000500000FA
(1486049330.911411) vcan0 078#0168800000000000
(1486049330.912554) vcan0 085#7C5780006B207C43
(1486049330.913545) vcan0 3CC#3000000000000000
(1486049330.913582) vcan0 455#A000000000000000
(1486049330.914689) vcan0 05A#00000045F4010000
(1486049330.916805) vcan0 091#7EF17F0F807CF000
(1486049330.917998) vcan0 092#6FBF70227383E47C
(1486049330.918074) vcan0 217#11FC120011D011DC
(1486049330.919100) vcan0 047#2000000000000000
(1486049330.919177) vcan0 3CA#FE80080000000000
(1486049330.919221) vcan0 05C#803000F8201E0000
(1486049330.919993) vcan0 165#10F5590000000000
(1486049330.920049) vcan0 167#7280DB10001AC600
(1486049330.920092) vcan0 200#00007FDD80DD0000
(1486049330.920130) vcan0 202#04FD180060AA14E8
(1486049330.920979) vcan0 204#C0007D0403000000
(1486049330.921037) vcan0 230#4006000097000000
(1486049330.922594) vcan0 05D#83589F5E37000000
(1486049330.923596) vcan0 082#970814008B804000
(1486049330.923680) vcan0 085#7C5780006A307C43
(1486049330.924942) vcan0 186#1508026700850667
(1486049330.925995) vcan0 187#D51408C800E00300
(1486049330.926050) vcan0 242#05B31FF6CF000001
(1486049330.926923) vcan0 3A8#0100271C00000000
(1486049330.927027) vcan0 04A#0200000000000000
(1486049330.927066) vcan0 04B#00C0D8D8D8D8C000
(1486049330.927963) vcan0 04C#105FFFC000000000
(1486049330.928018) vcan0 076#3E8CC0800FFF0000
(1486049330.928059) vcan0 077#14DF08057FF81220
(1486049330.928100) vcan0 07D#0000F960001F47F9
(1486049330.928933) vcan0 091#7EF67F0D7C7DF000
(1486049330.928976) vcan0 092#6FBC701E7397D67D
(1486049330.929016) vcan0 167#7280DB10001AC600
(1486049330.929052) vcan0 213#FFFF000400021C40
(1486049330.929915) vcan0 214#000000000000F960
(1486049330.929959) vcan0 202#04F7200060AA14ED
(1486049330.929998) vcan0 204#C0007D0407000000
(1486049330.930037) vcan0 216#F64CD99B00000000
(1486049330.930076) vcan0 217#11FC120011DC11E0
(1486049330.930908) vcan0 415#1507E8D608050805
(1486049330.930953) vcan0 416#5200FC0001000000
(1486049330.930990) vcan0 41D#8000600000000000
(1486049330.931026) vcan0 42F#7D04002E667B0405
(1486049330.931898) vcan0 4B0#01008000600000F9
(1486049330.931941) vcan0 078#0168800000000000
(1486049330.933021) vcan0 085#7C57800069407C43
(1486049330.936982) vcan0 091#7EED7F0B867EF000
(1486049330.938098) vcan0 092#6FBA701C737AF67E
(1486049330.938180) vcan0 217#11FC120411E811E4
(1486049330.939064) vcan0 047#2000000000000000
(1486049330.939134) vcan0 165#10F5590000000000
(1486049330.940097) vcan0 167#7280DC10001AC600
(1486049330.940174) vcan0 178#000002030E78CE79
(1486049330.940217) vcan0 200#00007FDD80DD0000
(1486049330.940990) vcan0 202#04F2280060AA14F1
(1486049330.941047) vcan0 204#C0007D0407000000
(1486049330.941089) vcan0 230#4006000097000000
(1486049330.941126) vcan0 261#0000000000000000
(1486049330.942587) vcan0 082#970814008B804000
(1486049330.943729) vcan0 085#7C57800068507C43
(1486049330.943811) vcan0 3CC#3000000000000000
(1486049330.944715) vcan0 186#1508026700850667
(1486049330.945857) vcan0 187#D51408C800E00300
(1486049330.946916) vcan0 3A8#0100271C00000000
(1486049330.947012) vcan0 091#7ED67F0D9A7FF000
(1486049330.947919) vcan0 092#6FBA701B7347297F
(1486049330.947973) vcan0 076#3E89C0800FFF0000
(1486049330.948007) vcan0 077#14E708047FF8021E
(1486049330.948034) vcan0 07D#0000F870002077FF
(1486049330.948915) vcan0 213#FFFF000400021C40
(1486049330.948967) vcan0 214#000000000000F870
(1486049330.949003) vcan0 167#7280DC10001AC600
(1486049330.949030) vcan0 216#085EECAD00000000
(1486049330.949840) vcan0 202#04EE300060AA14F4
(1486049330.949881) vcan0 204#C0007D040D000000
(1486049330.949912) vcan0 217#1200120411F411EC
(1486049330.949939) vcan0 3CA#FE80080000000000
(1486049330.950812) vcan0 415#1505ECD708050805
(1486049330.950851) vcan0 41D#8000600000000000
(1486049330.950880) vcan0 4B0#01008000700000F8
(1486049330.950908) vcan0 078#0469000000000000
(1486049330.952537) vcan0 085#7C57800068607C42
(1486049330.954140) vcan0 3A7#0E401A045F700000
(1486049330.955513) vcan0 42C#8C20000008C00000
(1486049330.956659) vcan0 091#7EBB7F0FB280F000
(1486049330.957663) vcan0 092#6FBE701D73214880
(1486049330.957717) vcan0 217#1204120811F811EC
(1486049330.958638) vcan0 047#2000000000000000
(1486049330.958684) vcan0 165#10F5590000000000
(1486049330.959666) vcan0 167#7280DC10001AC600
(1486049330.959717) vcan0 200#00007FDC80DD0000
(1486049330.959749) vcan0 202#04EA380060AA14F7
(1486049330.960565) vcan0 204#C0007D040D000000
(1486049330.960603) vcan0 230#4006000097000000
(1486049330.960633) vcan0 42F#7D04002E667B0407
(1486049330.961669) vcan0 33B#0000000000000000
(1486049330.962780) vcan0 082#940814008B804000
(1486049330.963792) vcan0 085#7C57800066707C43
(1486049330.964887) vcan0 186#1508026700850667
(1486049330.965922) vcan0 187#D51408C800E00300
(1486049330.965963) vcan0 18A#0020180114000000
(1486049330.966906) vcan0 242#05B31FF6CF000001
(1486049330.966954) vcan0 3A8#0100271900000000
(1486049330.967025) vcan0 091#7EA27F0FCA81F000
(1486049330.967906) vcan0 092#6FC7702073144881
(1486049330.967960) vcan0 076#3E89C0800FFF0000
(1486049330.967990) vcan0 077#14F108057FF8021D
(1486049330.968016) vcan0 07D#0000F780001F07EE
(1486049330.968916) vcan0 213#FFFF000400021D40
(1486049330.968969) vcan0 214#000000000000F780
(1486049330.968998) vcan0 167#7280DC10001AC600
(1486049330.969023) vcan0 216#1B71FEC000000000
(1486049330.969946) vcan0 202#04E7400060AA14F9
(1486049330.969985) vcan0 204#C0007D040D000000
(1486049330.970014) vcan0 217#120C120C11F411EC
(1486049330.970039) vcan0 415#1510F0CB08060806
(1486049330.970065) vcan0 41D#8000600000000000
(1486049330.970903) vcan0 4B0#01008000800000F7
(1486049330.970933) vcan0 078#0168800000000000
(1486049330.972163) vcan0 3A6#0E401A045F700000
(1486049330.973182) vcan0 085#7C57800065807C43
(1486049330.973218) vcan0 3CC#3000000000000000
(1486049330.977028) vcan0 091#7E9B7F0FD082F000
(1486049330.978028) vcan0 092#6FD17024731F2E82
(1486049330.978079) vcan0 217#1210121011E811E8
(1486049330.979009) vcan0 047#2000000000000000
(1486049330.979051) vcan0 3CA#FE80080000000000
(1486049330.979077) vcan0 165#10F5590000000000
(1486049330.979102) vcan0 167#7280DC10001AC600
(1486049330.980039) vcan0 200#00007FDC80DD0000
(1486049330.980089) vcan0 202#04E3480060AA14FC
(1486049330.980119) vcan0 204#C0007D040E000000
(1486049330.980146) vcan0 230#4006000097000000
(1486049330.981676) vcan0 083#4020000008000000
(1486049330.982775) vcan0 2A1#FFFFFFFF00000000
(1486049330.982823) vcan0 082#930814008B804000
(1486049330.983777) vcan0 085#7C57800064907C43
(1486049330.984773) vcan0 186#1508026800860668
(1486049330.985763) vcan0 187#D51408C800E00300
(1486049330.986881) vcan0 3A8#0100271900000000
(1486049330.987908) vcan0 091#7EAA7F11BE83F000
(1486049330.987960) vcan0 092#6FD870297341FF83
(1486049330.987989) vcan0 076#3E89C0800FFF0000
(1486049330.988013) vcan0 077#14F808047FF8121F
(1486049330.988907) vcan0 07D#0000F690001E27E6
(1486049330.988961) vcan0 213#FFFF000400021C40
(1486049330.988994) vcan0 167#7280DC10001AC600
(1486049330.989019) vcan0 214#000000000000F690
(1486049330.989849) vcan0 216#2E830FD300000000
(1486049330.989886) vcan0 217#1218121411E011E8
(1486049330.989915) vcan0 202#04DF500060AA14FF
(1486049330.989939) vcan0 204#C0007D0410000000
(1486049330.990803) vcan0 415#151DF4BD08060806
(1486049330.990838) vcan0 41D#8000600000000000
(1486049330.990864) vcan0 4B0#01008000900000F6
(1486049330.990888) vcan0 59E#9E00FFFFFFFFFFFF
(1486049330.990910) vcan0 261#0000000000000000
(1486049330.991779) vcan0 078#0168800000000000
(1486049330.991813) vcan0 422#000000933802FE02
(1486049330.991838) vcan0 423#9720000000000000
(1486049330.991861) vcan0 430#37000CECC88C7700
(1486049330.992778) vcan0 42F#7D04002E667B040D
(1486049330.992814) vcan0 43A#0000020000000000
(1486049330.992840) vcan0 085#7C57800063A07C43
(1486049330.996902) vcan0 091#7ECB7F139A84F000
(1486049330.998021) vcan0 092#6FD9702B7368D484
(1486049330.998069) vcan0 217#1218121411E011EC
(1486049330.999020) vcan0 047#2000000000000000
(1486049330.999065) vcan0 165#10F5590000000000
(1486049330.999090) vcan0 167#7280DB10001AC600
(1486049331.000026) vcan0 200#00007FDC80DE0000
(1486049331.000075) vcan0 202#04D8580060AA1504
(1486049331.000102) vcan0 204#C0007D0416000000
(1486049331.000126) vcan0 230#4006000097000000
(1486049331.002550) vcan0 082#940814008B804000
(1486049331.003646) vcan0 085#7C57800062B07C43
(1486049331.003694) vcan0 3CC#3000000000000000
(1486049331.004625) vcan0 186#1508026800860668
(1486049331.005643) vcan0 187#D41408C800F00300
(1486049331.006779) vcan0 242#05B31FF8CF000001
(1486049331.006825) vcan0 40A#C100334641365030
(1486049331.006855) vcan0 3A8#0100271900000000
(1486049331.006916) vcan0 42C#8C20000008C00000
(1486049331.007774) vcan0 091#7EEB7F117B85F000
(1486049331.007824) vcan0 092#6FD17028737DC985
(1486049331.007851) vcan0 076#3E89C0800FFF0000
(1486049331.007874) vcan0 077#14FE08057FF82222
(1486049331.008683) vcan0 07D#0000F5A0001EF7E8
(1486049331.008719) vcan0 213#FFFF000400021B40
(1486049331.008747) vcan0 167#7280DC10001AC600
(1486049331.008772) vcan0 214#000000000000F5A0
(1486049331.009674) vcan0 216#409622E500000000
(1486049331.009709) vcan0 202#04D3600060AA1508
(1486049331.009737) vcan0 204#C0007D0416000000
(1486049331.009760) vcan0 217#1218121411E411F0
(1486049331.010674) vcan0 3CA#FE80080000000000
(1486049331.010708) vcan0 415#1523F8B608060806
(1486049331.010735) vcan0 41D#8000600000000000
(1486049331.010776) vcan0 4B0#01008000A00000F5
(1486049331.011615) vcan0 078#0068000000000000
(1486049331.012610) vcan0 085#7C57800061C07C43
(1486049331.013600) vcan0 455#A000000000000000
(1486049331.014650) vcan0 05A#00000045EAA10000
(1486049331.016899) vcan0 091#7EFB7F0C6F86F000
(1486049331.017901) vcan0 092#6FC07022737BE186
(1486049331.017947) vcan0 217#121C121C11F011F4
(1486049331.018902) vcan0 047#2000000000000000
(1486049331.018945) vcan0 05C#80D000EE201E0000
(1486049331.018981) vcan0 165#10F5590000000000
(1486049331.019014) vcan0 167#7280DC10001AC600
(1486049331.019860) vcan0 200#00007FDC80DE0000
(1486049331.019893) vcan0 202#04CE680060AA150C
(1486049331.019924) vcan0 204#C0007D0416000000
(1486049331.020854) vcan0 230#4006000097000000
(1486049331.020886) vcan0 42F#7D04002E667B0410
(1486049331.022011) vcan0 33B#0000000000000000
(1486049331.022982) vcan0 05D#8358875F3C000000
(1486049331.023077) vcan0 082#940814008B804000
(1486049331.023155) vcan0 085#7C57800060D07C43
(1486049331.024041) vcan0 186#1508026800860668
(1486049331.025037) vcan0 187#D41408C800F00300
(1486049331.026159) vcan0 3A8#0100271900000000
(1486049331.027164) vcan0 04A#0200000000000000
(1486049331.027242) vcan0 04B#00C0D8D8D8D8C000
(1486049331.027311) vcan0 04C#105FFFC000000000
(1486049331.028199) vcan0 091#7EFC7F087187F000
(1486049331.028282) vcan0 076#3E89C0800FFF0000
(1486049331.028351) vcan0 077#150408057FF81A21
(1486049331.028423) vcan0 07D#0000F4B0002007FD
(1486049331.028493) vcan0 092#6FB1701F7374F987
(1486049331.029169) vcan0 167#7280DC10001AC600
(1486049331.029242) vcan0 213#FFFF000400021B40
(1486049331.029308) vcan0 214#000000000000F4B0
(1486049331.029376) vcan0 202#04C9700060AA1510
(1486049331.030301) vcan0 204#C0007D0415000000
(1486049331.030377) vcan0 216#53A935F800000000
(1486049331.030446) vcan0 217#1220122411F411F4
(1486049331.030514) vcan0 415#1529FCAF08060806
(1486049331.031293) vcan0 416#5300FB0001000000
(1486049331.031392) vcan0 41D#8000600000000000
(1486049331.031463) vcan0 4B0#01008000B00000F4
(1486049331.031531) vcan0 078#0168800000000000
(1486049331.032535) vcan0 085#7C5780005FE07C43
(1486049331.033520) vcan0 3CC#3000000000000000
(1486049331.036909) vcan0 091#7EF47F087888F000
(1486049331.038159) vcan0 092#6FB0701D7376F988
(1486049331.038329) vcan0 217#1224122411F811FC
(1486049331.039102) vcan0 047#2000000000000000
(1486049331.039254) vcan0 3CA#FE80080000000000
(1486049331.039348) vcan0 165#10F5590000000000
(1486049331.040034) vcan0 167#7280DC10001AC600
(1486049331.040131) vcan0 178#000002040E77CE79
(1486049331.040214) vcan0 200#00007FDC80DF0000
(1486049331.040945) vcan0 202#04C4780060AA1514
(1486049331.041025) vcan0 204#C0007D0415000000
(1486049331.041096) vcan0 230#4006000097000000
(1486049331.041165) vcan0 261#0000000000000000
(1486049331.042527) vcan0 082#940814008B804000
(1486049331.043560) vcan0 085#7C5780005EF07C43
(1486049331.044548) vcan0 186#1508026800860668
(1486049331.044614) vcan0 187#D41408C800F00300
(1486049331.045684) vcan0 242#05B31FF9CF000001
(1486049331.046827) vcan0 3A8#0100271900000000
(1486049331.047060) vcan0 091#7EE07F0C8789F000
(1486049331.047739) vcan0 092#6FBE701D737AE689
(1486049331.047830) vcan0 076#3E89C0800FFF0000
(1486049331.047899) vcan0 077#150B08027FF7FA1E
(1486049331.048707) vcan0 07D#0000F3C0001FD801
(1486049331.048783) vcan0 213#FFFF000400021B40
(1486049331.048847) vcan0 214#000000000000F3C0
(1486049331.048911) vcan0 167#7280DC10001AC600
(1486049331.048985) vcan0 216#65BB470900000000
(1486049331.050079) vcan0 217#1228122811FC1200
(1486049331.050264) vcan0 202#04D0000060AA1517
(1486049331.050360) vcan0 204#C0007D0419000000
(1486049331.050620) vcan0 415#1536C0B108060806
(1486049331.050707) vcan0 41D#8000600000000000
(1486049331.050749) vcan0 4B0#01008000C00000F3
(1486049331.051685) vcan0 078#0569800000000000
(1486049331.051773) vcan0 42F#7D04002E667B0416
(1486049331.052786) vcan0 085#7C5780006D007C43
(1486049331.054863) vcan0 42C#8C20000008C00000
(1486049331.056834) vcan0 091#7EC97F10998AF000
(1486049331.057873) vcan0 092#6FCC70217375D88A
(1486049331.057949) vcan0 217#1224122811FC1208
(1486049331.058928) vcan0 047#2000000000000000
(1486049331.058985) vcan0 165#10F5590000000000
(1486049331.059036) vcan0 167#7280DC10001AC500
(1486049331.059089) vcan0 200#00007FDC80DF0000
(1486049331.059902) vcan0 202#04CA080060AA151C
(1486049331.059957) vcan0 204#C0007D041A000000
(1486049331.060006) vcan0 230#4006000097000000
(1486049331.062504) vcan0 082#940814008B804000
(1486049331.063694) vcan0 085#7C5780006C107C43
(1486049331.063772) vcan0 3CC#3000000000000000
(1486049331.064532) vcan0 186#1508026800860668
(1486049331.064579) vcan0 187#D41408C800F00300
(1486049331.064621) vcan0 18A#0020180114000000
(1486049331.066297) vcan0 3A8#0100271900000000
(1486049331.067452) vcan0 091#7EB77F14A68BF000
(1486049331.067526) vcan0 092#6FCF7029736DD48B
(1486049331.068467) vcan0 076#3E89C0800FFF0000
(1486049331.068546) vcan0 077#151108037FF8061E
(1486049331.068600) vcan0 07D#0000F2D0001FF7F9
(1486049331.068649) vcan0 213#FFFF000400021B40
(1486049331.068694) vcan0 214#000000000000F2D0
(1486049331.069454) vcan0 167#7280DB10001AC600
(1486049331.069539) vcan0 216#78CE5A1C00000000
(1486049331.069591) vcan0 202#04C5100060AA1520
(1486049331.069637) vcan0 204#C0007D041A000000
(1486049331.070294) vcan0 217#1228122C12041210
(1486049331.070365) vcan0 3CA#FE80080000000000
(1486049331.070426) vcan0 415#1539C4AD08060806
(1486049331.070491) vcan0 41D#8000600000000000
(1486049331.071308) vcan0 4B0#01008000D00000F2
(1486049331.071371) vcan0 078#0068000000000000
(1486049331.072520) vcan0 085#7C5780006B207C43
(1486049331.076933) vcan0 091#7EB27F13AB8CF000
(1486049331.078071) vcan0 092#6FC7702F7369D98C
(1486049331.078160) vcan0 217#1228122C120C1214
(1486049331.078954) vcan0 047#2000000000000000
(1486049331.079017) vcan0 165#10F5590000000000
(1486049331.079067) vcan0 167#7280DB10001AC600
(1486049331.079957) vcan0 200#00007FDC80DF0000
(1486049331.080017) vcan0 202#04C0180060AA1524
(1486049331.080068) vcan0 204#C0007D0419000000
(1486049331.080128) vcan0 230#4006000097000000
(1486049331.080880) vcan0 42F#7D04002E667B0419
(1486049331.081871) vcan0 083#4020000008000000
(1486049331.081919) vcan0 2A1#FFFFFFFF00000000
(1486049331.083014) vcan0 33B#0000000000000000
(1486049331.083060) vcan0 082#930814008B804000
(1486049331.083106) vcan0 085#7C5780006A307C43
(1486049331.084009) vcan0 186#1508026800870668
(1486049331.084057) vcan0 187#D41408C800F00300
(1486049331.085251) vcan0 242#05B31FF9CF000001
(1486049331.086378) vcan0 3A8#0100271900000000
(1486049331.087420) vcan0 091#7EBC7F0CA78DF000
(1486049331.087470) vcan0 092#6FC070317366E08D
(1486049331.087514) vcan0 076#3E89C0800FFF0000
(1486049331.088417) vcan0 077#151908067FF81A22
(1486049331.088465) vcan0 07D#0000F1E0001FB7EC
(1486049331.088510) vcan0 213#FFFF000400021B40
(1486049331.088551) vcan0 167#7280DC10001AC600
(1486049331.089382) vcan0 214#000000000000F1E0
(1486049331.089430) vcan0 216#8BE06C2E00000000
(1486049331.089472) vcan0 202#04BC200060AA1527
(1486049331.089514) vcan0 204#C0007D0416000000
(1486049331.090376) vcan0 217#122C122C12141214
(1486049331.090422) vcan0 415#153AC8AB08060806
(1486049331.090464) vcan0 41D#8000600000000000
(1486049331.090504) vcan0 261#0000000000000000
(1486049331.091386) vcan0 4B0#01008000E00000F1
(1486049331.091433) vcan0 078#0168800000000000
(1486049331.091475) vcan0 422#000000933802FE02
(1486049331.091515) vcan0 423#9720000000000000
(1486049331.092361) vcan0 430#37000CECC88C7700
(1486049331.092405) vcan0 431#057B00C609800002
(1486049331.093368) vcan0 085#7C57800069407C43
(1486049331.093414) vcan0 3CC#3000000000000000
(1486049331.096759) vcan0 091#7ECD7F049D8EF000
(1486049331.097923) vcan0 092#6FBE7031735DEA8E
(1486049331.097986) vcan0 217#123012341218121C
(1486049331.098912) vcan0 3CA#FE80080000000000
(1486049331.098961) vcan0 047#2000000000000000
(1486049331.099005) vcan0 165#10F5590000000000
(1486049331.099919) vcan0 167#7280DC10001AC600
(1486049331.099966) vcan0 200#00007FDC80E00000
(1486049331.100010) vcan0 202#04B8280060AA152A
(1486049331.100053) vcan0 204#C0007D041A000000
(1486049331.100876) vcan0 230#4006000097000000
(1486049331.102503) vcan0 082#930814008B804000
(1486049331.103495) vcan0 085#7C57800068507C43
(1486049331.104519) vcan0 186#1508026800870668
(1486049331.104565) vcan0 187#D41408C800F00300
(1486049331.105643) vcan0 42C#8C20000008C00000
(1486049331.106653) vcan0 3A8#0100271900000000
(1486049331.106743) vcan0 091#7EE07F008D8FF000
(1486049331.107655) vcan0 092#6FC170317356ED8F
(1486049331.107703) vcan0 076#3E89C0800FFF0000
(1486049331.107745) vcan0 077#152208037FF80A24
(1486049331.108643) vcan0 07D#0000F0F0001F97EE
(1486049331.108691) vcan0 213#FFFF000400021C40
(1486049331.108735) vcan0 214#000000000000F0F0
(1486049331.108777) vcan0 167#7280DC10001AC600
(1486049331.108817) vcan0 216#9DF37F4100000000
(1486049331.109641) vcan0 217#1238123812201218
(1486049331.109688) vcan0 202#04B5300060AA152C
(1486049331.109730) vcan0 204#C0007D041A000000
(1486049331.109769) vcan0 415#1545CC9F08060806
(1486049331.110631) vcan0 41D#8000600000000000
(1486049331.110674) vcan0 4B0#01008000F00000F0
(1486049331.111623) vcan0 078#0168800000000000
(1486049331.111668) vcan0 42F#7D04002E667B0419
(1486049331.112629) vcan0 085#7C57800067607C43
(1486049331.113642) vcan0 455#A000000000000000
(1486049331.114778) vcan0 05A#00000045F0410000
(1486049331.116532) vcan0 091#7EE97F018290F000
(1486049331.117535) vcan0 092#6FC770337354E690
(1486049331.117585) vcan0 217#123C123C12281220
(1486049331.118704) vcan0 047#2000000000000000
(1486049331.118781) vcan0 05C#807000F4201E0000
(1486049331.119697) vcan0 165#10F5590000000000
(1486049331.119784) vcan0 167#7280DC10001AC700
(1486049331.119840) vcan0 200#00007FDC80E00000
(1486049331.119887) vcan0 202#04B0380060AA1530
(1486049331.120585) vcan0 204#C0007D041F000000
(1486049331.120646) vcan0 230#4006000097000000
(1486049331.122415) vcan0 05D#8358AF6031000000
(1486049331.123394) vcan0 082#930814008B804000
(1486049331.123442) vcan0 085#7C57800066707C43
(1486049331.123487) vcan0 3CC#3000000000000000
(1486049331.123530) vcan0 186#1505026800870668
(1486049331.124390) vcan0 187#E31408C800000300
(1486049331.125508) vcan0 242#05B31FFACF000001
(1486049331.126491) vcan0 3A8#0100271900000000
(1486049331.126585) vcan0 04A#0200000000000000
(1486049331.127577) vcan0 04B#00C0D8D8D8D8C000
(1486049331.127636) vcan0 04C#105FFFC000000000
(1486049331.127684) vcan0 091#7EE57F077F91F000
(1486049331.127731) vcan0 076#3E89C0800FFF0000
(1486049331.128527) vcan0 077#152C08007FF80A24
(1486049331.128578) vcan0 07D#0000FF00001F57FC
(1486049331.128624) vcan0 092#6FC970367352E291
(1486049331.128666) vcan0 167#7280DD10001AC700
(1486049331.129519) vcan0 213#FFFF000400021D40
(1486049331.129567) vcan0 214#000000000000FF00
(1486049331.129611) vcan0 202#04AC400060AA1533
(1486049331.129652) vcan0 204#C0007D041C000000
(1486049331.130505) vcan0 216#B007925400000000
(1486049331.130552) vcan0 217#124012401224121C
(1486049331.130594) vcan0 3CA#FE80080000000000
(1486049331.130636) vcan0 415#1551D09208060806
(1486049331.131513) vcan0 416#5400FA0001000000
(1486049331.131559) vcan0 41D#8000600000000000
(1486049331.131600) vcan0 4B0#01008000000000FF
(1486049331.131641) vcan0 078#0068000000000000
(1486049331.132493) vcan0 085#7C56800066807C43
(1486049331.136882) vcan0 091#7ED97F0A8792F000
(1486049331.137873) vcan0 092#6FC470357350E992
(1486049331.137920) vcan0 217#1244124412241220
(1486049331.138938) vcan0 047#2000000000000000
(1486049331.139001) vcan0 165#10F5590000000000
(1486049331.140065) vcan0 167#7280DD10001AC700
(1486049331.140149) vcan0 178#000002020E78CE79
(1486049331.141071) vcan0 200#00007FDC80E00000
(1486049331.141151) vcan0 202#04A6480060AA1538
(1486049331.141206) vcan0 204#C0007D041C000000
(1486049331.141252) vcan0 230#4006000097000000
(1486049331.142051) vcan0 261#0000000000000000
(1486049331.142125) vcan0 33B#0000000000000000
(1486049331.142965) vcan0 42F#7D04002E667C041F
(1486049331.143028) vcan0 082#910814008B804000
(1486049331.143079) vcan0 085#7C56800065907C43
(1486049331.143879) vcan0 186#1503026800870668
(1486049331.143929) vcan0 187#E31408C800000300
(1486049331.146131) vcan0 3A8#0100271900000000
(1486049331.147141) vcan0 091#7ED57F0A8A93F000
(1486049331.147193) vcan0 092#6FBF70307359E993
(1486049331.148160) vcan0 076#3E89C0800FFF0000
(1486049331.148207) vcan0 077#153608027FF81225
(1486049331.148252) vcan0 07D#0000FE10001F37FB
(1486049331.148296) vcan0 213#FFFF000400021E40
(1486049331.149265) vcan0 214#000000000000FE10
(1486049331.149313) vcan0 167#7280DD10001AC700
(1486049331.149354) vcan0 216#C21AA46600000000
(1486049331.149395) vcan0 202#04A1500060AA153C
(1486049331.150253) vcan0 204#C0007D041A000000
(1486049331.150300) vcan0 217#124C124C12201224
(1486049331.150343) vcan0 415#155BD48708060806
(1486049331.150385) vcan0 41D#8000600000000000
(1486049331.150425) vcan0 4B0#01008000100000FE
(1486049331.151255) vcan0 078#0569800000000000
(1486049331.152503) vcan0 085#7C56800064A07C43
(1486049331.153499) vcan0 3CC#3000000000000000
(1486049331.154519) vcan0 3A7#0E401A045F700000
(1486049331.155517) vcan0 42C#8C20000008C00000
(1486049331.156649) vcan0 456#8000000000000000
(1486049331.157657) vcan0 091#7EDE7F098194F000
(1486049331.157705) vcan0 092#6FBF702E736CD794
(1486049331.157749) vcan0 217#1250125412201228
(1486049331.158644) vcan0 047#2000000000000000
(1486049331.158689) vcan0 3CA#FE80080000000000
(1486049331.158731) vcan0 165#10F5590000000000
(1486049331.159638) vcan0 167#7280DD10001AC800
(1486049331.159685) vcan0 200#00007FDC80E00000
(1486049331.159725) vcan0 202#049B580060AA1541
(1486049331.159766) vcan0 204#C0007D041B000000
(1486049331.160609) vcan0 230#4006000097000000
(1486049331.162507) vcan0 082#8F0814008B804000
(1486049331.163510) vcan0 085#7C56800063B07C43
(1486049331.163558) vcan0 186#1502026800880668
(1486049331.163602) vcan0 187#E31408C800000300
(1486049331.164518) vcan0 18A#0020180114000000
(1486049331.164563) vcan0 3E5#0000000080000000
(1486049331.165622) vcan0 242#05B31FFACF000001
(1486049331.166624) vcan0 3A8#0100271900000000
(1486049331.167660) vcan0 091#7EE37F057F95F000
(1486049331.167709) vcan0 092#6FC170307376C895
(1486049331.167755) vcan0 076#3E87C0800FFF0000
(1486049331.167809) vcan0 077#153E08037FF80623
(1486049331.168658) vcan0 07D#0000FD20001F67F6
(1486049331.168707) vcan0 213#FFFF000400021E40
(1486049331.168749) vcan0 167#7280DD10001AC800
(1486049331.168789) vcan0 214#000000000000FD20
(1486049331.169640) vcan0 216#D62CB77900000000
(1486049331.169686) vcan0 217#1254125812281234
(1486049331.169729) vcan0 202#0496600060AA1545
(1486049331.169770) vcan0 204#C0007D041B000000
(1486049331.170622) vcan0 415#156CD87508060806
(1486049331.170668) vcan0 41D#8000600000000000
(1486049331.170708) vcan0 4B0#01008000200000FD
(1486049331.171631) vcan0 078#0168800000000000
(1486049331.171677) vcan0 42F#7D04002E667C041A
(1486049331.172629) vcan0 3A6#0E401A045F700000
(1486049331.172675) vcan0 085#7C56800062C07C43
(1486049331.176869) vcan0 091#7ED67F038D96F000
(1486049331.178072) vcan0 092#6FBF70327371CC96
(1486049331.178156) vcan0 217#125C1258122C1238
(1486049331.178967) vcan0 047#2000000000000000
(1486049331.179026) vcan0 165#10F5590000000000
(1486049331.179075) vcan0 167#7280DE10001AC800
(1486049331.179123) vcan0 200#00007FDC80E00000
(1486049331.179913) vcan0 202#048F680060AA154B
(1486049331.179964) vcan0 204#C0007D041F000000
(1486049331.180008) vcan0 230#4006000097000000
(1486049331.181752) vcan0 083#4020000008000000
(1486049331.182766) vcan0 2A1#FFFFFFFF00000000
(1486049331.182812) vcan0 082#900814008B804000
(1486049331.182858) vcan0 085#7C56800061D07C43
(1486049331.183763) vcan0 3CC#3000000000000000
(1486049331.183810) vcan0 186#1501026800880668
(1486049331.183855) vcan0 187#E31408C800000300
(1486049331.186259) vcan0 3A8#0100271600000000
(1486049331.187250) vcan0 091#7EC57F049C97F000
(1486049331.187299) vcan0 092#6FBF70307368D697
(1486049331.188389) vcan0 076#3E87C0800FFF0000
(1486049331.188435) vcan0 077#154708017FF80A23
(1486049331.188480) vcan0 07D#0000FC30001FE7FA
(1486049331.188525) vcan0 213#FFFF000400021E40
(1486049331.188565) vcan0 167#7280DE10001AC800
(1486049331.189390) vcan0 214#000000000000FC30
(1486049331.189437) vcan0 216#E93FCA8D00000000
(1486049331.189480) vcan0 202#0489700060AA1550
(1486049331.189521) vcan0 204#C0007D0423000000
(1486049331.190375) vcan0 217#125C125C1230123C
(1486049331.190422) vcan0 3CA#FE80080000000000
(1486049331.190462) vcan0 415#1574DC6C08060806
(1486049331.190503) vcan0 261#0000000000000000
(1486049331.191382) vcan0 41D#8000600000000000
(1486049331.191427) vcan0 078#0068000000000000
(1486049331.191470) vcan0 422#000000933802FE02
(1486049331.191509) vcan0 423#9720000000000000
(1486049331.192367) vcan0 430#37000CECC88C7700
(1486049331.192411) vcan0 4B0#01008000300000FC
(1486049331.193365) vcan0 085#7C56800060E07C43
(1486049331.194754) vcan0 3EB#C604140202200000
(1486049331.196899) vcan0 091#7EC37F079A98F000
(1486049331.197912) vcan0 092#6FC1702E7362DB98
(1486049331.197960) vcan0 217#125C126012381240
(1486049331.198895) vcan0 047#2000000000000000
(1486049331.198941) vcan0 165#10F5590000000000
(1486049331.198984) vcan0 167#7280DE10001AC800
(1486049331.199883) vcan0 200#00007FDC80E00000
(1486049331.199928) vcan0 202#0482780060AA1556
(1486049331.199970) vcan0 204#C0007D0422000000
(1486049331.200880) vcan0 230#4006000097000000
(1486049331.200925) vcan0 42F#7D04002E667C041F
(1486049331.201989) vcan0 33B#0000000000000000
(1486049331.202994) vcan0 082#900814008B804000
(1486049331.203040) vcan0 085#7C55800061F07C42
(1486049331.204196) vcan0 186#1504026800880668
(1486049331.204286) vcan0 187#E21408C800100300
(1486049331.205205) vcan0 242#05B31FFBCF000001
(1486049331.206312) vcan0 3A8#0100271600000000
(1486049331.207336) vcan0 091#7ECE7F088D99F000
(1486049331.207397) vcan0 092#6FC1702B7363DC99
(1486049331.208300) vcan0 076#3E87C0800FFF0000
(1486049331.208349) vcan0 077#155008017FF80623
(1486049331.208395) vcan0 07D#0000FB40001FA7F1
(1486049331.208440) vcan0 213#FFFF000400021F40
(1486049331.209270) vcan0 214#000000000000FB40
(1486049331.209319) vcan0 167#7280DE10001AC700
(1486049331.209362) vcan0 216#FC52DC9F00000000
(1486049331.209403) vcan0 202#048C000060AA155B
(1486049331.209446) vcan0 217#12601264123C1240
(1486049331.210251) vcan0 204#C0007D0422000000
(1486049331.210309) vcan0 40A#C1014B3931485232
(1486049331.210356) vcan0 415#1577E06808060806
(1486049331.210396) vcan0 41D#8000600000000000
(1486049331.211251) vcan0 42C#8C20000008C00000
(1486049331.211296) vcan0 4B0#01008000400000FB
(1486049331.211339) vcan0 078#0168800000000000
(1486049331.212493) vcan0 085#7C55800070007C42
(1486049331.213499) vcan0 3CC#3000000000000000
(1486049331.213544) vcan0 3E2#0000000080000000
(1486049331.214496) vcan0 05A#00000045E6E10000
(1486049331.214543) vcan0 168#0000000000000000
(1486049331.214584) vcan0 455#A000000000000000
(1486049331.216868) vcan0 091#7EDD7F097C9AF000
(1486049331.217872) vcan0 092#6FBF702A736DD49A
(1486049331.217919) vcan0 217#1264126812441244
(1486049331.218870) vcan0 047#2000000000000000
(1486049331.218915) vcan0 3CA#FE80080000000000
(1486049331.218957) vcan0 05C#801000FA201E0000
(1486049331.219000) vcan0 165#10F5590000000000
(1486049331.219886) vcan0 167#7280DD10001AC700
(1486049331.219933) vcan0 200#00007FDC80E00000
(1486049331.219973) vcan0 202#0487080060AA155F
(1486049331.220013) vcan0 204#C0007D0424000000
(1486049331.220858) vcan0 230#4006000097000000
(1486049331.222541) vcan0 186#1504026800880668
(1486049331.223571) vcan0 05D#8358975F38000000
(1486049331.223659) vcan0 082#900814008B804000
(1486049331.223709) vcan0 085#7C5580006F107C42
(1486049331.223757) vcan0 187#E21408C800100300
(1486049331.225420) vcan0 3EB#C604140202200000
(1486049331.226418) vcan0 3A8#0100271600000000
(1486049331.227441) vcan0 04A#0200000000000000
(1486049331.227520) vcan0 04B#00C0D8D8D8D8C000
(1486049331.227568) vcan0 04C#105FFFC000000000
(1486049331.227613) vcan0 091#7EED7F096B9BF000
(1486049331.228337) vcan0 076#3E87C0800FFF0000
(1486049331.228397) vcan0 077#155908027FF80A22
(1486049331.228448) vcan0 07D#0000FA50001F87F4
(1486049331.228495) vcan0 092#6FC1702A737AC49B
(1486049331.229273) vcan0 167#7280DD10001AC700
(1486049331.229320) vcan0 213#FFFF000400021E40
(1486049331.229365) vcan0 214#000000000000FA50
(1486049331.229407) vcan0 216#0E64EFB200000000
(1486049331.230270) vcan0 202#0482100060AA1563
(1486049331.230317) vcan0 204#C0007D0424000000
(1486049331.230358) vcan0 217#1268126C12481244
(1486049331.230399) vcan0 415#157FE45F08060806
(1486049331.230442) vcan0 416#5500F90001000000
(1486049331.231261) vcan0 41D#8000600000000000
(1486049331.231306) vcan0 42F#7D04002E667C0422
(1486049331.231348) vcan0 4B0#01008000500000FA
(1486049331.231392) vcan0 078#0168800000000000
(1486049331.232504) vcan0 085#7C5580006E207C42
(1486049331.236505) vcan0 091#7EFA7F085E9CF000
(1486049331.237691) vcan0 092#6FC5702D7373C39C
(1486049331.237780) vcan0 217#126C126C124C1248
(1486049331.238570) vcan0 047#2000000000000000
(1486049331.239582) vcan0 165#10F5590000000000
(1486049331.239642) vcan0 167#7280DD10001AC700
(1486049331.239690) vcan0 178#000002030E78CE79
(1486049331.240536) vcan0 200#00007FDC80E00000
(1486049331.240585) vcan0 202#047D180060AA1567
(1486049331.240631) vcan0 204#C0007D0424000000
(1486049331.240673) vcan0 230#4006000097000000
(1486049331.241499) vcan0 261#0000000000000000
(1486049331.242511) vcan0 186#1509026800880668
(1486049331.242560) vcan0 082#920814008B804000
(1486049331.243507) vcan0 085#7C5580006D307C42
(1486049331.243555) vcan0 187#E21408C800100300
(1486049331.243597) vcan0 3CC#3000000000000000
(1486049331.245255) vcan0 242#05B31FFCCF000001
(1486049331.246376) vcan0 3A8#0100271600000000
(1486049331.247457) vcan0 091#7F017F06579DF000
(1486049331.247520) vcan0 092#6FC4702D7359DD9D
(1486049331.247570) vcan0 076#3E87C0800FFF0000
(1486049331.248435) vcan0 077#156208027FF80A22
(1486049331.248487) vcan0 07D#0000F960001FF800
(1486049331.248532) vcan0 213#FFFF000400021F40
(1486049331.248574) vcan0 167#7280DD10001AC800
(1486049331.249392) vcan0 214#000000000000F960
(1486049331.249440) vcan0 216#217803C500000000
(1486049331.249484) vcan0 202#0478200060AA156B
(1486049331.249525) vcan0 204#C0007D0422000000
(1486049331.250388) vcan0 217#127012701250124C
(1486049331.250435) vcan0 3CA#FE80080000000000
(1486049331.250475) vcan0 415#1589E85408050805
(1486049331.250516) vcan0 41D#8000600000000000
(1486049331.251388) vcan0 4B0#01008000600000F9
(1486049331.251436) vcan0 078#0469000000000000
(1486049331.252503) vcan0 085#7C5580006C407C42
(1486049331.254985) vcan0 42C#8C20000008C00000
(1486049331.256823) vcan0 091#7F107F06479EF000
(1486049331.258068) vcan0 092#6FBF702C7342F99E
(1486049331.258210) vcan0 217#12781274124C124C
(1486049331.259001) vcan0 047#2000000000000000
(1486049331.259101) vcan0 165#10F5590000000000
(1486049331.259181) vcan0 167#7280DD10001AC800
(1486049331.259960) vcan0 200#00007FDC80E00000
(1486049331.260038) vcan0 202#0472280060AA1570
(1486049331.260113) vcan0 204#C0007D041F000000
(1486049331.260185) vcan0 230#4006000097000000
(1486049331.260910) vcan0 42F#7D04002E667C0424
(1486049331.261898) vcan0 33B#0000000000000000
(1486049331.262916) vcan0 186#150F026800890668
(1486049331.262994) vcan0 082#910814008B804000
(1486049331.263067) vcan0 085#7C5580006B507C42
(1486049331.263918) vcan0 187#E21408C800100300
(1486049331.263993) vcan0 18A#0020180114000000
(1486049331.266270) vcan0 3A8#0100271600000000
(1486049331.267386) vcan0 091#7F2C7F07299FF000
(1486049331.267486) vcan0 092#6FB8702A7345FE9F
(1486049331.267568) vcan0 076#3E87C0800FFF0000
(1486049331.268333) vcan0 077#156A08017FF80E23
(1486049331.268417) vcan0 07D#0000F870001F6802
(1486049331.268492) vcan0 213#FFFF000400021E40
(1486049331.268563) vcan0 167#7280DE10001AC900
(1486049331.269422) vcan0 214#000000000000F870
(1486049331.269499) vcan0 216#358B15D700000000
(1486049331.269569) vcan0 202#046D300060AA1574
(1486049331.269636) vcan0 204#C0007D041F000000
(1486049331.270441) vcan0 217#12781278124C1250
(1486049331.270596) vcan0 415#1594EC4808050805
(1486049331.270698) vcan0 41D#8000600000000000
(1486049331.270801) vcan0 4B0#01008000700000F8
(1486049331.271418) vcan0 078#0168800000000000
(1486049331.272552) vcan0 085#7C5580006A607C42
(1486049331.273534) vcan0 3CC#3000000000000000
(1486049331.276884) vcan0 091#7F417F0713A0F000
(1486049331.278142) vcan0 092#6FB27029735BEEA0
(1486049331.278236) vcan0 217#1278127812501254
(1486049331.279108) vcan0 047#2000000000000000
(1486049331.279207) vcan0 3CA#FE80080000000000
(1486049331.279266) vcan0 165#10F5590000000000
(1486049331.279317) vcan0 167#7280DE10001AC900
(1486049331.280167) vcan0 200#00007FDC80E00000
(1486049331.280280) vcan0 202#0467380060AA1579
(1486049331.280349) vcan0 204#C0007D041E000000
(1486049331.280406) vcan0 230#4006000097000000
(1486049331.281913) vcan0 083#4020000008000000
(1486049331.282962) vcan0 186#1513026800890668
(1486049331.283088) vcan0 187#E21408C800100300
(1486049331.283150) vcan0 2A1#FFFFFFFF00000000
(1486049331.283197) vcan0 082#930814008B804000
(1486049331.283880) vcan0 085#7C55800069707C42
(1486049331.285339) vcan0 242#05B31FFCCF000001
(1486049331.286471) vcan0 3A8#0100271600000000
(1486049331.287510) vcan0 091#7F3A7F061AA1F000
(1486049331.287619) vcan0 092#6FAD7029736FDEA1
(1486049331.288394) vcan0 076#3E87C0800FFF0000
(1486049331.288462) vcan0 077#157108027FF7FE22
(1486049331.288515) vcan0 07D#0000F780001F0810
(1486049331.288565) vcan0 213#FFFF000400021E40
(1486049331.288610) vcan0 167#7280DE10001AC900
(1486049331.289386) vcan0 214#000000000000F780
(1486049331.289456) vcan0 216#489D28EA00000000
(1486049331.289508) vcan0 217#127C128012541254
(1486049331.289558) vcan0 202#0462400060AA157D
(1486049331.290348) vcan0 204#C0007D0422000000
(1486049331.290415) vcan0 415#1597F04408050805
(1486049331.290462) vcan0 41D#8000600000000000
(1486049331.290500) vcan0 4B0#01008000800000F7
(1486049331.291343) vcan0 261#0000000000000000
(1486049331.291402) vcan0 078#0168800000000000
(1486049331.291447) vcan0 422#000000933802FE02
(1486049331.292363) vcan0 423#9720000000000000
(1486049331.292424) vcan0 42F#7D04002E667D041F
(1486049331.292474) vcan0 430#37000CECC88C7700
(1486049331.293356) vcan0 085#7C55800068807C42
(1486049331.296982) vcan0 091#7F1D7F0438A2F000
(1486049331.297966) vcan0 092#6FAE70267376D8A2
(1486049331.298034) vcan0 217#1280128412541254
(1486049331.299088) vcan0 047#2000000000000000
(1486049331.299154) vcan0 165#10F5590000000000
(1486049331.299203) vcan0 167#7280DF10001ACA00
(1486049331.299249) vcan0 200#00007FDC80E00000
(1486049331.299985) vcan0 202#045D480060AA1581
(1486049331.300047) vcan0 204#C0007D0420000000
(1486049331.300095) vcan0 230#4006000097000000
(1486049331.301890) vcan0 186#1513026800890668
(1486049331.302835) vcan0 187#E21408C800100300
(1486049331.302889) vcan0 082#920814008B804000
(1486049331.302934) vcan0 085#7C55800067907C42
(1486049331.303827) vcan0 3CC#3000000000000000
(1486049331.305336) vcan0 3B3#4048020F10050002
(1486049331.306440) vcan0 3C3#7EC0000000000000
(1486049331.306510) vcan0 42C#8C20000008C00000
(1486049331.306553) vcan0 3A8#0100271600000000
(1486049331.307351) vcan0 091#7F007F0553A3F000
(1486049331.307408) vcan0 092#6FB470227374D7A3
(1486049331.307453) vcan0 076#3E87C0800FFF0000
(1486049331.308337) vcan0 077#157808017FF7F622
(1486049331.308393) vcan0 07D#0000F690001FC814
(1486049331.308437) vcan0 213#FFFF000400021E40
(1486049331.308474) vcan0 214#000000000000F690
(1486049331.309340) vcan0 167#7280E010001ACA00
(1486049331.309396) vcan0 216#5AB03BFD00000000
(1486049331.309438) vcan0 202#0459500060AA1584
(1486049331.309477) vcan0 204#C0007D0420000000
(1486049331.310339) vcan0 217#128412841258125C
(1486049331.310395) vcan0 3CA#FE80080000000000
(1486049331.310435) vcan0 415#15A2F43808050805
(1486049331.310477) vcan0 41D#8000600000000000
(1486049331.311334) vcan0 4B0#01008000900000F6
(1486049331.311392) vcan0 078#0068000000000000
(1486049331.312463) vcan0 083#4020001008000000
(1486049331.313456) vcan0 085#7C55800066A07C42
(1486049331.314469) vcan0 455#A000000000000000
(1486049331.314521) vcan0 05A#00000045EC810000
(1486049331.316590) vcan0 091#7EF47F075DA4F000
(1486049331.317582) vcan0 092#6FBE701F7370D3A4
(1486049331.317637) vcan0 217#12881288125C1260
(1486049331.318584) vcan0 047#2000000000000000
(1486049331.318636) vcan0 05C#80B000F0201E0000
(1486049331.319580) vcan0 165#10F5590000000000
(1486049331.319634) vcan0 167#7280E010001ACA00
(1486049331.319673) vcan0 200#00007FDC80E00000
(1486049331.320587) vcan0 202#0453580060AA1589
(1486049331.320642) vcan0 204#C0007D041E000000
(1486049331.320686) vcan0 230#4006000097000000
(1486049331.320724) vcan0 42F#7D04002E667D0422
(1486049331.321707) vcan0 186#1519026800890668
(1486049331.322712) vcan0 187#E11408C800200300
(1486049331.322767) vcan0 33B#0000000000000000
(1486049331.322808) vcan0 05D#8358BF5F2E000000
(1486049331.323710) vcan0 082#910814008B804000
(1486049331.323765) vcan0 085#7C55800065B07C42
(1486049331.323807) vcan0 169#0080C00000000000
(1486049331.325331) vcan0 242#05B31FFBCF000001
(1486049331.326336) vcan0 3A8#0100271600000000
(1486049331.327342) vcan0 04A#0200000000000000
(1486049331.327396) vcan0 04B#00C0D8D8D8D8C000
(1486049331.327436) vcan0 04C#105FFFC000000000
(1486049331.327474) vcan0 091#7EF57F085AA5F000
(1486049331.328335) vcan0 076#3E87C0800FFF0000
(1486049331.328389) vcan0 077#157F08027FF7FE1F
(1486049331.328431) vcan0 07D#0000F5A0001FD7FF
(1486049331.328472) vcan0 092#6FC7701E7374C6A5
(1486049331.329321) vcan0 167#7280E010001ACA00
(1486049331.329376) vcan0 213#FFFF000400021E40
(1486049331.329415) vcan0 214#000000000000F5A0
(1486049331.329455) vcan0 202#044E600060A8158D
(1486049331.330343) vcan0 204#C0007D0426000000
(1486049331.330401) vcan0 216#6EC44D1100000000
(1486049331.330444) vcan0 217#1288128C12601268
(1486049331.330481) vcan0 415#15A7F83208050805
(1486049331.330519) vcan0 416#5600F80001000000
(1486049331.331460) vcan0 41D#8000600000000000
(1486049331.331513) vcan0 4B0#01008000A00000F5
(1486049331.331558) vcan0 078#0168800000000000
(1486049331.332581) vcan0 085#7C55800064C07C42
(1486049331.333576) vcan0 3CC#3000000000000000
(1486049331.336963) vcan0 091#7EF97F0756A6F000
(1486049331.337968) vcan0 092#6FCD70227383ACA6
(1486049331.338022) vcan0 217#128C128C1264126C
(1486049331.338966) vcan0 047#2000000000000000
(1486049331.339020) vcan0 3CA#FE80080000000000
(1486049331.339061) vcan0 165#10F5580000000000
(1486049331.340075) vcan0 167#7280E010001ACA00
(1486049331.340134) vcan0 178#000002020E77CE79
(1486049331.340179) vcan0 200#00007FDC80E00000
(1486049331.341075) vcan0 202#0449680060A81591
(1486049331.341137) vcan0 204#C0007D0426000000
(1486049331.341175) vcan0 230#4006000097000000
(1486049331.341208) vcan0 261#0000000000000000
(1486049331.342077) vcan0 186#1519026800890668
(1486049331.342144) vcan0 187#E11408C800200300
(1486049331.343073) vcan0 082#920814008B804000
(1486049331.343138) vcan0 085#7C55800063D07C42
(1486049331.346330) vcan0 3A8#0100271600000000
(1486049331.347319) vcan0 091#7EF97F0656A7F000
(1486049331.347385) vcan0 092#6FCB702673919BA7
(1486049331.348449) vcan0 076#3E87C0800FFF0000
(1486049331.348509) vcan0 077#158708027FF8121E
(1486049331.348558) vcan0 07D#0000F4B0001FD7FF
(1486049331.348599) vcan0 213#FFFF000400021D40
(1486049331.349455) vcan0 167#7280E010001ACA00
(1486049331.349515) vcan0 214#000000000000F4B0
(1486049331.349566) vcan0 216#81D7602300000000
(1486049331.349607) vcan0 217#128C128C126C1270
(1486049331.349645) vcan0 202#0445700060A81594
(1486049331.350329) vcan0 204#C0007D042B000000
(1486049331.350386) vcan0 415#15ACFC2C08050805
(1486049331.350428) vcan0 41D#8000600000000000
(1486049331.350466) vcan0 4B0#01008000B00000F4
(1486049331.351333) vcan0 078#0569800000000000
(1486049331.351392) vcan0 42F#7D04002E667D041E
(1486049331.352583) vcan0 085#7C55800061E07C43
(1486049331.353961) vcan0 3A7#0E401A045F700000
(1486049331.354952) vcan0 42C#8C20000008C00000
(1486049331.356830) vcan0 091#7EF87F0557A8F000
(1486049331.358048) vcan0 092#6FC270267394A0A8
(1486049331.358133) vcan0 217#1290129412741270
(1486049331.359003) vcan0 047#2000000000000000
(1486049331.359077) vcan0 165#10F5580000000000
(1486049331.359134) vcan0 167#7280DF10001AC900
(1486049331.359189) vcan0 200#00007FDB80E00000
(1486049331.359991) vcan0 202#0440780060A81598
(1486049331.360068) vcan0 204#C0007D042C000000
(1486049331.360124) vcan0 230#4006000097000000
(1486049331.361360) vcan0 186#151A0268008A0668
(1486049331.362365) vcan0 187#E11408C800200300
(1486049331.362437) vcan0 18A#0020180114000000
(1486049331.363495) vcan0 082#910814008B804000
(1486049331.363571) vcan0 085#7C55800060F07C43
(1486049331.363628) vcan0 3CC#3000000000000000
(1486049331.365487) vcan0 242#05B31FFBCF000001
(1486049331.366613) vcan0 3A8#0100271600000000
(1486049331.367623) vcan0 091#7EF77F0359A9F000
(1486049331.367700) vcan0 092#6FB87024738EB1A9
(1486049331.367759) vcan0 076#3E87C0800FFF0000
(1486049331.367810) vcan0 077#158E08017FF81220
(1486049331.368629) vcan0 07D#0000F3C000206800
(1486049331.368704) vcan0 213#FFFF000400021D40
(1486049331.368760) vcan0 214#000000000000F3C0
(1486049331.368814) vcan0 167#7280DF10001AC900
(1486049331.369625) vcan0 216#93E9743600000000
(1486049331.369702) vcan0 202#044C000060A8159B
(1486049331.369761) vcan0 204#C0007D0426000000
(1486049331.369867) vcan0 217#1294129812781274
(1486049331.370619) vcan0 3CA#FE80080000000000
(1486049331.370683) vcan0 415#15B4C03308050805
(1486049331.370737) vcan0 41D#8000600000000000
(1486049331.370782) vcan0 4B0#01008000C00000F3
(1486049331.371604) vcan0 078#0068000000000000
(1486049331.372612) vcan0 3A6#0E401A045F700000
(1486049331.372676) vcan0 085#7C5580006F007C43
(1486049331.377105) vcan0 091#7EF47F015DAAF000
(1486049331.378109) vcan0 092#6FB770247389B6AA
(1486049331.378188) vcan0 217#129C129C127C1278
(1486049331.378995) vcan0 047#2000000000000000
(1486049331.379061) vcan0 165#10F5580000000000
(1486049331.379110) vcan0 167#7280DF10001AC900
(1486049331.379991) vcan0 200#00007FDB80E00000
(1486049331.380056) vcan0 202#0447080060A8159F
(1486049331.380107) vcan0 204#C0007D0426000000
(1486049331.380154) vcan0 230#4006000097000000
(1486049331.380967) vcan0 42F#7D04002E667D042C
(1486049331.381985) vcan0 186#151A0268008A0668
(1486049331.382049) vcan0 187#E11408C800200300
(1486049331.382101) vcan0 083#4020001008000000
(1486049331.383109) vcan0 2A1#FFFFFFFF00000000
(1486049331.383180) vcan0 33B#0000000000000000
(1486049331.383234) vcan0 082#910814008B804000
(1486049331.383280) vcan0 085#7C5580006E107C43
(1486049331.386483) vcan0 3A8#0100271600000000
(1486049331.387485) vcan0 091#7EF37F005EABF000
(1486049331.387562) vcan0 092#6FBF70277387ACAB
(1486049331.388487) vcan0 076#3E87C0800FFF0000
(1486049331.388562) vcan0 077#159608017FF7FE20
(1486049331.388617) vcan0 07D#0000F2D0002057FF
(1486049331.388666) vcan0 213#FFFF000400021D40
(1486049331.389488) vcan0 214#000000000000F2D0
(1486049331.389567) vcan0 167#7280DF10001AC900
(1486049331.389618) vcan0 216#A8FD874800000000
(1486049331.389665) vcan0 202#0443100060A815A2
(1486049331.390378) vcan0 204#C0007D042E000000
(1486049331.390447) vcan0 217#12A012A0127C1278
(1486049331.390501) vcan0 415#15C1C42508050805
(1486049331.390548) vcan0 41D#8000600000000000
(1486049331.390592) vcan0 261#0000000000000000
(1486049331.391368) vcan0 078#0168800000000000
(1486049331.391435) vcan0 422#000000933802FE02
(1486049331.391485) vcan0 423#9720000000000000
(1486049331.391531) vcan0 430#37000CECC88C7700
(1486049331.392480) vcan0 4B0#01008000D00000F2
(1486049331.393486) vcan0 085#7C5580006D207C43
(1486049331.393553) vcan0 3CC#3000000000000000
(1486049331.396986) vcan0 091#7EF07F015FACF000
(1486049331.397987) vcan0 092#6FC7702B7382A4AC
(1486049331.398054) vcan0 217#12A412A0127C1278
(1486049331.398984) vcan0 047#2000000000000000
(1486049331.399049) vcan0 3CA#FE80080000000000
(1486049331.399099) vcan0 165#10F5580000000000
(1486049331.399145) vcan0 167#7280DF10001AC900
(1486049331.399990) vcan0 200#00007FDB80E00000
(1486049331.400055) vcan0 202#043D180060A815A7
(1486049331.400109) vcan0 204#C0007D0434000000
(1486049331.400160) vcan0 230#4006000097000000
(1486049331.401105) vcan0 186#151A0268008A0668
(1486049331.402107) vcan0 187#E11408C800200300
(1486049331.403113) vcan0 082#910814008B804000
(1486049331.403176) vcan0 085#7C5580006C307C43
(1486049331.405358) vcan0 242#05B31FFCCF000001
(1486049331.406370) vcan0 40A#C1023130373639FF
(1486049331.406440) vcan0 42C#8C20000008C00000
(1486049331.406490) vcan0 3A8#0100271600000000
(1486049331.407365) vcan0 091#7EF07F045BADF000
(1486049331.407432) vcan0 092#6FC6702D737EA6AD
(1486049331.407484) vcan0 076#3E87C0800FFF0000
(1486049331.408365) vcan0 077#159E08007FF80621
(1486049331.408432) vcan0 07D#0000F1E0002037FF
(1486049331.408485) vcan0 213#FFFF000400021D40
(1486049331.408531) vcan0 167#7280DF10001AC900
(1486049331.409365) vcan0 214#000000000000F1E0
(1486049331.409434) vcan0 216#BA10995C00000000
(1486049331.409485) vcan0 217#12A412A412781280
(1486049331.409533) vcan0 202#0438200060A815AB
(1486049331.410490) vcan0 204#C0007D0434000000
(1486049331.410553) vcan0 415#15C6C81F08050805
(1486049331.410605) vcan0 41D#8000600000000000
(1486049331.410654) vcan0 4B0#01008000E00000F1
(1486049331.411419) vcan0 078#0168800000000000
(1486049331.411470) vcan0 42F#7D04002E667D042E
(1486049331.412493) vcan0 085#7C5580006B407C43
(1486049331.413609) vcan0 455#A000000000000000
(1486049331.414615) vcan0 05A#00000045F2210000
(1486049331.416853) vcan0 091#7EFA7F074DAEF000
(1486049331.417896) vcan0 092#6FBF702B7380ACAE
(1486049331.417964) vcan0 217#12A812A8127C1288
(1486049331.418017) vcan0 596#9600FFFFFFFFFFFF
(1486049331.418989) vcan0 047#2000000000000000
(1486049331.419054) vcan0 05C#805000F6201E0000
(1486049331.419106) vcan0 165#10F5580000000000
(1486049331.419153) vcan0 167#7280DE10001AC800
(1486049331.419987) vcan0 200#00007FDB80E10000
(1486049331.420057) vcan0 202#0433280060A815AF
(1486049331.420107) vcan0 204#C0007D0433000000
(1486049331.420150) vcan0 230#4006000097000000
(1486049331.420904) vcan0 186#151A0268008A0668
(1486049331.421994) vcan0 187#E01408C800300300
(1486049331.422994) vcan0 05D#8358A75F34000000
(1486049331.423064) vcan0 082#910814008B804000
(1486049331.423113) vcan0 085#7C5580006A507C43
(1486049331.423980) vcan0 3CC#3000000000000000
(1486049331.426234) vcan0 3A8#0100271600000000
(1486049331.427243) vcan0 04A#0200000000000000
(1486049331.427316) vcan0 04B#00C0D8D8D8D8C000
(1486049331.427373) vcan0 04C#105FFFC000000000
(1486049331.427424) vcan0 091#7F107F0735AFF000
(1486049331.428379) vcan0 076#3E87C0800FFF0000
(1486049331.428453) vcan0 077#15A608017FF80E23
(1486049331.428513) vcan0 07D#0000F0F0002007FE
(1486049331.428566) vcan0 092#6FBB70297382AFAF
(1486049331.429380) vcan0 167#7280DE10001AC900
(1486049331.429456) vcan0 213#FFFF000400021D40
(1486049331.429513) vcan0 214#000000000000F0F0
(1486049331.429571) vcan0 202#042E300060A815B3
(1486049331.430372) vcan0 204#C0007D042F000000
(1486049331.430450) vcan0 216#CD24AD6F00000000
(1486049331.430509) vcan0 217#12AC12AC1280128C
(1486049331.430561) vcan0 3CA#FE80080000000000
(1486049331.431378) vcan0 415#15CECC1608050805
(1486049331.431454) vcan0 416#5700F70001000000
(1486049331.431510) vcan0 41D#8000600000000000
(1486049331.431561) vcan0 078#0068000000000000
(1486049331.432360) vcan0 41E#0000000000000000
(1486049331.432433) vcan0 4B0#01008000F00000F0
(1486049331.433374) vcan0 085#7C55800069607C43
(1486049331.436865) vcan0 091#7F277F0420B0F000
(1486049331.437924) vcan0 092#6FBC70297379B6B0
(1486049331.438033) vcan0 217#12B412B412841290
(1486049331.438994) vcan0 047#2000000000000000
(1486049331.439069) vcan0 165#10F5580000000000
(1486049331.440000) vcan0 167#7280DE10001AC900
(1486049331.440072) vcan0 178#000002020E78CE79
(1486049331.440945) vcan0 200#00007FDC80E10000
(1486049331.441030) vcan0 202#0429380060A815B7
(1486049331.441104) vcan0 204#C0007D0430000000
(1486049331.441174) vcan0 350#0000000000000000
(1486049331.441994) vcan0 186#151A0268008B0668
(1486049331.442106) vcan0 187#E01408C800300300
(1486049331.442169) vcan0 230#4006000097000000
(1486049331.442220) vcan0 261#0000000000000000
(1486049331.442989) vcan0 33B#0000000000000000
(1486049331.443061) vcan0 3E0#0000000080000000
(1486049331.443119) vcan0 082#920814008B804000
(1486049331.443208) vcan0 085#7C55800068707C43
(1486049331.443997) vcan0 42F#7D04002E667C0433
(1486049331.445363) vcan0 242#05B31FFECF000001
(1486049331.446362) vcan0 3A8#0100271600000000
(1486049331.447494) vcan0 091#7F367F0311B1F000
(1486049331.447595) vcan0 092#6FC0702C736CBBB1
(1486049331.447679) vcan0 076#3E82C0800FFF0000
(1486049331.448499) vcan0 077#15AE08027FF80222
(1486049331.448603) vcan0 07D#0000FF0000201807
(1486049331.448688) vcan0 213#FFFF000400021E40
(1486049331.448766) vcan0 214#000000000000FF00
(1486049331.449492) vcan0 167#7280DF10001AC900
(1486049331.449597) vcan0 216#E137C08200000000
(1486049331.449678) vcan0 202#0424400060A815BB
(1486049331.449751) vcan0 204#C0007D0430000000
(1486049331.450411) vcan0 217#12B412B4128C1294
(1486049331.450485) vcan0 415#15DCD00708050805
(1486049331.450550) vcan0 41D#8000600000000000
(1486049331.450596) vcan0 4B0#01008000000000FF
(1486049331.451400) vcan0 078#0569800000000000
(1486049331.452522) vcan0 085#7C55800067807C43
(1486049331.453540) vcan0 3CC#3000000000000000
(1486049331.455542) vcan0 42C#8C20000008C00000
(1486049331.456860) vcan0 091#7F377F050DB2F000
(1486049331.457983) vcan0 092#6FC3702F736BB5B2
(1486049331.458088) vcan0 217#12B412B812941294
(1486049331.458862) vcan0 047#2000000000000000
(1486049331.458930) vcan0 3CA#FE80080000000000
(1486049331.458981) vcan0 165#10F5580000000000
(1486049331.460000) vcan0 167#7280DE10001AC900
(1486049331.460094) vcan0 200#00007FDB80E10000
(1486049331.460169) vcan0 202#041E480060A815C0
(1486049331.460238) vcan0 204#C0007D0433000000
(1486049331.460940) vcan0 230#4006000097000000
(1486049331.460992) vcan0 186#15170267008B0667
(1486049331.461936) vcan0 187#E01408C800300300
(1486049331.461987) vcan0 18A#0020180114000000
(1486049331.462031) vcan0 083#4020000008000000
(1486049331.462982) vcan0 082#910814008B804000
(1486049331.463074) vcan0 085#7C55800066907C43
(1486049331.466367) vcan0 3A8#0100271100000000
(1486049331.467297) vcan0 091#7F247F081CB3F000
(1486049331.467377) vcan0 092#6FC070317370B0B3
(1486049331.467448) vcan0 076#3E80C0800FFF0000
(1486049331.468310) vcan0 077#15B708017FF80A22
(1486049331.468386) vcan0 07D#0000FE10001FB813
(1486049331.468454) vcan0 213#FFFF000400021E40
(1486049331.468502) vcan0 214#000000000000FE10
(1486049331.469295) vcan0 167#7280DE10001AC900
(1486049331.469342) vcan0 216#F349D29400000000
(1486049331.469410) vcan0 217#12B812BC1298129C
(1486049331.469476) vcan0 202#0419500060A815C4
(1486049331.470448) vcan0 204#C0007D0431000000
(1486049331.470548) vcan0 415#15DFD40308040804
(1486049331.470631) vcan0 41D#8000600000000000
(1486049331.470704) vcan0 4B0#01008000100000FE
(1486049331.471280) vcan0 078#0168800000000000
(1486049331.471351) vcan0 42F#7D04002E667D0430
(1486049331.472518) vcan0 085#7C55800065A07C43
(1486049331.476842) vcan0 091#7F0E7F0732B4F000
(1486049331.477871) vcan0 092#6FB87030736DBBB4
(1486049331.477967) vcan0 217#12B812BC129C129C
(1486049331.478968) vcan0 047#2000000000000000
(1486049331.479033) vcan0 165#10F5580000000000
(1486049331.479084) vcan0 167#7280DF10001AC900
(1486049331.479164) vcan0 200#00007FDB80E10000
(1486049331.479969) vcan0 202#0414580060A815C8
(1486049331.480063) vcan0 204#C0007D0431000000
(1486049331.480117) vcan0 230#4006000097000000
(1486049331.480962) vcan0 186#15170267008B0667
(1486049331.481028) vcan0 187#E01408C800300300
(1486049331.481962) vcan0 2A1#FFFFFFFF00000000
(1486049331.482966) vcan0 082#8E0814008B804000
(1486049331.483059) vcan0 085#7C54800066B07C42
(1486049331.483959) vcan0 3CC#3000000000000000
(1486049331.485335) vcan0 242#05B31FFECF000001
(1486049331.486342) vcan0 3A8#0100271000000000
(1486049331.487344) vcan0 091#7F067F023EB5F000
(1486049331.487434) vcan0 092#6FB7702C7366C6B5
(1486049331.487506) vcan0 076#3E80C0800FFF0000
(1486049331.488411) vcan0 077#15BF08027FF80A24
(1486049331.488486) vcan0 07D#0000FD20001FC80D
(1486049331.488550) vcan0 213#FFFF000400021E40
(1486049331.488600) vcan0 167#7280DF10001AC900
(1486049331.489475) vcan0 214#000000000000FD20
(1486049331.489570) vcan0 216#075DE6A800000000
(1486049331.489645) vcan0 202#040F600060A815CC
(1486049331.489714) vcan0 204#C0007D0434000000
(1486049331.490404) vcan0 217#12BC12BC12A012A0
(1486049331.490476) vcan0 3CA#FE80080000000000
(1486049331.490525) vcan0 415#15E2D8FF08040804
(1486049331.490587) vcan0 261#0000000000000000
