(1486052361.355421) vcan0 3CA#FE95E76800000000
(1486052361.384799) vcan0 3CA#FE95E76800000000
(1486052361.415938) vcan0 3CA#FE95E76800000000
(1486052361.444952) vcan0 3CA#FE95277700000000
(1486052361.475480) vcan0 3CA#FE95277700000000
(1486052361.504953) vcan0 3CA#FE95277700000000
(1486052361.535951) vcan0 3CA#FE92F7AD00000000
(1486052361.564950) vcan0 3CA#FE92F7AD00000000
(1486052361.595576) vcan0 3CA#FE92F7AD00000000
(1486052361.625326) vcan0 3CA#FE92F7AD00000000
(1486052361.655325) vcan0 3CA#FE91D7BD00000000
(1486052361.684950) vcan0 3CA#FE91D7BD00000000
(1486052361.714949) vcan0 3CA#FE91D7BD00000000
(1486052361.744951) vcan0 3CA#FE91D7BD00000000
(1486052361.774946) vcan0 3CA#FE9027D200000000
(1486052361.794949) vcan0 3D8#0000000080456030
(1486052361.796072) vcan0 3CD#0000000000000000
(1486052361.804947) vcan0 3CA#FE9027D200000000
(1486052361.836050) vcan0 3CA#FE9027D200000000
(1486052361.864977) vcan0 3CA#FE8FA7DD00000000
(1486052361.895105) vcan0 3CA#FE8FA7DD00000000
(1486052361.924976) vcan0 3CA#FE8FA7DD00000000
(1486052361.955233) vcan0 3CA#FE8F07E500000000
(1486052361.985033) vcan0 3CA#FE8F07E500000000
(1486052362.014909) vcan0 3CA#FE8F07E500000000
(1486052362.045024) vcan0 3CA#FE8F07E500000000
(1486052362.074910) vcan0 3CA#FE8EB7F700000000
(1486052362.104908) vcan0 3CA#FE8EB7F700000000
(1486052362.135914) vcan0 3CA#FE8EB7F700000000
(1486052362.164905) vcan0 3CA#FE8EB80000000000
(1486052362.194908) vcan0 3CA#FE8EB80000000000
(1486052362.225287) vcan0 3CA#FE8EB80000000000
(1486052362.254908) vcan0 3CA#FE8E57FA00000000
(1486052362.284907) vcan0 3CA#FE8E57FA00000000
(1486052362.314907) vcan0 3CA#FE8E57FA00000000
(1486052362.344908) vcan0 3CA#FE8E87E900000000
(1486052362.374914) vcan0 3CA#FE8E87E900000000
(1486052362.404904) vcan0 3CA#FE8E87E900000000
(1486052362.435911) vcan0 3CA#FE8EA7F200000000
(1486052362.464919) vcan0 3CA#FE8EA7F200000000
(1486052362.494908) vcan0 3CA#FE8EA7F200000000
(1486052362.524911) vcan0 3CA#FE8EA7F200000000
(1486052362.554905) vcan0 3CA#FE8EA7F900000000
(1486052362.584902) vcan0 3CA#FE8EA7F900000000
(1486052362.614956) vcan0 3CA#FE8ED80200000000
(1486052362.645995) vcan0 3CA#FE8ED80200000000
(1486052362.674968) vcan0 3CA#FE8ED80200000000
(1486052362.705611) vcan0 3CA#FE8ED80200000000
(1486052362.735955) vcan0 3CA#FE8E87F800000000
(1486052362.765131) vcan0 3CA#FE8E87F800000000
(1486052362.795013) vcan0 3D8#0000000080456030
(1486052362.796026) vcan0 3CA#FE8E87F800000000
(1486052362.796119) vcan0 3CD#0000000000000000
(1486052362.825625) vcan0 3CA#FE8E77E200000000
(1486052362.855631) vcan0 3CA#FE8E77E200000000
(1486052362.885398) vcan0 3CA#FE8E77E200000000
(1486052362.915013) vcan0 3CA#FE8E580A00000000
(1486052362.945010) vcan0 3CA#FE8E580A00000000
(1486052362.975013) vcan0 3CA#FE8E580A00000000
(1486052363.005005) vcan0 3CA#FE8D882000000000
(1486052363.036008) vcan0 3CA#FE8D882000000000
(1486052363.064998) vcan0 3CA#FE8D882000000000
(1486052363.095000) vcan0 3CA#FE8D282B00000000
(1486052363.125000) vcan0 3CA#FE8D282B00000000
(1486052363.155004) vcan0 3CA#FE8D282B00000000
(1486052363.185029) vcan0 3CA#FE8C87E600000000
(1486052363.215010) vcan0 3CA#FE8C87E600000000
(1486052363.245003) vcan0 3CA#FE8C87E600000000
(1486052363.275010) vcan0 3CA#FE8D07FE00000000
(1486052363.305003) vcan0 3CA#FE8D07FE00000000
(1486052363.335768) vcan0 3CA#FE8D07FE00000000
(1486052363.365130) vcan0 3CA#FE8D07FE00000000
(1486052363.395140) vcan0 3CA#FE8C77E000000000
(1486052363.425130) vcan0 3CA#FE8C77E000000000
(1486052363.455560) vcan0 3CA#FE8C77E000000000
(1486052363.485130) vcan0 3CA#FE8BF7CE00000000
(1486052363.515006) vcan0 3CA#FE8BF7CE00000000
(1486052363.545388) vcan0 3CA#FE8BF7CE00000000
(1486052363.575159) vcan0 3CA#FE8BF7C600000000
(1486052363.605118) vcan0 3CA#FE8BF7C600000000
(1486052363.635994) vcan0 3CA#FE8BF7C600000000
(1486052363.664996) vcan0 3CA#FE8B77CA00000000
(1486052363.695005) vcan0 3CA#FE8B77CA00000000
(1486052363.724990) vcan0 3CA#FE8B77CA00000000
(1486052363.754992) vcan0 3CA#FE8A67B100000000
(1486052363.785114) vcan0 3CA#FE8A67B100000000
(1486052363.795013) vcan0 3D8#0000000080456030
(1486052363.796129) vcan0 3CD#0000000000000000
(1486052363.814990) vcan0 3CA#FE8A67B100000000
(1486052363.844850) vcan0 3CA#FE8A67B100000000
(1486052363.875908) vcan0 3CA#FE8A17A500000000
(1486052363.904891) vcan0 3CA#FE8A17A500000000
(1486052363.935542) vcan0 3CA#FE8A17A500000000
(1486052363.964887) vcan0 3CA#FE8967A900000000
(1486052363.995038) vcan0 3CA#FE8967A900000000
(1486052364.025298) vcan0 3CA#FE8967A900000000
(1486052364.055428) vcan0 3CA#FE88481400000000
(1486052364.084892) vcan0 3CA#FE88481400000000
(1486052364.114892) vcan0 3CA#FE88481400000000
(1486052364.144887) vcan0 3CA#FE87881A00000000
(1486052364.174888) vcan0 3CA#FE87881A00000000
(1486052364.205011) vcan0 3CA#FE87881A00000000
(1486052364.235769) vcan0 3CA#FE87081D00000000
(1486052364.264911) vcan0 3CA#FE87081D00000000
(1486052364.294934) vcan0 3CA#FE87081D00000000
(1486052364.324927) vcan0 3CA#FE87081D00000000
(1486052364.355527) vcan0 3CA#FE85D81B00000000
(1486052364.385008) vcan0 3CA#FE85D81B00000000
(1486052364.414886) vcan0 3CA#FE85D81B00000000
(1486052364.445013) vcan0 3CA#FE85881800000000
(1486052364.475123) vcan0 3CA#FE85881800000000
(1486052364.505108) vcan0 3CA#FE85881800000000
(1486052364.535987) vcan0 3CA#FE85081800000000
(1486052364.564984) vcan0 3CA#FE85081800000000
(1486052364.595001) vcan0 3CA#FE85081800000000
(1486052364.625286) vcan0 3CA#FE85081800000000
(1486052364.655472) vcan0 3CA#FE83C80600000000
(1486052364.685060) vcan0 3CA#FE83C80600000000
(1486052364.715065) vcan0 3CA#FE83C80600000000
(1486052364.745061) vcan0 3CA#FE8397FF00000000
(1486052364.775060) vcan0 3CA#FE8397FF00000000
(1486052364.795060) vcan0 3D8#0000000080456030
(1486052364.796057) vcan0 3CD#0000000000000000
(1486052364.805104) vcan0 3CA#FE8397FF00000000
(1486052364.835846) vcan0 3CA#FE83780500000000
(1486052364.865002) vcan0 3CA#FE83780500000000
(1486052364.895004) vcan0 3CA#FE83780500000000
(1486052364.925004) vcan0 3CA#FE83780500000000
(1486052364.955376) vcan0 3CA#FE82A7FB00000000
(1486052364.985002) vcan0 3CA#FE82A7FB00000000
(1486052365.015253) vcan0 3CA#FE82A7FB00000000
(1486052365.045110) vcan0 3CA#FE8247F500000000
(1486052365.075106) vcan0 3CA#FE8247F500000000
(1486052365.105103) vcan0 3CA#FE8247F500000000
(1486052365.135975) vcan0 3CA#FE8387F700000000
(1486052365.165599) vcan0 3CA#FE8387F700000000
(1486052365.195071) vcan0 3CA#FE8387F700000000
(1486052365.224982) vcan0 3CA#FE8387F700000000
(1486052365.255451) vcan0 3CA#FE7FF7FA00000000
(1486052365.285565) vcan0 3CA#FE7FF7FA00000000
(1486052365.315443) vcan0 3CA#FE7FF7FA00000000
(1486052365.345482) vcan0 3CA#FE7FE80700000000
(1486052365.375105) vcan0 3CA#FE7FE80700000000
(1486052365.405078) vcan0 3CA#FE7FE80700000000
(1486052365.435982) vcan0 3CA#FE7F681400000000
(1486052365.465098) vcan0 3CA#FE7F681400000000
(1486052365.495101) vcan0 3CA#FE7F681400000000
(1486052365.525096) vcan0 3CA#FE7F681400000000
(1486052365.555076) vcan0 3CA#FE7CF81900000000
(1486052365.585061) vcan0 3CA#FE7CF81900000000
(1486052365.615313) vcan0 3CA#FE7CF81900000000
(1486052365.645059) vcan0 3CA#FE7D080B00000000
(1486052365.675065) vcan0 3CA#FE7D080B00000000
(1486052365.705069) vcan0 3CA#FE7D080B00000000
(1486052365.735934) vcan0 3CA#FE7DB80700000000
(1486052365.765059) vcan0 3CA#FE7DB80700000000
(1486052365.795061) vcan0 3D8#0000000080456030
(1486052365.796061) vcan0 3CA#FE7DB80700000000
(1486052365.796127) vcan0 3CD#0000000000000000
(1486052365.825026) vcan0 3CA#FE7DB80700000000
(1486052365.854950) vcan0 3CA#FE7E17FA00000000
(1486052365.885026) vcan0 3CA#FE7E17FA00000000
(1486052365.915401) vcan0 3CA#FE7E17FA00000000
(1486052365.945099) vcan0 3CA#FE7E57EE00000000
(1486052365.975095) vcan0 3CA#FE7E57EE00000000
(1486052366.005095) vcan0 3CA#FE7E57EE00000000
(1486052366.035932) vcan0 3CA#FE7E17E000000000
(1486052366.064988) vcan0 3CA#FE7E17E000000000
(1486052366.094988) vcan0 3CA#FE7E17E000000000
(1486052366.124989) vcan0 3CA#FE7E17E000000000
(1486052366.154950) vcan0 3CA#FE7E27AD00000000
(1486052366.184893) vcan0 3CA#FE7E27AD00000000
(1486052366.214996) vcan0 3CA#FE7E27AD00000000
(1486052366.244894) vcan0 3CA#FE7FD7AB00000000
(1486052366.274990) vcan0 3CA#FE7FD7AB00000000
(1486052366.304986) vcan0 3CA#FE7FD7AB00000000
(1486052366.336864) vcan0 3CA#FE7FD7AB00000000
(1486052366.365048) vcan0 3CA#FE80079F00000000
(1486052366.395643) vcan0 3CA#FE80079F00000000
(1486052366.425094) vcan0 3CA#FE80079F00000000
(1486052366.455641) vcan0 3CA#FE80E78900000000
(1486052366.485085) vcan0 3CA#FE80E78900000000
(1486052366.515944) vcan0 3CA#FE80E78900000000
(1486052366.545427) vcan0 3CA#FE80E78900000000
(1486052366.575098) vcan0 3CA#FE81D78900000000
(1486052366.605093) vcan0 3CA#FE81D78900000000
(1486052366.635970) vcan0 3CA#FE81D78900000000
(1486052366.665094) vcan0 3CA#FE81D78900000000
(1486052366.695098) vcan0 3CA#FE82878000000000
(1486052366.725095) vcan0 3CA#FE82878000000000
(1486052366.755098) vcan0 3CA#FE82878000000000
(1486052366.785092) vcan0 3CA#FE82E77D00000000
(1486052366.795021) vcan0 3D8#0000000080456030
(1486052366.796040) vcan0 3CD#0000000000000000
(1486052366.815084) vcan0 3CA#FE82E77D00000000
(1486052366.845048) vcan0 3CA#FE82E77D00000000
(1486052366.876036) vcan0 3CA#FE82E77D00000000
(1486052366.905025) vcan0 3CA#FE82879F00000000
(1486052366.935902) vcan0 3CA#FE82879F00000000
(1486052366.965022) vcan0 3CA#FE82879F00000000
(1486052366.995026) vcan0 3CA#FE7F37C400000000
(1486052367.025031) vcan0 3CA#FE7F37C400000000
(1486052367.055089) vcan0 3CA#FE7F37C400000000
(1486052367.085457) vcan0 3CA#FE7F37C400000000
(1486052367.116077) vcan0 3CA#FE80D7D300000000
(1486052367.144920) vcan0 3CA#FE80D7D300000000
(1486052367.175749) vcan0 3CA#FE80D7D300000000
(1486052367.204847) vcan0 3CA#FE80D7D300000000
(1486052367.235875) vcan0 3CA#FE81B7CB00000000
(1486052367.264977) vcan0 3CA#FE81B7CB00000000
(1486052367.295853) vcan0 3CA#FE81B7CB00000000
(1486052367.324903) vcan0 3CA#FE81B7CB00000000
(1486052367.355475) vcan0 3CA#FE8177E600000000
(1486052367.385351) vcan0 3CA#FE8177E600000000
(1486052367.415725) vcan0 3CA#FE8177E600000000
(1486052367.444923) vcan0 3CA#FE80B7EB00000000
(1486052367.475513) vcan0 3CA#FE80B7EB00000000
(1486052367.504880) vcan0 3CA#FE80B7EB00000000
(1486052367.535620) vcan0 3CA#FE80B7EB00000000
(1486052367.564972) vcan0 3CA#FE81580300000000
(1486052367.595634) vcan0 3CA#FE81580300000000
(1486052367.625502) vcan0 3CA#FE81580300000000
(1486052367.655849) vcan0 3CA#FE81D81100000000
(1486052367.685104) vcan0 3CA#FE81D81100000000
(1486052367.715526) vcan0 3CA#FE81D81100000000
(1486052367.745777) vcan0 3CA#FE81D81100000000
(1486052367.775527) vcan0 3CA#FE7FE7F900000000
(1486052367.795451) vcan0 3CD#0000000000000000
(1486052367.795498) vcan0 3D8#0000000080456030
(1486052367.805079) vcan0 3CA#FE7FE7F900000000
(1486052367.835360) vcan0 3CA#FE7FE7F900000000
(1486052367.865447) vcan0 3CA#FE7FE7F900000000
(1486052367.895516) vcan0 3CA#FE7FD7FF00000000
(1486052367.925022) vcan0 3CA#FE7FD7FF00000000
(1486052367.955954) vcan0 3CA#FE7FD7FF00000000
(1486052367.985581) vcan0 3CA#FE7FD7FF00000000
(1486052368.015451) vcan0 3CA#FE7F481100000000
(1486052368.044955) vcan0 3CA#FE7F481100000000
(1486052368.075642) vcan0 3CA#FE7F481100000000
(1486052368.105010) vcan0 3CA#FE7F481100000000
(1486052368.135289) vcan0 3CA#FE7E180C00000000
(1486052368.165033) vcan0 3CA#FE7E180C00000000
(1486052368.195312) vcan0 3CA#FE7E180C00000000
(1486052368.225080) vcan0 3CA#FE7DC7FC00000000
(1486052368.255537) vcan0 3CA#FE7DC7FC00000000
(1486052368.285076) vcan0 3CA#FE7DC7FC00000000
(1486052368.315451) vcan0 3CA#FE7DC7FC00000000
(1486052368.345073) vcan0 3CA#FE7DF80400000000
(1486052368.374988) vcan0 3CA#FE7DF80400000000
(1486052368.405065) vcan0 3CA#FE7DF80400000000
(1486052368.436051) vcan0 3CA#FE7DF80400000000
(1486052368.465046) vcan0 3CA#FE7D980200000000
(1486052368.495387) vcan0 3CA#FE7D980200000000
(1486052368.525071) vcan0 3CA#FE7D980200000000
(1486052368.555530) vcan0 3CA#FE7D980200000000
(1486052368.585539) vcan0 3CA#FE7DB7F900000000
(1486052368.614967) vcan0 3CA#FE7DB7F900000000
(1486052368.645071) vcan0 3CA#FE7DB7F900000000
(1486052368.675071) vcan0 3CA#FE7E47F100000000
(1486052368.705059) vcan0 3CA#FE7E47F100000000
(1486052368.735951) vcan0 3CA#FE7E47F100000000
(1486052368.765016) vcan0 3CA#FE7E47F100000000
(1486052368.795833) vcan0 3D8#0000000080456030
(1486052368.795977) vcan0 3CA#FE7ED7F600000000
(1486052368.796822) vcan0 3CD#0000000000000000
(1486052368.824969) vcan0 3CA#FE7ED7F600000000
(1486052368.856017) vcan0 3CA#FE7ED7F600000000
(1486052368.885000) vcan0 3CA#FE7ED7F600000000
(1486052368.915619) vcan0 3CA#FE7EF7F200000000
(1486052368.944997) vcan0 3CA#FE7EF7F200000000
(1486052368.975491) vcan0 3CA#FE7EF7F200000000
(1486052369.005371) vcan0 3CA#FE7EF7F200000000
(1486052369.035273) vcan0 3CA#FE7EF7F700000000
(1486052369.065059) vcan0 3CA#FE7EF7F700000000
(1486052369.095282) vcan0 3CA#FE7EF7F700000000
(1486052369.125038) vcan0 3CA#FE7EF7F700000000
(1486052369.155540) vcan0 3CA#FE7EE80100000000
(1486052369.185543) vcan0 3CA#FE7EE80100000000
(1486052369.215041) vcan0 3CA#FE7EE80100000000
(1486052369.245048) vcan0 3CA#FE7EE80100000000
(1486052369.275037) vcan0 3CA#FE7EE80200000000
(1486052369.305099) vcan0 3CA#FE7EE80200000000
(1486052369.335743) vcan0 3CA#FE7EE80200000000
(1486052369.365063) vcan0 3CA#FE7EE80200000000
(1486052369.395563) vcan0 3CA#FE7EE80100000000
(1486052369.425064) vcan0 3CA#FE7EE80100000000
(1486052369.455362) vcan0 3CA#FE7EE80100000000
(1486052369.484921) vcan0 3CA#FE7FA7FC00000000
(1486052369.514997) vcan0 3CA#FE7FA7FC00000000
(1486052369.544999) vcan0 3CA#FE7FA7FC00000000
(1486052369.575330) vcan0 3CA#FE7FA7FC00000000
(1486052369.604953) vcan0 3CA#FE80180100000000
(1486052369.635858) vcan0 3CA#FE80180100000000
(1486052369.665061) vcan0 3CA#FE80180100000000
(1486052369.695689) vcan0 3CA#FE80180100000000
(1486052369.725060) vcan0 3CA#FE8027FB00000000
(1486052369.755205) vcan0 3CA#FE8027FB00000000
(1486052369.785435) vcan0 3CA#FE8027FB00000000
(1486052369.795074) vcan0 3D8#0000000080456030
(1486052369.796056) vcan0 3CD#0000000000000000
(1486052369.815051) vcan0 3CA#FE8027FB00000000
(1486052369.845041) vcan0 3CA#FE80580200000000
(1486052369.874994) vcan0 3CA#FE80580200000000
(1486052369.904992) vcan0 3CA#FE80580200000000
(1486052369.935961) vcan0 3CA#FE80781B00000000
(1486052369.964947) vcan0 3CA#FE80781B00000000
(1486052369.994958) vcan0 3CA#FE80781B00000000
(1486052370.024949) vcan0 3CA#FE80789900000000
(1486052370.054851) vcan0 3CA#FE7FD8A100000000
(1486052370.085591) vcan0 3CA#FE7FD8A100000000
(1486052370.114950) vcan0 3CA#FE7FD8A100000000
(1486052370.146070) vcan0 3CA#FE7FD8A100000000
(1486052370.174945) vcan0 3CA#FE7EF8A500000000
(1486052370.205576) vcan0 3CA#FE7EF8A500000000
(1486052370.235822) vcan0 3CA#FE7EF8A500000000
(1486052370.264943) vcan0 3CA#FE7EF8A500000000
(1486052370.294947) vcan0 3CA#FE7E18A500000000
(1486052370.324948) vcan0 3CA#FE7E18A500000000
(1486052370.355360) vcan0 3CA#FE7E18A500000000
(1486052370.385447) vcan0 3CA#FE7E18A500000000
(1486052370.414944) vcan0 3CA#FE7D98B200000000
(1486052370.444942) vcan0 3CA#FE7D98B200000000
(1486052370.474946) vcan0 3CA#FE7D98B200000000
(1486052370.504947) vcan0 3CA#FE7D98B200000000
(1486052370.535818) vcan0 3CA#FE7D18B300000000
(1486052370.564944) vcan0 3CA#FE7D18B300000000
(1486052370.594940) vcan0 3CA#FE7D18B300000000
(1486052370.624941) vcan0 3CA#FE7C28A400000000
(1486052370.655196) vcan0 3CA#FE7C28A400000000
(1486052370.684896) vcan0 3CA#FE7C28A400000000
(1486052370.714951) vcan0 3CA#FE7C28A400000000
(1486052370.744943) vcan0 3CA#FE7C18A200000000
(1486052370.774941) vcan0 3CA#FE7C18A200000000
(1486052370.794942) vcan0 3D8#0000000080456030
(1486052370.795938) vcan0 3CD#0000000000000000
(1486052370.804860) vcan0 3CA#FE7C18A200000000
(1486052370.835793) vcan0 3CA#FE7C18A200000000
(1486052370.865051) vcan0 3CA#FE7BA89C00000000
(1486052370.895051) vcan0 3CA#FE7BA89C00000000
(1486052370.924949) vcan0 3CA#FE7BA89C00000000
(1486052370.955672) vcan0 3CA#FE7BA89C00000000
(1486052370.985671) vcan0 3CA#FE7B589C00000000
(1486052371.015051) vcan0 3CA#FE7B589C00000000
(1486052371.045045) vcan0 3CA#FE7B589C00000000
(1486052371.075287) vcan0 3CA#FE7AB88C00000000
(1486052371.105051) vcan0 3CA#FE7AB88C00000000
(1486052371.135921) vcan0 3CA#FE7AB88C00000000
(1486052371.165034) vcan0 3CA#FE7AB88C00000000
(1486052371.195046) vcan0 3CA#FE7AB86E00000000
(1486052371.225036) vcan0 3CA#FE7AB86E00000000
(1486052371.255296) vcan0 3CA#FE7AB86E00000000
(1486052371.284921) vcan0 3CA#FE7AB86E00000000
(1486052371.315702) vcan0 3CA#FE7A885C00000000
(1486052371.345008) vcan0 3CA#FE7A885C00000000
(1486052371.375311) vcan0 3CA#FE7A885C00000000
(1486052371.405032) vcan0 3CA#FE7A885C00000000
(1486052371.435699) vcan0 3CA#FE7AD84B00000000
(1486052371.465031) vcan0 3CA#FE7AD84B00000000
(1486052371.495657) vcan0 3CA#FE7AD84B00000000
(1486052371.525033) vcan0 3CA#FE7AD84B00000000
(1486052371.555288) vcan0 3CA#FE7AD84B00000000
(1486052371.585664) vcan0 3CA#FE7C286800000000
(1486052371.615045) vcan0 3CA#FE7C286800000000
(1486052371.645039) vcan0 3CA#FE7C286800000000
(1486052371.675419) vcan0 3CA#FE7C286800000000
(1486052371.705039) vcan0 3CA#FE7C686200000000
(1486052371.735914) vcan0 3CA#FE7C686200000000
(1486052371.765036) vcan0 3CA#FE7C686200000000
(1486052371.794991) vcan0 3D8#0000000080456030
(1486052371.795944) vcan0 3CA#FE7C686200000000
(1486052371.796015) vcan0 3CD#0000000000000000
(1486052371.825029) vcan0 3CA#FE7C986800000000
(1486052371.855940) vcan0 3CA#FE7C986800000000
(1486052371.884928) vcan0 3CA#FE7C986800000000
(1486052371.914929) vcan0 3CA#FE7C986800000000
(1486052371.944927) vcan0 3CA#FE7C986800000000
(1486052371.974928) vcan0 3CA#FE7CF86D00000000
(1486052372.004926) vcan0 3CA#FE7CF86D00000000
(1486052372.035803) vcan0 3CA#FE7CF86D00000000
(1486052372.065306) vcan0 3CA#FE7CF86D00000000
(1486052372.094891) vcan0 3CA#FE7D984E00000000
(1486052372.124924) vcan0 3CA#FE7D984E00000000
(1486052372.155173) vcan0 3CA#FE7D984E00000000
(1486052372.185798) vcan0 3CA#FE7D984E00000000
(1486052372.214930) vcan0 3CA#FE7E683800000000
(1486052372.244924) vcan0 3CA#FE7E683800000000
(1486052372.275172) vcan0 3CA#FE7E683800000000
(1486052372.304921) vcan0 3CA#FE7E683800000000
(1486052372.335840) vcan0 3CA#FE7EF82800000000
(1486052372.364974) vcan0 3CA#FE7EF82800000000
(1486052372.394969) vcan0 3CA#FE7EF82800000000
(1486052372.424965) vcan0 3CA#FE7EF82800000000
(1486052372.455465) vcan0 3CA#FE7F582E00000000
(1486052372.484907) vcan0 3CA#FE7F582E00000000
(1486052372.515035) vcan0 3CA#FE7F582E00000000
(1486052372.545666) vcan0 3CA#FE7F582E00000000
(1486052372.575007) vcan0 3CA#FE7FC83A00000000
(1486052372.605165) vcan0 3CA#FE7FC83A00000000
(1486052372.635877) vcan0 3CA#FE7FC83A00000000
(1486052372.665625) vcan0 3CA#FE7FC83A00000000
(1486052372.695003) vcan0 3CA#FE7FE85300000000
(1486052372.724999) vcan0 3CA#FE7FE85300000000
(1486052372.755630) vcan0 3CA#FE7FE85300000000
(1486052372.786045) vcan0 3CA#FE7FE85300000000
(1486052372.795407) vcan0 3D8#0000000080456030
(1486052372.796406) vcan0 3CD#0000000000000000
(1486052372.815036) vcan0 3CA#FE7F985700000000
(1486052372.845027) vcan0 3CA#FE7F985700000000
(1486052372.875026) vcan0 3CA#FE7F985700000000
(1486052372.905016) vcan0 3CA#FE7F985700000000
(1486052372.935902) vcan0 3CA#FE7F986500000000
(1486052372.965017) vcan0 3CA#FE7F986500000000
(1486052372.995023) vcan0 3CA#FE7F986500000000
(1486052373.025026) vcan0 3CA#FE7F986500000000
(1486052373.055305) vcan0 3CA#FE7F586800000000
(1486052373.084861) vcan0 3CA#FE7F586800000000
(1486052373.114985) vcan0 3CA#FE7F586800000000
(1486052373.144980) vcan0 3CA#FE7F586800000000
(1486052373.174935) vcan0 3CA#FE7F586800000000
(1486052373.204927) vcan0 3CA#FE7F486800000000
(1486052373.235805) vcan0 3CA#FE7F486800000000
(1486052373.264923) vcan0 3CA#FE7F486800000000
(1486052373.294928) vcan0 3CA#FE7F486800000000
(1486052373.324930) vcan0 3CA#FE7FB86200000000
(1486052373.355220) vcan0 3CA#FE7FB86200000000
(1486052373.384924) vcan0 3CA#FE7FB86200000000
(1486052373.414927) vcan0 3CA#FE7FB86200000000
(1486052373.444924) vcan0 3CA#FE7FE85B00000000
(1486052373.474930) vcan0 3CA#FE7FE85B00000000
(1486052373.504931) vcan0 3CA#FE7FE85B00000000
(1486052373.535925) vcan0 3CA#FE7FE85B00000000
(1486052373.565021) vcan0 3CA#FE80585E00000000
(1486052373.594955) vcan0 3CA#FE80585E00000000
(1486052373.625010) vcan0 3CA#FE80585E00000000
(1486052373.655555) vcan0 3CA#FE80C86000000000
(1486052373.684885) vcan0 3CA#FE80C86000000000
(1486052373.715009) vcan0 3CA#FE80C86000000000
(1486052373.745018) vcan0 3CA#FE80C86000000000
(1486052373.776186) vcan0 3CA#FE81485F00000000
(1486052373.795816) vcan0 3CD#0000000000000000
(1486052373.795898) vcan0 3D8#0000000080456030
(1486052373.805009) vcan0 3CA#FE81485F00000000
(1486052373.835191) vcan0 3CA#FE81485F00000000
(1486052373.864830) vcan0 3CA#FE81485F00000000
(1486052373.895934) vcan0 3CA#FE81D86200000000
(1486052373.924979) vcan0 3CA#FE81D86200000000
(1486052373.955215) vcan0 3CA#FE81D86200000000
(1486052373.984950) vcan0 3CA#FE81D86200000000
(1486052374.015688) vcan0 3CA#FE81D86200000000
(1486052374.044943) vcan0 3CA#FE82886800000000
(1486052374.075153) vcan0 3CA#FE82886800000000
(1486052374.104902) vcan0 3CA#FE82886800000000
(1486052374.135063) vcan0 3CA#FE81C87400000000
(1486052374.164901) vcan0 3CA#FE81C87400000000
(1486052374.195152) vcan0 3CA#FE81C87400000000
(1486052374.224903) vcan0 3CA#FE81C87400000000
(1486052374.255166) vcan0 3CA#FE81288000000000
(1486052374.284928) vcan0 3CA#FE81288000000000
(1486052374.315152) vcan0 3CA#FE81288000000000
(1486052374.344900) vcan0 3CA#FE81288000000000
(1486052374.375278) vcan0 3CA#FE80B89000000000
(1486052374.404900) vcan0 3CA#FE80B89000000000
(1486052374.435294) vcan0 3CA#FE80B89000000000
(1486052374.464899) vcan0 3CA#FE80B89000000000
(1486052374.495275) vcan0 3CA#FE7FC8A700000000
(1486052374.525011) vcan0 3CA#FE7FC8A700000000
(1486052374.555590) vcan0 3CA#FE7FC8A700000000
(1486052374.585125) vcan0 3CA#FE7FC8A700000000
(1486052374.615498) vcan0 3CA#FE80582B00000000
(1486052374.645001) vcan0 3CA#FE80582B00000000
(1486052374.675498) vcan0 3CA#FE80582B00000000
(1486052374.705373) vcan0 3CA#FE80582B00000000
(1486052374.735540) vcan0 3CA#FE80283200000000
(1486052374.764994) vcan0 3CA#FE80283200000000
(1486052374.795501) vcan0 3D8#0000000080456030
(1486052374.795584) vcan0 3CA#FE80283200000000
(1486052374.795634) vcan0 3CD#0000000000000000
(1486052374.825123) vcan0 3CA#FE80283200000000
(1486052374.856089) vcan0 3CA#FE80683100000000
(1486052374.884951) vcan0 3CA#FE80683100000000
(1486052374.915553) vcan0 3CA#FE80683100000000
(1486052374.944928) vcan0 3CA#FE7D983400000000
(1486052374.975553) vcan0 3CA#FE7D983400000000
(1486052375.005540) vcan0 3CA#FE7D983400000000
(1486052375.035484) vcan0 3CA#FE7D983400000000
(1486052375.065138) vcan0 3CA#FE83E81500000000
(1486052375.095671) vcan0 3CA#FE83E81500000000
(1486052375.125752) vcan0 3CA#FE83E81500000000
(1486052375.155662) vcan0 3CA#FE7C683900000000
(1486052375.185096) vcan0 3CA#FE7C683900000000
(1486052375.215752) vcan0 3CA#FE7C683900000000
(1486052375.245383) vcan0 3CA#FE7C683900000000
(1486052375.275752) vcan0 3CA#FE7A684100000000
(1486052375.304936) vcan0 3CA#FE7A684100000000
(1486052375.335786) vcan0 3CA#FE7A684100000000
(1486052375.364959) vcan0 3CA#FE7A684100000000
(1486052375.395660) vcan0 3CA#FE79D83000000000
(1486052375.425029) vcan0 3CA#FE79D83000000000
(1486052375.455814) vcan0 3CA#FE79D83000000000
(1486052375.484962) vcan0 3CA#FE79D83000000000
(1486052375.515830) vcan0 3CA#FE7AB83200000000
(1486052375.544903) vcan0 3CA#FE7AB83200000000
(1486052375.575774) vcan0 3CA#FE7AB83200000000
(1486052375.605027) vcan0 3CA#FE7AD81A00000000
(1486052375.635796) vcan0 3CA#FE7AD81A00000000
(1486052375.664889) vcan0 3CA#FE7AD81A00000000
(1486052375.695887) vcan0 3CA#FE7AD81A00000000
(1486052375.725013) vcan0 3CA#FE7CA82200000000
(1486052375.755935) vcan0 3CA#FE7CA82200000000
(1486052375.785009) vcan0 3CA#FE7CA82200000000
(1486052375.795272) vcan0 3D8#0000000080456030
(1486052375.796259) vcan0 3CD#0000000000000000
(1486052375.815911) vcan0 3CA#FE7C580800000000
(1486052375.844890) vcan0 3CA#FE7C580800000000
(1486052375.875886) vcan0 3CA#FE7C580800000000
(1486052375.905010) vcan0 3CA#FE7C580800000000
(1486052375.935902) vcan0 3CA#FE7CD81300000000
(1486052375.964881) vcan0 3CA#FE7CD81300000000
(1486052375.996009) vcan0 3CA#FE7CD81300000000
(1486052376.025060) vcan0 3CA#FE7CD81300000000
(1486052376.055031) vcan0 3CA#FE7C780900000000
(1486052376.085099) vcan0 3CA#FE7C780900000000
(1486052376.115045) vcan0 3CA#FE7C780900000000
(1486052376.145055) vcan0 3CA#FE7C980C00000000
(1486052376.175055) vcan0 3CA#FE7C980C00000000
(1486052376.205008) vcan0 3CA#FE7C980C00000000
(1486052376.235660) vcan0 3CA#FE7C980C00000000
(1486052376.265008) vcan0 3CA#FE7D480000000000
(1486052376.295025) vcan0 3CA#FE7D480000000000
(1486052376.325253) vcan0 3CA#FE7D480000000000
(1486052376.355407) vcan0 3CA#FE7E17FE00000000
(1486052376.385004) vcan0 3CA#FE7E17FE00000000
(1486052376.415129) vcan0 3CA#FE7E17FE00000000
(1486052376.445004) vcan0 3CA#FE7E17FE00000000
(1486052376.475005) vcan0 3CA#FE7EA7FE00000000
(1486052376.505010) vcan0 3CA#FE7EA7FE00000000
(1486052376.535877) vcan0 3CA#FE7EA7FE00000000
(1486052376.565070) vcan0 3CA#FE7F480200000000
(1486052376.595005) vcan0 3CA#FE7F480200000000
(1486052376.625003) vcan0 3CA#FE7F480200000000
(1486052376.655010) vcan0 3CA#FE7F480200000000
(1486052376.684999) vcan0 3CA#FE7FB80300000000
(1486052376.715002) vcan0 3CA#FE7FB80300000000
(1486052376.745004) vcan0 3CA#FE7FB80300000000
(1486052376.775001) vcan0 3CA#FE7FD81300000000
(1486052376.795002) vcan0 3D8#0000000080456030
(1486052376.795998) vcan0 3CD#0000000000000000
(1486052376.805006) vcan0 3CA#FE7FD81300000000
(1486052376.835940) vcan0 3CA#FE7FD81300000000
(1486052376.865017) vcan0 3CA#FE7FD81300000000
(1486052376.895016) vcan0 3CA#FE84C80300000000
(1486052376.925010) vcan0 3CA#FE84C80300000000
(1486052376.955387) vcan0 3CA#FE84C80300000000
(1486052376.985110) vcan0 3CA#FE84C80300000000
(1486052377.015121) vcan0 3CA#FE83F7F500000000
(1486052377.045106) vcan0 3CA#FE83F7F500000000
(1486052377.075099) vcan0 3CA#FE83F7F500000000
(1486052377.105097) vcan0 3CA#FE83F7F500000000
(1486052377.135972) vcan0 3CA#FE8577F000000000
(1486052377.165075) vcan0 3CA#FE8577F000000000
(1486052377.195111) vcan0 3CA#FE8577F000000000
(1486052377.225108) vcan0 3CA#FE7A584B00000000
(1486052377.255105) vcan0 3CA#FE7A584B00000000
(1486052377.285100) vcan0 3CA#FE7A584B00000000
(1486052377.315482) vcan0 3CA#FE7A584B00000000
(1486052377.345059) vcan0 3CA#FE79385000000000
(1486052377.375074) vcan0 3CA#FE79385000000000
(1486052377.405060) vcan0 3CA#FE79385000000000
(1486052377.435845) vcan0 3CA#FE79385000000000
(1486052377.465704) vcan0 3CA#FE77E85200000000
(1486052377.495050) vcan0 3CA#FE77E85200000000
(1486052377.525201) vcan0 3CA#FE77E85200000000
(1486052377.555298) vcan0 3CA#FE77E85200000000
(1486052377.585649) vcan0 3CA#FE76585500000000
(1486052377.595053) vcan0 3D8#0000000080C56030
(1486052377.615034) vcan0 3CA#FE76585500000000
(1486052377.645490) vcan0 3CA#FE76585500000000
(1486052377.674994) vcan0 3CA#FE76585500000000
(1486052377.705023) vcan0 3CA#FE75F84800000000
(1486052377.735841) vcan0 3CA#FE75F84800000000
(1486052377.765061) vcan0 3CA#FE75F84800000000
(1486052377.795096) vcan0 3D8#0000000080C56030
(1486052377.796092) vcan0 3CA#FE75E84200000000
(1486052377.796181) vcan0 3CD#0000000000000000
(1486052377.824963) vcan0 3CA#FE75E84200000000
(1486052377.855112) vcan0 3CA#FE75E84200000000
(1486052377.885304) vcan0 3CA#FE75E84200000000
(1486052377.914991) vcan0 3CA#FE76C82000000000
(1486052377.944990) vcan0 3CA#FE76C82000000000
(1486052377.974986) vcan0 3CA#FE76C82000000000
(1486052378.004932) vcan0 3CA#FE78482000000000
(1486052378.035861) vcan0 3CA#FE78482000000000
(1486052378.064983) vcan0 3CA#FE78482000000000
(1486052378.095363) vcan0 3CA#FE78482000000000
(1486052378.124985) vcan0 3CA#FE79580900000000
(1486052378.154988) vcan0 3CA#FE79580900000000
(1486052378.184984) vcan0 3CA#FE7958A800000000
(1486052378.214985) vcan0 3CA#FE7AA8B100000000
(1486052378.244983) vcan0 3CA#FE7AA8B100000000
(1486052378.274985) vcan0 3CA#FE7AA8B100000000
(1486052378.304983) vcan0 3CA#027AA8B100000000
(1486052378.335859) vcan0 3CA#027B38A500000000
(1486052378.364983) vcan0 3CA#027B38A500000000
(1486052378.394983) vcan0 3CA#027B38A500000000
(1486052378.424980) vcan0 3CA#027B38A500000000
(1486052378.454983) vcan0 3CA#027BC8AF00000000
(1486052378.485517) vcan0 3CA#027BC8AF00000000
(1486052378.515605) vcan0 3CA#027BC8AF00000000
(1486052378.546108) vcan0 3CA#027BC8AF00000000
(1486052378.574984) vcan0 3CA#027B78AB00000000
(1486052378.604983) vcan0 3CA#027B78AB00000000
(1486052378.635855) vcan0 3CA#027B78AB00000000
(1486052378.664981) vcan0 3CA#027B78AB00000000
(1486052378.695874) vcan0 3CA#027C08B200000000
(1486052378.725882) vcan0 3CA#027C08B200000000
(1486052378.755124) vcan0 3CA#027C08B200000000
(1486052378.785887) vcan0 3CA#027C08B200000000
(1486052378.795092) vcan0 3D8#0000000080C55830
(1486052378.796103) vcan0 3CD#0000000000000000
(1486052378.815604) vcan0 3CA#027C78B100000000
(1486052378.845728) vcan0 3CA#027C78B100000000
(1486052378.875110) vcan0 3CA#027C78B100000000
(1486052378.905675) vcan0 3CA#027C78B100000000
(1486052378.935983) vcan0 3CA#027C88B500000000
(1486052378.965013) vcan0 3CA#027C88B500000000
(1486052378.994995) vcan0 3CA#027C88B500000000
(1486052379.025600) vcan0 3CA#027C18AE00000000
(1486052379.054977) vcan0 3CA#027C18AE00000000
(1486052379.085450) vcan0 3CA#027C18AE00000000
(1486052379.114977) vcan0 3CA#027C18AE00000000
(1486052379.145473) vcan0 3CA#027CF8AD00000000
(1486052379.174989) vcan0 3CA#027CF8AD00000000
(1486052379.205477) vcan0 3CA#027CF8AD00000000
(1486052379.235856) vcan0 3CA#027CF8AD00000000
(1486052379.264974) vcan0 3CA#027D68AE00000000
(1486052379.294977) vcan0 3CA#027D68AE00000000
(1486052379.325457) vcan0 3CA#027D68AE00000000
(1486052379.355144) vcan0 3CA#027D68AE00000000
(1486052379.385659) vcan0 3CA#027DC8B600000000
(1486052379.415075) vcan0 3CA#027DC8B600000000
(1486052379.445449) vcan0 3CA#027DC8B600000000
(1486052379.475459) vcan0 3CA#027DC8B600000000
(1486052379.505449) vcan0 3CA#027E08AD00000000
(1486052379.535074) vcan0 3CA#027E08AD00000000
(1486052379.565949) vcan0 3CA#027E08AD00000000
(1486052379.595041) vcan0 3CA#027E08AD00000000
(1486052379.625164) vcan0 3CA#027D88B500000000
(1486052379.654985) vcan0 3CA#027D88B500000000
(1486052379.685078) vcan0 3CA#027D88B500000000
(1486052379.714981) vcan0 3CA#027D88B500000000
(1486052379.745104) vcan0 3CA#027D78BE00000000
(1486052379.775036) vcan0 3CA#027D78BE00000000
(1486052379.795040) vcan0 3D8#0000000080C55830
(1486052379.796043) vcan0 3CD#0000000000000000
(1486052379.805159) vcan0 3CA#027D78BE00000000
(1486052379.835945) vcan0 3CA#027D78BE00000000
(1486052379.865565) vcan0 3CA#027C18C400000000
(1486052379.895051) vcan0 3CA#027C18C400000000
(1486052379.926092) vcan0 3CA#027C18C400000000
(1486052379.955000) vcan0 3CA#027C78C900000000
(1486052379.986002) vcan0 3CA#027C78C900000000
(1486052380.015065) vcan0 3CA#027C78CA00000000
(1486052380.046034) vcan0 3CA#027C78CA00000000
(1486052380.074978) vcan0 3CA#027A78B900000000
(1486052380.105345) vcan0 3CA#027A78B900000000
(1486052380.135721) vcan0 3CA#027A78B900000000
(1486052380.165468) vcan0 3CA#027A78B900000000
(1486052380.194970) vcan0 3CA#0279E8AF00000000
(1486052380.225226) vcan0 3CA#0279E8AF00000000
(1486052380.254978) vcan0 3CA#0279E8AF00000000
(1486052380.285644) vcan0 3CA#0279E8AF00000000
(1486052380.314989) vcan0 3CA#0278B89A00000000
(1486052380.344964) vcan0 3CA#0278B89A00000000
(1486052380.374963) vcan0 3CA#0278B89A00000000
(1486052380.405343) vcan0 3CA#0278B89A00000000
(1486052380.435869) vcan0 3CA#027B189A00000000
(1486052380.465158) vcan0 3CA#027B189A00000000
(1486052380.494970) vcan0 3CA#027B189A00000000
(1486052380.524958) vcan0 3CA#027B189A00000000
(1486052380.554999) vcan0 3CA#027E989900000000
(1486052380.585693) vcan0 3CA#027E989900000000
(1486052380.615075) vcan0 3CA#027E989900000000
(1486052380.645079) vcan0 3CA#027E989900000000
(1486052380.675072) vcan0 3CA#027A88BB00000000
(1486052380.705067) vcan0 3CA#027A88BB00000000
(1486052380.735774) vcan0 3CA#027A88BB00000000
(1486052380.765221) vcan0 3CA#0277E8BE00000000
(1486052380.794979) vcan0 3D8#0000000080C55830
(1486052380.795972) vcan0 3CA#0277E8BE00000000
(1486052380.796016) vcan0 3CD#0000000000000000
(1486052380.824977) vcan0 3CA#0277E8BE00000000
(1486052380.855285) vcan0 3CA#0277E8BE00000000
(1486052380.885103) vcan0 3CA#027348B600000000
(1486052380.914826) vcan0 3CA#027348B600000000
(1486052380.944957) vcan0 3CA#027348B600000000
(1486052380.974957) vcan0 3CA#027348B600000000
(1486052381.004954) vcan0 3CA#0278F89D00000000
(1486052381.035829) vcan0 3CA#0278F89D00000000
(1486052381.065892) vcan0 3CA#0278F89D00000000
(1486052381.094962) vcan0 3CA#027B388000000000
(1486052381.124952) vcan0 3CA#027B388000000000
(1486052381.155598) vcan0 3CA#027B388000000000
(1486052381.185527) vcan0 3CA#027B388000000000
(1486052381.215107) vcan0 3CA#0279B86D00000000
(1486052381.244874) vcan0 3CA#0279B86D00000000
(1486052381.275578) vcan0 3CA#0279B86D00000000
(1486052381.304950) vcan0 3CA#0279B86D00000000
(1486052381.335222) vcan0 3CA#027DA82D00000000
(1486052381.364952) vcan0 3CA#027DA82D00000000
(1486052381.394852) vcan0 3CA#027DA82D00000000
(1486052381.425002) vcan0 3CA#027E880900000000
(1486052381.455030) vcan0 3CA#027E880900000000
(1486052381.485391) vcan0 3CA#027E880900000000
(1486052381.515395) vcan0 3CA#027E880900000000
(1486052381.545028) vcan0 3CA#0280581400000000
(1486052381.574961) vcan0 3CA#0280581400000000
(1486052381.604954) vcan0 3CA#0280581400000000
(1486052381.635698) vcan0 3CA#0280581400000000
(1486052381.664947) vcan0 3CA#0281782400000000
(1486052381.694876) vcan0 3CA#0281782400000000
(1486052381.724946) vcan0 3CA#0281782400000000
(1486052381.754949) vcan0 3CA#0281782400000000
(1486052381.785321) vcan0 3CA#0282B83900000000
(1486052381.794950) vcan0 3D8#0000000080C55830
(1486052381.795946) vcan0 3CD#0000000000000000
(1486052381.814846) vcan0 3CA#0282B83900000000
(1486052381.844951) vcan0 3CA#0282B83900000000
(1486052381.874945) vcan0 3CA#0282B83900000000
(1486052381.904862) vcan0 3CA#0283183C00000000
(1486052381.935928) vcan0 3CA#0283183C00000000
(1486052381.964996) vcan0 3CA#0283183C00000000
(1486052381.995000) vcan0 3CA#0283183B00000000
(1486052382.024997) vcan0 3CA#0283087100000000
(1486052382.054862) vcan0 3CA#0283087100000000
(1486052382.084943) vcan0 3CA#0283087100000000
(1486052382.114944) vcan0 3CA#0282E88C00000000
(1486052382.144852) vcan0 3CA#0282E88C00000000
(1486052382.174944) vcan0 3CA#0282E88C00000000
(1486052382.204940) vcan0 3CA#0282E88C00000000
(1486052382.235818) vcan0 3CA#0282E8B100000000
(1486052382.264940) vcan0 3CA#0282E8B100000000
(1486052382.294943) vcan0 3CA#0282E8B100000000
(1486052382.324941) vcan0 3CA#0282E8B100000000
(1486052382.355321) vcan0 3CA#028398A500000000
(1486052382.385640) vcan0 3CA#028398A400000000
(1486052382.414953) vcan0 3CA#028398A400000000
(1486052382.445350) vcan0 3CA#028398A400000000
(1486052382.474954) vcan0 3CA#028428A000000000
(1486052382.505453) vcan0 3CA#028428A000000000
(1486052382.535837) vcan0 3CA#028428A000000000
(1486052382.565429) vcan0 3CA#028428A000000000
(1486052382.595046) vcan0 3CA#0285189A00000000
(1486052382.624933) vcan0 3CA#0285189A00000000
(1486052382.655136) vcan0 3CA#0285189A00000000
(1486052382.685100) vcan0 3CA#0285F89100000000
(1486052382.715101) vcan0 3CA#0285F89100000000
(1486052382.745070) vcan0 3CA#0285F89100000000
(1486052382.775422) vcan0 3CA#0285F89100000000
(1486052382.795075) vcan0 3D8#0000000080C55830
(1486052382.796067) vcan0 3CD#0000000000000000
(1486052382.805076) vcan0 3CA#0287E89000000000
(1486052382.835777) vcan0 3CA#0287E89000000000
(1486052382.864992) vcan0 3CA#0287E89000000000
(1486052382.894998) vcan0 3CA#0288989400000000
(1486052382.924992) vcan0 3CA#0288989400000000
(1486052382.954995) vcan0 3CA#0288989400000000
(1486052382.984993) vcan0 3CA#0288989400000000
(1486052383.014940) vcan0 3CA#028AD88E00000000
(1486052383.044961) vcan0 3CA#028AD88E00000000
(1486052383.074932) vcan0 3CA#028AD88E00000000
(1486052383.105310) vcan0 3CA#028AD88E00000000
(1486052383.135807) vcan0 3CA#028C189500000000
(1486052383.164930) vcan0 3CA#028C189500000000
(1486052383.194932) vcan0 3CA#028C189500000000
(1486052383.224930) vcan0 3CA#028C189500000000
(1486052383.254932) vcan0 3CA#028C08BD00000000
(1486052383.284930) vcan0 3CA#028C08BD00000000
(1486052383.314889) vcan0 3CA#028C08BD00000000
(1486052383.344930) vcan0 3CA#028C08BD00000000
(1486052383.374937) vcan0 3CA#028AE8DB00000000
(1486052383.404878) vcan0 3CA#028AE8DB00000000
(1486052383.435805) vcan0 3CA#028AE8DB00000000
(1486052383.464928) vcan0 3CA#028AE8DB00000000
(1486052383.494930) vcan0 3CA#0289A90400000000
(1486052383.524849) vcan0 3CA#0289A90400000000
(1486052383.556073) vcan0 3CA#0289A90400000000
(1486052383.584935) vcan0 3CA#0289391C00000000
(1486052383.615572) vcan0 3CA#0289391C00000000
(1486052383.644928) vcan0 3CA#0289391C00000000
(1486052383.675207) vcan0 3CA#0289391C00000000
(1486052383.704927) vcan0 3CA#0288E92E00000000
(1486052383.735626) vcan0 3CA#0288E92E00000000
(1486052383.764969) vcan0 3CA#0288E92E00000000
(1486052383.795471) vcan0 3D8#0000000080C55830
(1486052383.795526) vcan0 3CA#028738AD00000000
(1486052383.795564) vcan0 3CD#0000000000000000
(1486052383.824973) vcan0 3CA#028738AD00000000
(1486052383.854926) vcan0 3CA#028738AD00000000
(1486052383.884925) vcan0 3CA#028738AD00000000
(1486052383.914926) vcan0 3CA#0286B8AF00000000
(1486052383.944835) vcan0 3CA#0286B8AF00000000
(1486052383.974933) vcan0 3CA#0286B8AF00000000
(1486052384.004843) vcan0 3CA#0286B8AF00000000
(1486052384.035798) vcan0 3CA#0286889900000000
(1486052384.064922) vcan0 3CA#0286889900000000
(1486052384.094923) vcan0 3CA#0286889900000000
(1486052384.124927) vcan0 3CA#0286889900000000
(1486052384.154921) vcan0 3CA#0286088F00000000
(1486052384.184835) vcan0 3CA#0286088F00000000
(1486052384.214923) vcan0 3CA#0286088F00000000
(1486052384.244923) vcan0 3CA#0286088F00000000
(1486052384.274930) vcan0 3CA#0286087D00000000
(1486052384.304919) vcan0 3CA#0286087D00000000
(1486052384.335793) vcan0 3CA#0286087D00000000
(1486052384.364919) vcan0 3CA#0286087D00000000
(1486052384.394974) vcan0 3CA#0285987F00000000
(1486052384.424946) vcan0 3CA#0285987F00000000
(1486052384.455020) vcan0 3CA#0285987F00000000
(1486052384.485019) vcan0 3CA#0285987F00000000
(1486052384.514988) vcan0 3CA#FE7E37FE00000000
(1486052384.544984) vcan0 3CA#FE7E37FE00000000
(1486052384.574999) vcan0 3CA#FE7E37FE00000000
(1486052384.605305) vcan0 3CA#FE7E37FE00000000
(1486052384.635743) vcan0 3CA#FE7DD7FE00000000
(1486052384.664947) vcan0 3CA#FE7DD7FE00000000
(1486052384.695007) vcan0 3CA#FE7DD7FE00000000
(1486052384.724957) vcan0 3CA#FE7DD7FE00000000
(1486052384.754953) vcan0 3CA#FE8F47B100000000
(1486052384.784957) vcan0 3CA#FE8F47B100000000
(1486052384.794952) vcan0 3D8#0000000080C55830
(1486052384.795948) vcan0 3CD#0000000000000000
(1486052384.814967) vcan0 3CA#FE8F47B100000000
(1486052384.845968) vcan0 3CA#FE8F17B900000000
(1486052384.874920) vcan0 3CA#FE8F17B900000000
(1486052384.905182) vcan0 3CA#FE8F17B900000000
(1486052384.935796) vcan0 3CA#FE8F17B900000000
(1486052384.965162) vcan0 3CA#FE8C97CC00000000
(1486052384.994873) vcan0 3CA#FE8C97CC00000000
(1486052385.005412) vcan0 3D8#0000000080C56030
(1486052385.025412) vcan0 3CA#FE8C97CC00000000
(1486052385.054913) vcan0 3CA#FE8C97CC00000000
(1486052385.085161) vcan0 3CA#FE8B77D800000000
(1486052385.114858) vcan0 3CA#FE8B77D800000000
(1486052385.144910) vcan0 3CA#FE8B77D800000000
(1486052385.175908) vcan0 3CA#FE8807E200000000
(1486052385.204912) vcan0 3CA#FE8807E200000000
(1486052385.235792) vcan0 3CA#FE8807E200000000
(1486052385.264914) vcan0 3CA#FE8807E200000000
(1486052385.294909) vcan0 3CA#FE8407EB00000000
(1486052385.324817) vcan0 3CA#FE8407EB00000000
(1486052385.355407) vcan0 3CA#FE8407EB00000000
(1486052385.385033) vcan0 3CA#FE8407EB00000000
(1486052385.414909) vcan0 3CA#FE7D27EF00000000
(1486052385.444905) vcan0 3CA#FE7D27EF00000000
(1486052385.474908) vcan0 3CA#FE7D27EF00000000
(1486052385.504907) vcan0 3CA#FE7D27EF00000000
(1486052385.535780) vcan0 3CA#FE79783600000000
(1486052385.565152) vcan0 3CA#FE79783600000000
(1486052385.594991) vcan0 3CA#FE79783600000000
(1486052385.624987) vcan0 3CA#FE79783600000000
(1486052385.654989) vcan0 3CA#026FE82900000000
(1486052385.685123) vcan0 3CA#026FE82900000000
(1486052385.715364) vcan0 3CA#026FE82900000000
(1486052385.744984) vcan0 3CA#026AA82500000000
(1486052385.774959) vcan0 3CA#026AA82500000000
(1486052385.794972) vcan0 3D8#0000000080C56030
(1486052385.796082) vcan0 3CD#0000000000000000
(1486052385.804988) vcan0 3CA#026AA82500000000
(1486052385.835804) vcan0 3CA#026EF7E300000000
(1486052385.864898) vcan0 3CA#026EF7E300000000
(1486052385.894904) vcan0 3CA#026EF7E300000000
(1486052385.925278) vcan0 3CA#026EF7E300000000
(1486052385.954902) vcan0 3CA#026F97DA00000000
(1486052385.984933) vcan0 3CA#026F97DA00000000
(1486052386.015029) vcan0 3CA#026F97DA00000000
(1486052386.044943) vcan0 3CA#026F97DA00000000
(1486052386.075678) vcan0 3CA#FE67D7DF00000000
(1486052386.104899) vcan0 3CA#FE67D7DF00000000
(1486052386.136151) vcan0 3CA#FE67D7DF00000000
(1486052386.164900) vcan0 3CA#FE6727D400000000
(1486052386.195812) vcan0 3CA#FE6727D400000000
(1486052386.224903) vcan0 3CA#FE6727D400000000
(1486052386.255402) vcan0 3CA#FE6727D400000000
(1486052386.285024) vcan0 3CA#FE5FE7D100000000
(1486052386.314899) vcan0 3CA#FE5FE7D100000000
(1486052386.344899) vcan0 3CA#FE5FE7D100000000
(1486052386.375024) vcan0 3CA#FE5FE7D100000000
(1486052386.404896) vcan0 3CA#FE5DC7D100000000
(1486052386.435705) vcan0 3CA#FE5DC7D100000000
(1486052386.464948) vcan0 3CA#FE5DC7D100000000
(1486052386.495079) vcan0 3CA#FE5C57C300000000
(1486052386.524951) vcan0 3CA#FE5C57C300000000
(1486052386.554950) vcan0 3CA#FE5C57C300000000
(1486052386.584953) vcan0 3CA#FE5C57C300000000
(1486052386.615010) vcan0 3CA#FE58E7B200000000
(1486052386.645005) vcan0 3CA#FE58E7B200000000
(1486052386.675077) vcan0 3CA#FE58E7B200000000
(1486052386.705389) vcan0 3CA#FE58E7B200000000
(1486052386.736004) vcan0 3CA#FE57E7A600000000
(1486052386.765009) vcan0 3CA#FE57E7A600000000
(1486052386.795009) vcan0 3D8#0000000080C56030
(1486052386.796007) vcan0 3CA#FE57E7A600000000
(1486052386.796103) vcan0 3CD#0000000000000000
(1486052386.825006) vcan0 3CA#FE57E7A600000000
(1486052386.855505) vcan0 3CA#FE5B779400000000
(1486052386.885060) vcan0 3CA#FE5B779400000000
(1486052386.915315) vcan0 3CA#FE5B779400000000
(1486052386.944937) vcan0 3CA#FE5E878800000000
(1486052386.975062) vcan0 3CA#FE5E878800000000
(1486052387.004943) vcan0 3CA#FE5E878800000000
(1486052387.035809) vcan0 3CA#FE5E878800000000
(1486052387.064856) vcan0 3CA#FE67678F00000000
(1486052387.094941) vcan0 3CA#FE67678F00000000
(1486052387.124887) vcan0 3CA#FE67678F00000000
(1486052387.155021) vcan0 3CA#FE6A078B00000000
(1486052387.185012) vcan0 3CA#FE6A078B00000000
(1486052387.214890) vcan0 3CA#FE6A078B00000000
(1486052387.246159) vcan0 3CA#FE6A078B00000000
(1486052387.274890) vcan0 3CA#FE6CA78B00000000
(1486052387.305567) vcan0 3CA#FE6CA78B00000000
(1486052387.335943) vcan0 3CA#FE6CA78B00000000
(1486052387.365229) vcan0 3CA#FE6CA78B00000000
(1486052387.394946) vcan0 3CA#FE6DB78800000000
(1486052387.425691) vcan0 3CA#FE6DB78800000000
(1486052387.455268) vcan0 3CA#FE6DB78800000000
(1486052387.485134) vcan0 3CA#FE70379E00000000
(1486052387.514955) vcan0 3CA#FE70379E00000000
(1486052387.545009) vcan0 3CA#FE70379E00000000
(1486052387.575011) vcan0 3CA#FE6F87A700000000
(1486052387.605018) vcan0 3CA#FE6F87A700000000
(1486052387.635884) vcan0 3CA#FE6F87A700000000
(1486052387.665008) vcan0 3CA#FE6F87A700000000
(1486052387.695010) vcan0 3CA#FE6E27AB00000000
(1486052387.724937) vcan0 3CA#FE6E27AB00000000
(1486052387.755019) vcan0 3CA#FE6E27AB00000000
(1486052387.785380) vcan0 3CA#FE6E27AB00000000
(1486052387.795010) vcan0 3D8#0000000080C56030
(1486052387.796008) vcan0 3CD#0000000000000000
(1486052387.815119) vcan0 3CA#FE6B57AE00000000
(1486052387.845075) vcan0 3CA#FE6B57AE00000000
(1486052387.875036) vcan0 3CA#FE6B57AE00000000
(1486052387.905041) vcan0 3CA#FE6B57AE00000000
(1486052387.935937) vcan0 3CA#FE6897BD00000000
(1486052387.964984) vcan0 3CA#FE6897BD00000000
(1486052387.995007) vcan0 3CA#FE6897BD00000000
(1486052388.025002) vcan0 3CA#FE68F7B900000000
(1486052388.055024) vcan0 3CA#FE68F7B900000000
(1486052388.085003) vcan0 3CA#FE68F7B900000000
(1486052388.115380) vcan0 3CA#FE68F7B900000000
(1486052388.145005) vcan0 3CA#FE6E17B900000000
(1486052388.175752) vcan0 3CA#FE6E17B900000000
(1486052388.195004) vcan0 3D8#0000000080456030
(1486052388.205005) vcan0 3CA#FE6E17B900000000
(1486052388.235877) vcan0 3CA#FE70D7B300000000
(1486052388.265004) vcan0 3CA#FE70D7B300000000
(1486052388.295007) vcan0 3CA#FE70D7B300000000
(1486052388.325003) vcan0 3CA#FE70D7B300000000
(1486052388.355251) vcan0 3CA#FE7417BC00000000
(1486052388.385002) vcan0 3CA#FE7417BC00000000
(1486052388.414932) vcan0 3CA#FE7417BC00000000
(1486052388.444881) vcan0 3CA#FE7417BC00000000
(1486052388.475000) vcan0 3CA#FE7477C000000000
(1486052388.505000) vcan0 3CA#FE7477C000000000
(1486052388.535643) vcan0 3CA#FE7477C000000000
(1486052388.565248) vcan0 3CA#FE7477C000000000
(1486052388.595149) vcan0 3CA#FE8147E100000000
(1486052388.624935) vcan0 3CA#FE8147E100000000
(1486052388.655623) vcan0 3CA#FE8147E100000000
(1486052388.684998) vcan0 3CA#FE8147E100000000
(1486052388.715504) vcan0 3CA#FE8447E000000000
(1486052388.744997) vcan0 3CA#FE8447E000000000
(1486052388.775250) vcan0 3CA#FE8447E000000000
(1486052388.794999) vcan0 3D8#0000000080456030
(1486052388.796055) vcan0 3CD#0000000000000000
(1486052388.804995) vcan0 3CA#FE8747E100000000
(1486052388.835747) vcan0 3CA#FE8747E100000000
(1486052388.865075) vcan0 3CA#FE8747E100000000
(1486052388.895082) vcan0 3CA#FE8747E100000000
(1486052388.925029) vcan0 3CA#FE8D37E800000000
(1486052388.955458) vcan0 3CA#FE8D37E800000000
(1486052388.985040) vcan0 3CA#FE8D37E800000000
(1486052389.015040) vcan0 3CA#FE76081900000000
(1486052389.045011) vcan0 3CA#FE76081900000000
(1486052389.074991) vcan0 3CA#FE76089D00000000
(1486052389.104998) vcan0 3CA#FE76089D00000000
(1486052389.135868) vcan0 3CA#FE7388A500000000
(1486052389.165000) vcan0 3CA#FE7388A500000000
(1486052389.194993) vcan0 3CA#FE7388A500000000
(1486052389.224990) vcan0 3CA#FE7388A500000000
(1486052389.254994) vcan0 3CA#FE72A8A900000000
(1486052389.284916) vcan0 3CA#FE72A8A900000000
(1486052389.315000) vcan0 3CA#FE72A8A900000000
(1486052389.344994) vcan0 3CA#FE72A8A900000000
(1486052389.374993) vcan0 3CA#FE70289E00000000
(1486052389.404990) vcan0 3CA#FE70289E00000000
(1486052389.435741) vcan0 3CA#FE70289E00000000
(1486052389.464999) vcan0 3CA#FE70289E00000000
(1486052389.494992) vcan0 3CA#FE6F989C00000000
(1486052389.524964) vcan0 3CA#FE6F989C00000000
(1486052389.554989) vcan0 3CA#FE6F989C00000000
(1486052389.584987) vcan0 3CA#FE70589900000000
(1486052389.614998) vcan0 3CA#FE70589900000000
(1486052389.644987) vcan0 3CA#FE70589900000000
(1486052389.675365) vcan0 3CA#FE70589900000000
(1486052389.704987) vcan0 3CA#FE6F089E00000000
(1486052389.735649) vcan0 3CA#FE6F089E00000000
(1486052389.765629) vcan0 3CA#FE6F089E00000000
(1486052389.794911) vcan0 3D8#0000000080456030
(1486052389.795986) vcan0 3CA#FE6F089E00000000
(1486052389.796040) vcan0 3CD#0000000000000000
(1486052389.825261) vcan0 3CA#FE6E688400000000
(1486052389.855021) vcan0 3CA#FE6E688400000000
(1486052389.885647) vcan0 3CA#FE6E688400000000
(1486052389.914992) vcan0 3CA#FE6C187A00000000
(1486052389.945801) vcan0 3CA#FE6C187A00000000
(1486052389.975039) vcan0 3CA#FE6C187A00000000
(1486052390.005028) vcan0 3CA#FE6C187A00000000
(1486052390.035874) vcan0 3CA#FE6D288700000000
(1486052390.064985) vcan0 3CA#FE6D288700000000
(1486052390.094984) vcan0 3CA#FE6D288700000000
(1486052390.125238) vcan0 3CA#FE6D288700000000
(1486052390.154983) vcan0 3CA#FE7028B900000000
(1486052390.184905) vcan0 3CA#FE7028B900000000
(1486052390.214910) vcan0 3CA#FE7028B900000000
(1486052390.244895) vcan0 3CA#FE7028B900000000
(1486052390.274895) vcan0 3CA#FE6BA89B00000000
(1486052390.304894) vcan0 3CA#FE6BA89B00000000
(1486052390.335765) vcan0 3CA#FE6BA89B00000000
(1486052390.364987) vcan0 3CA#FE6B787D00000000
(1486052390.394906) vcan0 3CA#FE6B787D00000000
(1486052390.424983) vcan0 3CA#FE6B787D00000000
(1486052390.454978) vcan0 3CA#FE6B787D00000000
(1486052390.484976) vcan0 3CA#FE6DD87F00000000
(1486052390.515979) vcan0 3CA#FE6DD87F00000000
(1486052390.544980) vcan0 3CA#FE6DD87F00000000
(1486052390.575856) vcan0 3CA#FE6B688600000000
(1486052390.604932) vcan0 3CA#FE6B688600000000
(1486052390.635878) vcan0 3CA#FE6B688600000000
(1486052390.665352) vcan0 3CA#FE6B688600000000
(1486052390.695848) vcan0 3CA#FE6F787C00000000
(1486052390.724984) vcan0 3CA#FE6F787C00000000
(1486052390.754975) vcan0 3CA#FE6F787C00000000
(1486052390.784975) vcan0 3CA#FE6F787C00000000
(1486052390.795729) vcan0 3D8#0000000080456030
(1486052390.795767) vcan0 3CD#0000000000000000
(1486052390.815725) vcan0 3CA#FE6EE87600000000
(1486052390.845080) vcan0 3CA#FE6EE87600000000
(1486052390.875776) vcan0 3CA#FE6EE87600000000
(1486052390.905097) vcan0 3CA#FE7578A300000000
(1486052390.935913) vcan0 3CA#FE7578A300000000
(1486052390.965134) vcan0 3CA#FE7578A300000000
(1486052390.995817) vcan0 3CA#FE7578A300000000
(1486052391.025073) vcan0 3CA#FE7558AD00000000
(1486052391.055548) vcan0 3CA#FE7558AD00000000
(1486052391.084985) vcan0 3CA#FE7558AD00000000
(1486052391.115721) vcan0 3CA#FE7558AD00000000
(1486052391.144973) vcan0 3CA#FE71788E00000000
(1486052391.175252) vcan0 3CA#FE71788E00000000
(1486052391.204969) vcan0 3CA#FE71788E00000000
(1486052391.235739) vcan0 3CA#FE6D187000000000
(1486052391.264868) vcan0 3CA#FE6D187000000000
(1486052391.295718) vcan0 3CA#FE6D187000000000
(1486052391.325343) vcan0 3CA#FE6D187000000000
(1486052391.355594) vcan0 3CA#FE6F286100000000
(1486052391.385088) vcan0 3CA#FE6F286100000000
(1486052391.415327) vcan0 3CA#FE6F286100000000
(1486052391.445443) vcan0 3CA#FE6F286100000000
(1486052391.475688) vcan0 3CA#FE6FD86B00000000
(1486052391.504937) vcan0 3CA#FE6FD86B00000000
(1486052391.535323) vcan0 3CA#FE6FD86B00000000
(1486052391.565036) vcan0 3CA#FE6FD86B00000000
(1486052391.595103) vcan0 3CA#FE6D885400000000
(1486052391.624971) vcan0 3CA#FE6D885400000000
(1486052391.654964) vcan0 3CA#FE6D885400000000
(1486052391.684974) vcan0 3CA#FE6D885400000000
(1486052391.715090) vcan0 3CA#FE6E085D00000000
(1486052391.744895) vcan0 3CA#FE6E085D00000000
(1486052391.775971) vcan0 3CA#FE6E085D00000000
(1486052391.795003) vcan0 3D8#0000000080456030
(1486052391.796008) vcan0 3CD#0000000000000000
(1486052391.805004) vcan0 3CA#FE6E085D00000000
(1486052391.835968) vcan0 3CA#FE6D085700000000
(1486052391.864900) vcan0 3CA#FE6D085700000000
(1486052391.895343) vcan0 3CA#FE6D085700000000
(1486052391.924965) vcan0 3CA#FE6E486000000000
(1486052391.954877) vcan0 3CA#FE6E486000000000
(1486052391.984965) vcan0 3CA#FE6E486000000000
(1486052392.014974) vcan0 3CA#FE6EB84B00000000
(1486052392.045031) vcan0 3CA#FE6EB84B00000000
(1486052392.075710) vcan0 3CA#FE6EB84B00000000
(1486052392.104961) vcan0 3CA#FE6EB84B00000000
(1486052392.135835) vcan0 3CA#FE72A87000000000
(1486052392.164864) vcan0 3CA#FE72A86F00000000
(1486052392.195006) vcan0 3CA#FE72A86F00000000
(1486052392.225742) vcan0 3CA#FE72A86F00000000
(1486052392.255839) vcan0 3CA#FE73A84D00000000
(1486052392.285230) vcan0 3CA#FE73A84D00000000
(1486052392.314959) vcan0 3CA#FE73A84D00000000
(1486052392.344979) vcan0 3CA#FE73A84D00000000
(1486052392.375458) vcan0 3CA#FE73682700000000
(1486052392.404880) vcan0 3CA#FE73682600000000
(1486052392.435833) vcan0 3CA#FE73682600000000
(1486052392.464877) vcan0 3CA#FE6537C200000000
(1486052392.494975) vcan0 3CA#FE6537C200000000
(1486052392.524956) vcan0 3CA#FE6537C200000000
(1486052392.555739) vcan0 3CA#FE6537C200000000
(1486052392.584968) vcan0 3CA#FE78A7AE00000000
(1486052392.614908) vcan0 3CA#FE78A7AE00000000
(1486052392.644961) vcan0 3CA#FE78A7AE00000000
(1486052392.675204) vcan0 3CA#FE78A7AE00000000
(1486052392.704954) vcan0 3CA#FE7767BE00000000
(1486052392.735832) vcan0 3CA#FE7767BE00000000
(1486052392.764988) vcan0 3CA#FE7767BE00000000
(1486052392.794999) vcan0 3D8#0000000080456030
(1486052392.795989) vcan0 3CA#FE77A7B800000000
(1486052392.796049) vcan0 3CD#0000000000000000
(1486052392.824857) vcan0 3CA#FE77A7B800000000
(1486052392.854961) vcan0 3CA#FE77A7B800000000
(1486052392.884953) vcan0 3CA#FE77A7B800000000
(1486052392.914955) vcan0 3CA#FE84674700000000
(1486052392.944959) vcan0 3CA#FE84674700000000
(1486052392.974950) vcan0 3CA#FE84674700000000
(1486052392.994959) vcan0 3D8#0000000080856030
(1486052393.005466) vcan0 3CA#FE84674700000000
(1486052393.035828) vcan0 3CA#FE85575600000000
(1486052393.064918) vcan0 3CA#FE85575600000000
(1486052393.094954) vcan0 3CA#FE85575600000000
(1486052393.124952) vcan0 3CA#FE85575600000000
(1486052393.155952) vcan0 3CA#FE88F77700000000
(1486052393.184962) vcan0 3CA#FE88F77700000000
(1486052393.214952) vcan0 3CA#FE88F77700000000
(1486052393.244947) vcan0 3CA#FE88F77700000000
(1486052393.274947) vcan0 3CA#FE89978600000000
(1486052393.304956) vcan0 3CA#FE89978600000000
(1486052393.335833) vcan0 3CA#FE89978600000000
(1486052393.365601) vcan0 3CA#FE89978600000000
(1486052393.394948) vcan0 3CA#FE86E79C00000000
(1486052393.424998) vcan0 3CA#FE86E79C00000000
(1486052393.455841) vcan0 3CA#FE86E79C00000000
(1486052393.484947) vcan0 3CA#FE8737BC00000000
(1486052393.515563) vcan0 3CA#FE8737BC00000000
(1486052393.544944) vcan0 3CA#FE8737BC00000000
(1486052393.575822) vcan0 3CA#FE8737BC00000000
(1486052393.604953) vcan0 3CA#FE8507E500000000
(1486052393.635821) vcan0 3CA#FE8507E500000000
(1486052393.664947) vcan0 3CA#FE8507E500000000
(1486052393.695325) vcan0 3CA#FE8507E500000000
(1486052393.724942) vcan0 3CA#FE84580000000000
(1486052393.755569) vcan0 3CA#FE84580000000000
(1486052393.784944) vcan0 3CA#FE84580000000000
(1486052393.794947) vcan0 3D8#0000000080856030
(1486052393.795941) vcan0 3CD#0000000000000000
(1486052393.814946) vcan0 3CA#FE84580000000000
(1486052393.844856) vcan0 3CA#FE81C81200000000
(1486052393.874903) vcan0 3CA#FE81C81200000000
(1486052393.904941) vcan0 3CA#FE81C81200000000
(1486052393.935818) vcan0 3CA#FE7F981500000000
(1486052393.964856) vcan0 3CA#FE7F981500000000
(1486052393.994943) vcan0 3CA#FE7F981500000000
(1486052394.024939) vcan0 3CA#FE7F981500000000
(1486052394.055462) vcan0 3CA#FE80282000000000
(1486052394.084938) vcan0 3CA#FE80282000000000
(1486052394.114950) vcan0 3CA#FE80282000000000
(1486052394.145314) vcan0 3CA#FE80282000000000
(1486052394.175563) vcan0 3CA#FE7F480F00000000
(1486052394.204937) vcan0 3CA#FE7F480F00000000
(1486052394.235846) vcan0 3CA#FE7F480F00000000
(1486052394.264946) vcan0 3CA#FE7F480F00000000
(1486052394.294993) vcan0 3CA#FE7FD81100000000
(1486052394.324945) vcan0 3CA#FE7FD81100000000
(1486052394.355939) vcan0 3CA#FE7FD81100000000
(1486052394.384936) vcan0 3CA#FE7FD81100000000
(1486052394.414879) vcan0 3CA#FE7E67F700000000
(1486052394.444938) vcan0 3CA#FE7E67F700000000
(1486052394.474938) vcan0 3CA#FE7E67F700000000
(1486052394.504937) vcan0 3CA#FE7F87F500000000
(1486052394.535809) vcan0 3CA#FE7F87F500000000
(1486052394.564942) vcan0 3CA#FE7F87F500000000
(1486052394.595311) vcan0 3CA#FE7F87F500000000
(1486052394.624932) vcan0 3CA#FE7EC7D400000000
(1486052394.654935) vcan0 3CA#FE7EC7D400000000
(1486052394.685702) vcan0 3CA#FE7EC7D400000000
(1486052394.714946) vcan0 3CA#FE8007D200000000
(1486052394.745200) vcan0 3CA#FE8007D200000000
(1486052394.774936) vcan0 3CA#FE8007D200000000
(1486052394.794935) vcan0 3D8#0000000080856030
(1486052394.795992) vcan0 3CD#0000000000000000
(1486052394.805202) vcan0 3CA#FE8007D200000000
(1486052394.835933) vcan0 3CA#FE8137B200000000
(1486052394.865952) vcan0 3CA#FE8137B200000000
(1486052394.894936) vcan0 3CA#FE8137B200000000
(1486052394.924930) vcan0 3CA#FE8137B200000000
(1486052394.954933) vcan0 3CA#FE8237B800000000
(1486052394.984933) vcan0 3CA#FE8237B800000000
(1486052395.014849) vcan0 3CA#FE8237B800000000
(1486052395.045113) vcan0 3CA#FE8237B800000000
(1486052395.075043) vcan0 3CA#FE8EA79600000000
(1486052395.104997) vcan0 3CA#FE8EA79600000000
(1486052395.135859) vcan0 3CA#FE8EA79600000000
(1486052395.164961) vcan0 3CA#FE8EA79600000000
(1486052395.194965) vcan0 3CA#FE8A87AC00000000
(1486052395.224935) vcan0 3CA#FE8A87AC00000000
(1486052395.254839) vcan0 3CA#FE8A87AC00000000
(1486052395.285174) vcan0 3CA#FE8A87AC00000000
(1486052395.314929) vcan0 3CA#FE87D7CD00000000
(1486052395.345038) vcan0 3CA#FE87D7CD00000000
(1486052395.375033) vcan0 3CA#FE87D7CD00000000
(1486052395.405413) vcan0 3CA#FE87D7CD00000000
(1486052395.435886) vcan0 3CA#FE8897CF00000000
(1486052395.465890) vcan0 3CA#FE8897CF00000000
(1486052395.494982) vcan0 3CA#FE8897CF00000000
(1486052395.525037) vcan0 3CA#FE8897CF00000000
(1486052395.555528) vcan0 3CA#FE87A7E500000000
(1486052395.585007) vcan0 3CA#FE87A7E500000000
(1486052395.614981) vcan0 3CA#FE87A7E500000000
(1486052395.644959) vcan0 3CA#FE87A7E500000000
(1486052395.674961) vcan0 3CA#FE8717FF00000000
(1486052395.704957) vcan0 3CA#FE8717FF00000000
(1486052395.735892) vcan0 3CA#FE8717FF00000000
(1486052395.765954) vcan0 3CA#FE8717FF00000000
(1486052395.794938) vcan0 3D8#0000000080856030
(1486052395.795937) vcan0 3CA#FE8547F000000000
(1486052395.795986) vcan0 3CD#0000000000000000
(1486052395.825012) vcan0 3CA#FE8547F000000000
(1486052395.854866) vcan0 3CA#FE8547F000000000
(1486052395.884945) vcan0 3CA#FE8547F000000000
(1486052395.915716) vcan0 3CA#FE85C7F800000000
(1486052395.944948) vcan0 3CA#FE85C7FB00000000
(1486052395.975246) vcan0 3CA#FE85C7FB00000000
(1486052396.004962) vcan0 3CA#FE85C7FB00000000
(1486052396.035847) vcan0 3CA#FE85F7FD00000000
(1486052396.065935) vcan0 3CA#FE85F7FD00000000
(1486052396.095543) vcan0 3CA#FE85F7FD00000000
(1486052396.124927) vcan0 3CA#FE85F7FD00000000
(1486052396.154918) vcan0 3CA#FE84C7AE00000000
(1486052396.184918) vcan0 3CA#FE84C7AE00000000
(1486052396.215291) vcan0 3CA#FE84C7AE00000000
(1486052396.244929) vcan0 3CA#FE84B79F00000000
(1486052396.274928) vcan0 3CA#FE84B79F00000000
(1486052396.304915) vcan0 3CA#FE84B79F00000000
(1486052396.335793) vcan0 3CA#FE84B79F00000000
(1486052396.365917) vcan0 3CA#FE84B79700000000
(1486052396.395039) vcan0 3CA#FE84B79700000000
(1486052396.424922) vcan0 3CA#FE84B79700000000
(1486052396.455353) vcan0 3CA#FE84B79700000000
(1486052396.485048) vcan0 3CA#FE8297A300000000
(1486052396.514915) vcan0 3CA#FE8297A300000000
(1486052396.544914) vcan0 3CA#FE8297A300000000
(1486052396.574914) vcan0 3CA#FE82579D00000000
(1486052396.604917) vcan0 3CA#FE82579D00000000
(1486052396.635790) vcan0 3CA#FE82579D00000000
(1486052396.665789) vcan0 3CA#FE82579D00000000
(1486052396.694915) vcan0 3CA#FE2898A400000000
(1486052396.724911) vcan0 3CA#FE2898A400000000
(1486052396.754913) vcan0 3CA#FE2898A400000000
(1486052396.785412) vcan0 3CA#FE2898A400000000
(1486052396.794914) vcan0 3D8#0000000080856030
(1486052396.795917) vcan0 3CD#0000000000000000
(1486052396.814914) vcan0 3CA#FE3ED89000000000
(1486052396.844911) vcan0 3CA#FE3ED88F00000000
(1486052396.874915) vcan0 3CA#FE3ED88F00000000
(1486052396.905286) vcan0 3CA#FE3ED88F00000000
(1486052396.935662) vcan0 3CA#FE52083500000000
(1486052396.965305) vcan0 3CA#FE52083500000000
(1486052396.995036) vcan0 3CA#FE52083500000000
(1486052397.024908) vcan0 3CA#FE51F83500000000
(1486052397.055582) vcan0 3CA#FE5A481100000000
(1486052397.085046) vcan0 3CA#FE5A481100000000
(1486052397.114909) vcan0 3CA#FE5A481100000000
(1486052397.145929) vcan0 3CA#FE61D7E900000000
(1486052397.175532) vcan0 3CA#FE61C7E900000000
(1486052397.205177) vcan0 3CA#FE61C7E900000000
(1486052397.235783) vcan0 3CA#FE61C7E900000000
(1486052397.265782) vcan0 3CA#FE64C7DE00000000
(1486052397.294920) vcan0 3CA#FE64C7DE00000000
(1486052397.324904) vcan0 3CA#FE64C7DE00000000
(1486052397.355779) vcan0 3CA#FE69C7CD00000000
(1486052397.385030) vcan0 3CA#FE69B7CD00000000
(1486052397.414906) vcan0 3CA#FE69B7CD00000000
(1486052397.444910) vcan0 3CA#FE69B7CD00000000
(1486052397.474908) vcan0 3CA#FE6BB7C300000000
(1486052397.504901) vcan0 3CA#FE6BA7C300000000
(1486052397.535777) vcan0 3CA#FE6BA7C300000000
(1486052397.565549) vcan0 3CA#FE6BA7C300000000
(1486052397.594914) vcan0 3CA#FE75D7C100000000
(1486052397.624901) vcan0 3CA#FE75C7C100000000
(1486052397.654849) vcan0 3CA#FE75C7C100000000
(1486052397.685028) vcan0 3CA#FE75C7C100000000
(1486052397.714905) vcan0 3CA#FE7A47C600000000
(1486052397.744907) vcan0 3CA#FE7A47C500000000
(1486052397.774902) vcan0 3CA#FE7A37C500000000
(1486052397.795149) vcan0 3D8#0000000080856030
(1486052397.796139) vcan0 3CD#0000000000000000
(1486052397.805017) vcan0 3CA#FE8047EB00000000
(1486052397.835789) vcan0 3CA#FE8047EB00000000
(1486052397.865792) vcan0 3CA#FE8047EB00000000
(1486052397.894874) vcan0 3CA#FE83380900000000
(1486052397.924897) vcan0 3CA#FE83380900000000
(1486052397.954896) vcan0 3CA#FE83380900000000
(1486052397.985398) vcan0 3CA#FE83380900000000
(1486052398.014901) vcan0 3CA#FE85782A00000000
(1486052398.044928) vcan0 3CA#FE85782A00000000
(1486052398.075020) vcan0 3CA#FE85782A00000000
(1486052398.104898) vcan0 3CA#FE85782A00000000
(1486052398.135771) vcan0 3CA#FE87D87C00000000
(1486052398.167769) vcan0 3CA#FE87D87C00000000
(1486052398.195023) vcan0 3CA#FE87D87C00000000
(1486052398.224895) vcan0 3CA#FE8918AA00000000
(1486052398.255021) vcan0 3CA#FE8918AA00000000
(1486052398.285018) vcan0 3CA#FE8918AA00000000
(1486052398.315022) vcan0 3CA#FE8918AA00000000
(1486052398.345020) vcan0 3CA#FE8488CF00000000
(1486052398.375674) vcan0 3CA#FE8488CF00000000
(1486052398.405019) vcan0 3CA#FE8488CF00000000
(1486052398.435299) vcan0 3CA#FE8418DA00000000
(1486052398.468019) vcan0 3CA#FE8418DA00000000
(1486052398.495036) vcan0 3CA#FE8418DA00000000
(1486052398.524893) vcan0 3CA#FE8418DA00000000
(1486052398.555773) vcan0 3CA#FE8288F300000000
(1486052398.585018) vcan0 3CA#FE8288F300000000
(1486052398.614892) vcan0 3CA#FE8288F300000000
(1486052398.645017) vcan0 3CA#FE8288F300000000
(1486052398.674993) vcan0 3CA#FE80D90D00000000
(1486052398.695020) vcan0 3D8#0000000080456030
(1486052398.705016) vcan0 3CA#FE80D90D00000000
(1486052398.735617) vcan0 3CA#FE80D90D00000000
(1486052398.768140) vcan0 3CA#FE80D90E00000000
(1486052398.795019) vcan0 3D8#0000000080456030
(1486052398.796017) vcan0 3CA#FE7BE91E00000000
(1486052398.796073) vcan0 3CD#0000000000000000
(1486052398.825082) vcan0 3CA#FE7BE91E00000000
(1486052398.854937) vcan0 3CA#FE7BE91E00000000
(1486052398.885014) vcan0 3CA#FE7BE91E00000000
(1486052398.915014) vcan0 3CA#FE7A992D00000000
(1486052398.945014) vcan0 3CA#FE7A992D00000000
(1486052398.975013) vcan0 3CA#FE7A992D00000000
(1486052399.005011) vcan0 3CA#FE7A992D00000000
(1486052399.035762) vcan0 3CA#FE78494900000000
(1486052399.064887) vcan0 3CA#FE78494900000000
(1486052399.096376) vcan0 3CA#FE78494900000000
(1486052399.125122) vcan0 3CA#FE74F90B00000000
(1486052399.155131) vcan0 3CA#FE74F90B00000000
(1486052399.185120) vcan0 3CA#FE74F90B00000000
(1486052399.215125) vcan0 3CA#FE71F91C00000000
(1486052399.245125) vcan0 3CA#FE71F91C00000000
(1486052399.275068) vcan0 3CA#FE71F91C00000000
(1486052399.305128) vcan0 3CA#FE71F91C00000000
(1486052399.335864) vcan0 3CA#FE70892600000000
(1486052399.365074) vcan0 3CA#FE70892600000000
(1486052399.395076) vcan0 3CA#FE70892600000000
(1486052399.425030) vcan0 3CA#FE70892600000000
(1486052399.455459) vcan0 3CA#FE6DA93D00000000
(1486052399.485121) vcan0 3CA#FE6DA93D00000000
(1486052399.515124) vcan0 3CA#FE6DA93D00000000
(1486052399.545116) vcan0 3CA#FE6DA93D00000000
(1486052399.575116) vcan0 3CA#FE6C394900000000
(1486052399.605940) vcan0 3CA#FE6C394900000000
(1486052399.635823) vcan0 3CA#FE6C394900000000
(1486052399.665412) vcan0 3CA#FE69696700000000
(1486052399.695090) vcan0 3CA#FE69696700000000
(1486052399.725908) vcan0 3CA#FE69696700000000
