(1486048821.039854) vcan0 083#4020000008000000
(1486048821.040742) vcan0 33B#0000000000000000
(1486048821.043708) vcan0 04A#0200000000000000
(1486048821.044746) vcan0 04B#00C0D8D8D8D8C000
(1486048821.044863) vcan0 047#2000000000000000
(1486048821.044924) vcan0 04C#105FFFC000000000
(1486048821.044977) vcan0 091#7F3B7E472B4FF000
(1486048821.045742) vcan0 092#6F866F66736A204F
(1486048821.047025) vcan0 165#20C0000000000000
(1486048821.047174) vcan0 085#7B38800084607C46
(1486048821.047286) vcan0 167#72800B10001A0300
(1486048821.047390) vcan0 200#0000800C800C0000
(1486048821.047498) vcan0 202#04204800600004CF
(1486048821.047601) vcan0 078#0569800000000000
(1486048821.047704) vcan0 204#C0007D016C000000
(1486048821.047808) vcan0 186#13CA015F00130400
(1486048821.047913) vcan0 187#E01408C800300300
(1486048821.048009) vcan0 217#042004080420040C
(1486048821.048101) vcan0 230#300600008F000000
(1486048821.048603) vcan0 242#05B3200BCE000001
(1486048821.048709) vcan0 3C3#62C1000000000000
(1486048821.048808) vcan0 3CC#1000000000000000
(1486048821.048904) vcan0 422#000000923802FE02
(1486048821.049588) vcan0 423#9C20000000000000
(1486048821.049709) vcan0 430#37000CE7C8867700
(1486048821.050604) vcan0 3A8#010025F500000000
(1486048821.053533) vcan0 42C#8C20000008C00000
(1486048821.054499) vcan0 091#7F1D7E4C4350F000
(1486048821.054653) vcan0 092#6F7D6F6773771A50
(1486048821.054787) vcan0 167#72800B10001A0300
(1486048821.054910) vcan0 076#3D6CC0800FFF0000
(1486048821.055514) vcan0 077#04DD07C77FF7F1EC
(1486048821.055664) vcan0 07D#0045B9102A1F3818
(1486048821.056847) vcan0 202#04205000600004CE
(1486048821.056977) vcan0 082#6D08140489804000
(1486048821.057086) vcan0 085#7B3B80007F707C47
(1486048821.057157) vcan0 204#C0007D016A000000
(1486048821.057206) vcan0 213#FFFF00040001FA40
(1486048821.057256) vcan0 214#000000000000FE10
(1486048821.057453) vcan0 216#CFF7F4E000000000
(1486048821.057561) vcan0 217#04140410041C0410
(1486048821.057662) vcan0 415#04C3D43007BE07BE
(1486048821.057721) vcan0 41D#8000000000000000
(1486048821.057768) vcan0 4B0#01008000100228B9
(1486048821.059706) vcan0 2A1#FFFFFFFF00000000
(1486048821.063570) vcan0 091#7EF47E4D6B51F000
(1486048821.064583) vcan0 092#6F776F6B737F1351
(1486048821.064648) vcan0 047#2000000000000000
(1486048821.064694) vcan0 165#20C0000000000000
(1486048821.064735) vcan0 167#72800B10001A0300
(1486048821.065515) vcan0 217#0414041804180410
(1486048821.065561) vcan0 200#0000800C800C0000
(1486048821.065602) vcan0 085#7B3C80007F807C45
(1486048821.065645) vcan0 202#04215800600004CC
(1486048821.066554) vcan0 078#0168800000000000
(1486048821.066619) vcan0 204#C0007D016A000000
(1486048821.066664) vcan0 186#13CF016000130400
(1486048821.066708) vcan0 187#E01408C800300300
(1486048821.067574) vcan0 230#300600008F000000
(1486048821.067638) vcan0 42F#7D04002E66110171
(1486048821.067687) vcan0 3CA#FE80080000000000
(1486048821.069690) vcan0 083#4020000008000000
(1486048821.070837) vcan0 3A8#010025FC00000000
(1486048821.073362) vcan0 3C3#7EC1000000000000
(1486048821.074344) vcan0 091#7ECE7E4A9352F000
(1486048821.074384) vcan0 092#6F7E6F72737D0652
(1486048821.074419) vcan0 167#72800B10001A0400
(1486048821.074453) vcan0 076#3D71C0800FFF0000
(1486048821.075426) vcan0 077#04DC07CB7FF7E5EA
(1486048821.075476) vcan0 07D#0041BC20289FA7FF
(1486048821.075514) vcan0 202#04216000600004CB
(1486048821.075549) vcan0 082#6708140089804000
(1486048821.076400) vcan0 085#7B3D80007C907C46
(1486048821.076451) vcan0 204#C0007D016A000000
(1486048821.076487) vcan0 213#FFFF00040001FA40
(1486048821.076520) vcan0 214#000000000000FD20
(1486048821.077418) vcan0 216#D3FBF8E400000000
(1486048821.077470) vcan0 217#041404180414040C
(1486048821.077507) vcan0 261#0000000000000000
(1486048821.077539) vcan0 3CC#1000000000000000
(1486048821.078420) vcan0 415#04C6D82C07BF07BF
(1486048821.078471) vcan0 41D#8000000000000000
(1486048821.078507) vcan0 4B0#01008000200208BC
(1486048821.083147) vcan0 091#7EB77E49AA53F000
(1486048821.084132) vcan0 092#6F936F7C7376ED53
(1486048821.084182) vcan0 047#2000000000000000
(1486048821.084220) vcan0 165#20C0000000000000
(1486048821.085170) vcan0 167#72800C10001A0400
(1486048821.085222) vcan0 217#0414041804180410
(1486048821.085260) vcan0 200#0000800D800D0000
(1486048821.085295) vcan0 202#04216800600004CA
(1486048821.086176) vcan0 085#7B3E80007AA07C46
(1486048821.086226) vcan0 078#0068000000000000
(1486048821.086264) vcan0 204#C0007D016A000000
(1486048821.086296) vcan0 230#300600008F000000
(1486048821.087148) vcan0 186#13CE016000130400
(1486048821.087201) vcan0 187#DF1408C800400300
(1486048821.087238) vcan0 242#05B3200BCE000001
(1486048821.090918) vcan0 3A8#0100260200000000
(1486048821.093358) vcan0 091#7EB97E49A754F000
(1486048821.094465) vcan0 092#6FAC6F89736FCD54
(1486048821.094504) vcan0 167#72800C10001A0400
(1486048821.094537) vcan0 076#3D75C0800FFF0000
(1486048821.094571) vcan0 077#04DC07CA7FF7FDF0
(1486048821.095455) vcan0 07D#003BC130269FA7ED
(1486048821.095487) vcan0 202#04217000600004C9
(1486048821.095520) vcan0 082#6B08140089804000
(1486048821.095552) vcan0 085#7B3E800079B07C46
(1486048821.096525) vcan0 204#C0007D0169000000
(1486048821.096577) vcan0 213#FFFF00040001FB40
(1486048821.096615) vcan0 214#000000000000FC30
(1486048821.096650) vcan0 216#D8FEFCE800000000
(1486048821.097479) vcan0 217#04180414041C0410
(1486048821.097515) vcan0 415#04C8DC2907C107C1
(1486048821.097551) vcan0 3CA#FE80080000000000
(1486048821.097583) vcan0 41D#8000000000000000
(1486048821.098527) vcan0 05D#83588F5F3A000000
(1486048821.098595) vcan0 42F#7D04002E66110171
(1486048821.098642) vcan0 4B0#010080003001D8C1
(1486048821.099590) vcan0 33B#0000000000000000
(1486048821.102435) vcan0 265#2001010410000000
(1486048821.103399) vcan0 453#3257364570646166
(1486048821.104389) vcan0 091#7ED67E498955F000
(1486048821.104434) vcan0 092#6FBB6F917368BC55
(1486048821.104468) vcan0 047#2000000000000000
(1486048821.104497) vcan0 05C#80F000EC201E0000
(1486048821.104527) vcan0 165#20C0000000000000
(1486048821.105529) vcan0 167#72800C10001A0400
(1486048821.105597) vcan0 200#0000800E800E0000
(1486048821.105647) vcan0 085#7B3F800077C07C46
(1486048821.105691) vcan0 078#0168800000000000
(1486048821.106569) vcan0 202#04207800600004C9
(1486048821.106654) vcan0 186#13D1016000140400
(1486048821.106711) vcan0 187#DF1408C800400300
(1486048821.106756) vcan0 18A#0020180111000000
(1486048821.107533) vcan0 204#C0007D0169000000
(1486048821.107590) vcan0 217#041C041004200410
(1486048821.107650) vcan0 230#300600008F000000
(1486048821.107690) vcan0 3CC#1000000000000000
(1486048821.108495) vcan0 42C#8C20000008C00000
(1486048821.110163) vcan0 3A8#0100260500000000
(1486048821.113515) vcan0 091#7F087E4A5456F000
(1486048821.114537) vcan0 092#6FBD6F927363BD56
(1486048821.114599) vcan0 167#72800D10001A0400
(1486048821.114646) vcan0 076#3D77C0800FFF0000
(1486048821.114689) vcan0 077#04DB07CA7FF815F4
(1486048821.115480) vcan0 07D#0038C340251F87F7
(1486048821.115525) vcan0 202#04300000600004C8
(1486048821.115564) vcan0 082#6C08140489804000
(1486048821.115603) vcan0 085#7B40800075D07C46
(1486048821.116585) vcan0 204#C0007D0169000000
(1486048821.116627) vcan0 213#FFFF00040001FB40
(1486048821.116665) vcan0 214#000000000000FB40
(1486048821.116705) vcan0 216#DC0200EC00000000
(1486048821.117585) vcan0 217#041C04100420040C
(1486048821.117629) vcan0 415#04C6E02A07C307C3
(1486048821.117668) vcan0 416#5800F60001000000
(1486048821.117708) vcan0 41D#8000000000000000
(1486048821.118600) vcan0 4B0#010080004001C0C3
(1486048821.119594) vcan0 455#A000000000000000
(1486048821.123472) vcan0 091#7F467E491657F000
(1486048821.124533) vcan0 092#6FB96F907361C457
(1486048821.124594) vcan0 047#2000000000000000
(1486048821.124640) vcan0 05A#00000045E8C10000
(1486048821.124684) vcan0 217#0420040C0420040C
(1486048821.125477) vcan0 165#20C0000000000000
(1486048821.125521) vcan0 085#7B41800073E07C46
(1486048821.125561) vcan0 078#0068000000000000
(1486048821.126477) vcan0 167#72800D10001A0400
(1486048821.126519) vcan0 186#13D1016000140400
(1486048821.126556) vcan0 187#DF1408C800400300
(1486048821.126594) vcan0 178#000001FE0E73CA73
(1486048821.127473) vcan0 3CA#FE80080000000000
(1486048821.127514) vcan0 200#0000800F800F0000
(1486048821.127554) vcan0 202#042F0800600004C8
(1486048821.127607) vcan0 204#C0007D0169000000
(1486048821.128460) vcan0 230#300600008F000000
(1486048821.128502) vcan0 242#05B3200BCE000001
(1486048821.128538) vcan0 261#0000000000000000
(1486048821.129582) vcan0 42F#7D04002E66120171
(1486048821.130595) vcan0 3A8#0100260800000000
(1486048821.133497) vcan0 091#7F827E49D958F000
(1486048821.134642) vcan0 092#6FAC6F8D7360D458
(1486048821.134715) vcan0 167#72800D10001A0400
(1486048821.134762) vcan0 076#3D78C0800FFF0000
(1486048821.134806) vcan0 077#04DC07CA7FF829F7
(1486048821.135540) vcan0 07D#0037C350239F5818
(1486048821.135601) vcan0 202#042F1000600004C7
(1486048821.135647) vcan0 082#6608140489804000
(1486048821.135691) vcan0 085#7B42800071F07C46
(1486048821.136479) vcan0 204#C0007D016C000000
(1486048821.136524) vcan0 213#FFFF00040001FC40
(1486048821.136564) vcan0 214#000000000000FA50
(1486048821.136602) vcan0 216#DF0605F100000000
(1486048821.137463) vcan0 217#0420040804200408
(1486048821.137507) vcan0 3CC#1000000000000000
(1486048821.137545) vcan0 415#04C7E42807C407C4
(1486048821.137584) vcan0 41D#8000000000000000
(1486048821.138459) vcan0 4B0#010080005001B8C3
(1486048821.143098) vcan0 04A#0200000000000000
(1486048821.144099) vcan0 04B#00C0D8D8D8D8C000
(1486048821.144142) vcan0 04C#105FFFC000000000
(1486048821.144182) vcan0 047#2000000000000000
(1486048821.144222) vcan0 091#7FAE7E48AD59F000
(1486048821.145100) vcan0 092#6F9E6F867362E659
(1486048821.145143) vcan0 217#0424040404200408
(1486048821.145182) vcan0 165#20C0000000000000
(1486048821.145219) vcan0 085#7B4380007F007C46
(1486048821.146226) vcan0 167#72800D10001A0500
(1486048821.146270) vcan0 200#0000800F800F0000
(1486048821.146306) vcan0 078#0569800000000000
(1486048821.146345) vcan0 186#13D3016000140400
(1486048821.147209) vcan0 187#DF1408C800400300
(1486048821.147249) vcan0 202#042E1800600004C7
(1486048821.147288) vcan0 204#C0007D016C000000
(1486048821.147324) vcan0 422#000000923802FE02
(1486048821.147360) vcan0 230#300600008F000000
(1486048821.148206) vcan0 423#9C20000000000000
(1486048821.148246) vcan0 430#37000CE7C8867700
(1486048821.150832) vcan0 3A8#0100260800000000
(1486048821.153382) vcan0 42C#8C20000008C00000
(1486048821.154392) vcan0 091#7FC67E49935AF000
(1486048821.154465) vcan0 092#6F916F7E7368F45A
(1486048821.154514) vcan0 167#72800D10001A0500
(1486048821.154557) vcan0 076#3D7AC0800FFF0000
(1486048821.155395) vcan0 077#04DD07CA7FF815F5
(1486048821.155466) vcan0 07D#0037C260221F482B
(1486048821.155515) vcan0 202#042D2000600004C7
(1486048821.155559) vcan0 082#6908140089804000
(1486048821.156358) vcan0 085#7B4280007F107C46
(1486048821.156404) vcan0 204#C0007D016C000000
(1486048821.156445) vcan0 213#FFFF00040001FD40
(1486048821.156485) vcan0 214#000000000000F960
(1486048821.157350) vcan0 216#E30B09F500000000
(1486048821.157393) vcan0 217#0424040404200408
(1486048821.157430) vcan0 3CA#FE80080000000000
(1486048821.157468) vcan0 415#04C5E82907C507C5
(1486048821.158334) vcan0 41D#8000000000000000
(1486048821.158374) vcan0 42F#7D04002E66120171
(1486048821.158411) vcan0 4B0#010080006001B8C2
(1486048821.159581) vcan0 083#4020000008000000
(1486048821.160594) vcan0 2A1#FFFFFFFF00000000
(1486048821.160635) vcan0 33B#0000000000000000
(1486048821.163350) vcan0 091#7FC47E49945BF000
(1486048821.164540) vcan0 092#6F806F797370015B
(1486048821.164601) vcan0 047#2000000000000000
(1486048821.164646) vcan0 165#20C0000000000000
(1486048821.164688) vcan0 167#72800E10001A0500
(1486048821.165478) vcan0 200#0000800E800E0000
(1486048821.165524) vcan0 202#042C2800600004C7
(1486048821.165564) vcan0 085#7B4280007E207C46
(1486048821.165603) vcan0 078#0168800000000000
(1486048821.166464) vcan0 186#13D4016000140400
(1486048821.166507) vcan0 187#DF1408C800400300
(1486048821.166544) vcan0 204#C0007D016C000000
(1486048821.166581) vcan0 217#0420040404200408
(1486048821.167471) vcan0 230#300600008F000000
(1486048821.167512) vcan0 242#05B3200BCE000001
(1486048821.167548) vcan0 3CC#1000000000000000
(1486048821.169846) vcan0 3A8#0100260B00000000
(1486048821.173347) vcan0 091#7FA97E48AF5CF000
(1486048821.174646) vcan0 092#6F726F7B7378045C
(1486048821.174725) vcan0 167#72800D10001A0500
(1486048821.174777) vcan0 076#3D7CC0800FFF0000
(1486048821.174823) vcan0 077#04DE07CA7FF7FDF1
(1486048821.175540) vcan0 07D#0037C170219F6840
(1486048821.175586) vcan0 202#042C3000600004C6
(1486048821.175623) vcan0 082#6908140089804000
(1486048821.175652) vcan0 085#7B4380007C307C46
(1486048821.176536) vcan0 204#C0007D016F000000
(1486048821.176580) vcan0 213#FFFF00040001FD40
(1486048821.176611) vcan0 214#000000000000F870
(1486048821.176642) vcan0 216#E70F0DF900000000
(1486048821.177537) vcan0 217#042004080424040C
(1486048821.177580) vcan0 261#0000000000000000
(1486048821.177613) vcan0 415#04C5EC2807C607C6
(1486048821.177644) vcan0 41D#8000000000000000
(1486048821.178515) vcan0 4B0#010080007001B8C1
(1486048821.178558) vcan0 456#8000000000000000
(1486048821.183539) vcan0 091#7F767E44E55DF000
(1486048821.184641) vcan0 092#6F686F827378065D
(1486048821.184692) vcan0 047#2000000000000000
(1486048821.184724) vcan0 165#20C0000000000000
(1486048821.184754) vcan0 167#72800D10001A0500
(1486048821.185539) vcan0 217#041C040C04240410
(1486048821.185583) vcan0 200#0000800E800E0000
(1486048821.185615) vcan0 085#7B4380007B407C46
(1486048821.185646) vcan0 078#0168800000000000
(1486048821.186521) vcan0 186#13D5016100140400
(1486048821.186565) vcan0 187#DE1408C800500300
(1486048821.186599) vcan0 202#042B3800600004C6
(1486048821.186631) vcan0 204#C0007D016F000000
(1486048821.187536) vcan0 230#300600008F000000
(1486048821.187577) vcan0 3CA#FE80080000000000
(1486048821.187609) vcan0 42F#7D04002E66120170
(1486048821.191013) vcan0 3A8#0100260D00000000
(1486048821.193632) vcan0 091#7F317E3F2E5EF000
(1486048821.194640) vcan0 092#6F636F8B736D0C5E
(1486048821.194690) vcan0 167#72800D10001A0500
(1486048821.194721) vcan0 076#3D7BC0800FFF0000
(1486048821.194753) vcan0 077#04DD07C87FF7D9F0
(1486048821.195639) vcan0 07D#0037C080209FB827
(1486048821.195689) vcan0 202#042A4000600004C6
(1486048821.195722) vcan0 082#6708140089804000
(1486048821.195753) vcan0 085#7B4380007B507C45
(1486048821.196537) vcan0 204#C0007D016F000000
(1486048821.196579) vcan0 213#FFFF00040001FD40
(1486048821.196610) vcan0 214#000000000000F780
(1486048821.196642) vcan0 216#EC1312FE00000000
(1486048821.197534) vcan0 217#041C041004240410
(1486048821.197578) vcan0 3CC#1000000000000000
(1486048821.197609) vcan0 415#04C6F02607C707C7
(1486048821.197641) vcan0 41D#8000000000000000
(1486048821.198515) vcan0 05D#8358B7602F000000
(1486048821.198560) vcan0 4B0#010080008001B8C0
(1486048821.203154) vcan0 091#7EEB7E3E755FF000
(1486048821.204266) vcan0 092#6F6B6F9A735E035F
(1486048821.204319) vcan0 047#2000000000000000
(1486048821.204350) vcan0 05C#809000F2201E0000
(1486048821.205171) vcan0 217#0420041404240410
(1486048821.205215) vcan0 165#20C0000000000000
(1486048821.205248) vcan0 167#72800E10001A0500
(1486048821.205279) vcan0 186#13D9016100150400
(1486048821.206164) vcan0 085#7B43800079607C46
(1486048821.206209) vcan0 187#DE1408C800500300
(1486048821.206242) vcan0 18A#0020180111000000
(1486048821.206270) vcan0 200#0000800D800D0000
(1486048821.206300) vcan0 202#04294800600004C6
(1486048821.207141) vcan0 078#0068000000000000
(1486048821.207186) vcan0 204#C0007D016F000000
(1486048821.207218) vcan0 230#300600008F000000
(1486048821.207248) vcan0 242#05B3200BCE000001
(1486048821.208265) vcan0 3A7#0E423A045F700000
(1486048821.208310) vcan0 3EB#C604140000200000
(1486048821.208343) vcan0 40A#C1014B3931485232
(1486048821.209249) vcan0 42C#8C20000008C00000
(1486048821.210279) vcan0 3A8#0100260B00000000
(1486048821.213163) vcan0 091#7EAB7E3FB360F000
(1486048821.214282) vcan0 092#6F7E6FA6734FF260
(1486048821.214334) vcan0 167#72800E10001A0500
(1486048821.214365) vcan0 076#3D7CC0800FFF0000
(1486048821.215172) vcan0 077#04DD07C67FF7D1F9
(1486048821.215216) vcan0 07D#0037BF90201F37FD
(1486048821.215250) vcan0 202#04285000600004C6
(1486048821.215282) vcan0 082#6808140089804000
(1486048821.216161) vcan0 085#7B43800078707C46
(1486048821.216205) vcan0 204#C0007D016F000000
(1486048821.216237) vcan0 213#FFFF00040001FE40
(1486048821.216268) vcan0 214#000000000000F690
(1486048821.217161) vcan0 216#F018140200000000
(1486048821.217206) vcan0 217#0420041404200410
(1486048821.217239) vcan0 3A6#0E401A045F700000
(1486048821.217269) vcan0 3CA#FE80080000000000
(1486048821.218270) vcan0 3E2#0000000080000000
(1486048821.218312) vcan0 415#04CCF41F07C807C8
(1486048821.218348) vcan0 416#5900F50001000000
(1486048821.218379) vcan0 41D#8000000000000000
(1486048821.219285) vcan0 42F#7D04002E66120170
(1486048821.219327) vcan0 4B0#010080009001B8BF
(1486048821.220280) vcan0 455#A000000000000000
(1486048821.220322) vcan0 33B#0000000000000000
(1486048821.223533) vcan0 091#7E797E40E361F000
(1486048821.224640) vcan0 092#6F946FA67348E261
(1486048821.224692) vcan0 047#2000000000000000
(1486048821.224723) vcan0 05A#00000045EE610000
(1486048821.224756) vcan0 165#20C0000000000000
(1486048821.225537) vcan0 168#0000000000000000
(1486048821.225578) vcan0 167#72800D10001A0500
(1486048821.225615) vcan0 085#7B43800077807C46
(1486048821.225647) vcan0 078#0168800000000000
(1486048821.226540) vcan0 178#000002010E73CA73
(1486048821.226584) vcan0 186#13D9016100150400
(1486048821.226616) vcan0 187#DE1408C800500300
(1486048821.226645) vcan0 200#0000800D800D0000
(1486048821.227662) vcan0 202#04275800600004C6
(1486048821.227706) vcan0 217#04200410041C0408
(1486048821.227738) vcan0 204#C0007D016F000000
(1486048821.227768) vcan0 230#300600008F000000
(1486048821.228635) vcan0 261#0000000000000000
(1486048821.228677) vcan0 3CC#1000000000000000
(1486048821.230786) vcan0 3A8#0100260D00000000
(1486048821.233635) vcan0 091#7E567E410462F000
(1486048821.234641) vcan0 092#6FA76F987351D362
(1486048821.234692) vcan0 167#72800E10001A0500
(1486048821.234726) vcan0 076#3D7CC0800FFF0000
(1486048821.234756) vcan0 077#04DE07C67FF7E5FC
(1486048821.235664) vcan0 07D#0037BEA01F9EF7D9
(1486048821.235708) vcan0 202#04256000600004C7
(1486048821.235743) vcan0 082#6C08140089804000
(1486048821.235773) vcan0 085#7B43800077907C45
(1486048821.236661) vcan0 204#C0007D016F000000
(1486048821.236703) vcan0 213#FFFF00040001FE40
(1486048821.236734) vcan0 214#000000000000F5A0
(1486048821.236765) vcan0 216#F41C190600000000
(1486048821.237661) vcan0 217#0420041004100408
(1486048821.237706) vcan0 415#04C9F82107C807C8
(1486048821.237740) vcan0 41D#8000000000000000
(1486048821.237770) vcan0 4B0#01008000A001B8BE
(1486048821.243134) vcan0 04A#0200000000000000
(1486048821.244158) vcan0 04B#00C0D8D8D8D8C000
(1486048821.244200) vcan0 04C#105FFFC000000000
(1486048821.244232) vcan0 047#2000000000000000
(1486048821.244261) vcan0 091#7E427E421663F000
(1486048821.245264) vcan0 092#6FB26F80736EC263
(1486048821.245314) vcan0 217#04200410040C0404
(1486048821.245349) vcan0 165#20C0000000000000
(1486048821.245379) vcan0 085#7B44800074A07C46
(1486048821.246173) vcan0 167#72800E10001A0500
(1486048821.246215) vcan0 186#13DF016100150400
(1486048821.246249) vcan0 078#0469000000000000
(1486048821.246281) vcan0 187#DE1408C800500300
(1486048821.247285) vcan0 200#0000800D800D0000
(1486048821.247327) vcan0 422#000000923802FE02
(1486048821.247359) vcan0 202#04246800600004C7
(1486048821.247391) vcan0 204#C0007D016F000000
(1486048821.248263) vcan0 423#9C20000000000000
(1486048821.248305) vcan0 230#300600008F000000
(1486048821.248337) vcan0 242#05B3200BCE000001
(1486048821.248366) vcan0 3CA#FE80080000000000
(1486048821.249261) vcan0 42F#7D04002E66120170
(1486048821.249304) vcan0 430#37000CE7C8867700
(1486048821.250287) vcan0 3A8#0100260D00000000
(1486048821.253536) vcan0 091#7E357E422264F000
(1486048821.254639) vcan0 092#6FB36F677393B464
(1486048821.254690) vcan0 167#72800E10001A0400
(1486048821.254723) vcan0 076#3D7CC0800FFF0000
(1486048821.254753) vcan0 077#04E007C77FF811F8
(1486048821.255538) vcan0 07D#0037BDB01F1EF7CF
(1486048821.255583) vcan0 202#04227000600004C8
(1486048821.255619) vcan0 082#6E08140089804000
(1486048821.255649) vcan0 085#7B44800074B07C45
(1486048821.256534) vcan0 204#C0007D016F000000
(1486048821.256577) vcan0 213#FFFF00040001FF40
(1486048821.256610) vcan0 214#000000000000F4B0
(1486048821.256642) vcan0 216#F8201D0A00000000
(1486048821.257536) vcan0 217#0420040C04100404
(1486048821.257579) vcan0 3CC#1000000000000000
(1486048821.257609) vcan0 415#04C9FC2007C907C9
(1486048821.257640) vcan0 41D#8000000000000000
(1486048821.258535) vcan0 42C#8C20000008C00000
(1486048821.258578) vcan0 4B0#01008000B001B8BD
(1486048821.259752) vcan0 083#4020000008000000
(1486048821.260660) vcan0 2A1#FFFFFFFF00000000
(1486048821.263522) vcan0 091#7E2A7E422C65F000
(1486048821.264537) vcan0 092#6FB26F5673AEAA65
(1486048821.264582) vcan0 047#2000000000000000
(1486048821.264614) vcan0 165#20C0000000000000
(1486048821.264643) vcan0 167#72800D10001A0400
(1486048821.265534) vcan0 186#13E5016100150400
(1486048821.265577) vcan0 187#DE1408C800500300
(1486048821.265609) vcan0 085#7B45800071C07C46
(1486048821.265640) vcan0 200#0000800D800D0000
(1486048821.266520) vcan0 202#04217800600004C8
(1486048821.266565) vcan0 078#0168800000000000
(1486048821.266600) vcan0 204#C0007D0170000000
(1486048821.266631) vcan0 217#041C040C04140404
(1486048821.267509) vcan0 230#300600008F000000
(1486048821.270530) vcan0 3A8#0100260D00000000
(1486048821.273548) vcan0 091#7E1E7E403966F000
(1486048821.274506) vcan0 092#6FAE6F5473B8A566
(1486048821.274554) vcan0 167#72800D10001A0400
(1486048821.274591) vcan0 076#3D7DC0800FFF0000
(1486048821.274630) vcan0 077#04DF07C77FF81DEA
(1486048821.275535) vcan0 07D#0037BCC01F2037C1
(1486048821.275587) vcan0 202#04300000600004C8
(1486048821.275628) vcan0 082#6D08140089804000
(1486048821.275665) vcan0 085#7B45800071D07C45
(1486048821.276552) vcan0 204#C0007D0170000000
(1486048821.276602) vcan0 213#FFFF00040001FE40
(1486048821.276644) vcan0 214#000000000000F3C0
(1486048821.276682) vcan0 216#FD25210F00000000
(1486048821.277554) vcan0 217#041C0414041C0408
(1486048821.277605) vcan0 261#0000000000000000
(1486048821.277642) vcan0 3CA#FE80080000000000
(1486048821.277677) vcan0 415#04C5C03307C907C9
(1486048821.278552) vcan0 41D#8000000000000000
(1486048821.278602) vcan0 42F#7D04002E66120170
(1486048821.278639) vcan0 4B0#01008000C001B8BC
(1486048821.279650) vcan0 33B#0000000000000000
(1486048821.283658) vcan0 091#7E117E3E4767F000
(1486048821.284549) vcan0 092#6FAC6F6273B49C67
(1486048821.284638) vcan0 047#2000000000000000
(1486048821.284696) vcan0 165#20C0000000000000
(1486048821.284746) vcan0 167#72800D10001A0400
(1486048821.285565) vcan0 186#13EA016100150400
(1486048821.285620) vcan0 187#DD1408C800600300
(1486048821.285662) vcan0 085#7B4580006FE07C46
(1486048821.285699) vcan0 200#0000800D800D0000
(1486048821.286562) vcan0 202#04300800600004C7
(1486048821.286616) vcan0 078#0168800000000000
(1486048821.286653) vcan0 204#C0007D0170000000
(1486048821.286687) vcan0 217#041804180420040C
(1486048821.287542) vcan0 230#300600008F000000
(1486048821.287594) vcan0 242#05B3200DCE000001
(1486048821.287635) vcan0 3CC#1000000000000000
(1486048821.290866) vcan0 3A8#0100260E00000000
(1486048821.293488) vcan0 091#7E077E3D5168F000
(1486048821.294483) vcan0 092#6FAF6F7973A68F68
(1486048821.294528) vcan0 167#72800D10001A0400
(1486048821.294563) vcan0 076#3D7EC0800FFF0000
(1486048821.294600) vcan0 077#04DD07C67FF819E5
(1486048821.295478) vcan0 07D#0038BAD01EA0D7B9
(1486048821.295520) vcan0 202#042F1000600004C7
(1486048821.295555) vcan0 082#6608140489804000
(1486048821.295591) vcan0 085#7B4580006EF07C46
(1486048821.296543) vcan0 204#C0007D0170000000
(1486048821.296595) vcan0 213#FFFF00040001FD40
(1486048821.296636) vcan0 214#000000000000F2D0
(1486048821.296674) vcan0 216#0129261300000000
(1486048821.297544) vcan0 217#0418041804240408
(1486048821.297597) vcan0 415#04CCC42B07C907C9
(1486048821.297638) vcan0 41D#8000000000000000
(1486048821.297674) vcan0 4B0#01008000D001C0BA
(1486048821.298559) vcan0 05D#83589F5F36000000
(1486048821.298615) vcan0 169#0081C00000000000
(1486048821.303236) vcan0 091#7E077E3E4F69F000
(1486048821.304211) vcan0 092#6FB46F9373948169
(1486048821.304286) vcan0 047#2000000000000000
(1486048821.304344) vcan0 05C#803000F8201E0000
(1486048821.305312) vcan0 186#13F0016100150400
(1486048821.305398) vcan0 165#20C0000000000000
(1486048821.305455) vcan0 167#72800D10001A0400
(1486048821.305505) vcan0 187#DD1408C800600300
(1486048821.306214) vcan0 078#0168800000000000
(1486048821.306283) vcan0 085#7B4580007D007C46
(1486048821.306345) vcan0 18A#0020180111000000
(1486048821.306398) vcan0 200#0000800D800D0000
(1486048821.307217) vcan0 202#042E1800600004C7
(1486048821.307293) vcan0 204#C0007D016F000000
(1486048821.307352) vcan0 217#041804180420040C
(1486048821.307405) vcan0 230#300600008F000000
(1486048821.307456) vcan0 3B3#4048020F10050002
(1486048821.308221) vcan0 3C3#7EC1000000000000
(1486048821.308295) vcan0 3CA#FE80080000000000
(1486048821.308352) vcan0 3E5#0000000080000000
(1486048821.308404) vcan0 42C#8C20000008C00000
(1486048821.309220) vcan0 42F#7D04002E66120170
(1486048821.310205) vcan0 3A8#0100260E00000000
(1486048821.313454) vcan0 091#7E137E433D6AF000
(1486048821.314715) vcan0 092#6FBC6FA073847B6A
(1486048821.314793) vcan0 167#72800D10001A0400
(1486048821.314846) vcan0 202#042C2000600004C8
(1486048821.314896) vcan0 076#3D7EC0800FFF0000
(1486048821.315714) vcan0 077#04DA07C67FF81DF7
(1486048821.315792) vcan0 07D#0038B9E01E2037B6
(1486048821.315849) vcan0 082#6808140089804000
(1486048821.315897) vcan0 085#7B4480007D107C46
(1486048821.316595) vcan0 204#C0007D016F000000
(1486048821.316659) vcan0 213#FFFF00040001FC40
(1486048821.316710) vcan0 214#000000000000F1E0
(1486048821.316760) vcan0 216#052D2A1700000000
(1486048821.317589) vcan0 217#041C0418041C0410
(1486048821.317658) vcan0 3CC#1000000000000000
(1486048821.317708) vcan0 415#04CAC82C07C907C9
(1486048821.317756) vcan0 416#5A00F40001000000
(1486048821.318585) vcan0 41D#8000000000000000
(1486048821.318650) vcan0 4B0#01008000E001C0B9
(1486048821.319513) vcan0 455#A000000000000000
(1486048821.323707) vcan0 091#7E2D7E4D186BF000
(1486048821.324724) vcan0 092#6FBD6F9C73778A6B
(1486048821.324801) vcan0 047#2000000000000000
(1486048821.324856) vcan0 05A#00000045F4010000
(1486048821.324905) vcan0 165#20C0000000000000
(1486048821.325593) vcan0 186#13F0016100150400
(1486048821.325658) vcan0 167#72800D10001A0400
(1486048821.325707) vcan0 085#7B4480007C207C46
(1486048821.325756) vcan0 078#0068000000000000
(1486048821.326596) vcan0 178#000001FF0E73CA73
(1486048821.326664) vcan0 187#DD1408C800600300
(1486048821.326714) vcan0 217#0424041404180410
(1486048821.326764) vcan0 200#0000800D800D0000
(1486048821.327586) vcan0 202#042B2800600004C8
(1486048821.327654) vcan0 204#C0007D016F000000
(1486048821.327702) vcan0 230#300600008F000000
(1486048821.327747) vcan0 242#05B3200DCE000001
(1486048821.328574) vcan0 261#0000000000000000
(1486048821.331318) vcan0 3A8#0100260E00000000
(1486048821.333706) vcan0 091#7E557E57E56CF000
(1486048821.334721) vcan0 092#6FB56F8D736CAB6C
(1486048821.334799) vcan0 167#72800D10001A0400
(1486048821.334847) vcan0 076#3D7EC0800FFF0000
(1486048821.334894) vcan0 077#04D907CB7FF829FA
(1486048821.335577) vcan0 07D#0038B8F01E1FE7C2
(1486048821.335648) vcan0 202#042A3000600004C8
(1486048821.335701) vcan0 082#6908140089804000
(1486048821.335749) vcan0 085#7B4480007B307C46
(1486048821.336591) vcan0 204#C0007D016F000000
(1486048821.336657) vcan0 213#FFFF00040001FD40
(1486048821.336712) vcan0 214#000000000000F0F0
(1486048821.336762) vcan0 216#0A312E1C00000000
(1486048821.337587) vcan0 217#0428041004140414
(1486048821.337657) vcan0 3CA#FE80080000000000
(1486048821.337707) vcan0 415#04CECC2707C907C9
(1486048821.337755) vcan0 41D#8000000000000000
(1486048821.338588) vcan0 42F#7D04002E66120170
(1486048821.338652) vcan0 4B0#01008000F001C0B8
(1486048821.339839) vcan0 33B#0000000000000000
(1486048821.343318) vcan0 04A#0200000000000000
(1486048821.344336) vcan0 04B#00C0D8D8D8D8C000
(1486048821.344409) vcan0 04C#105FFFC000000000
(1486048821.344460) vcan0 047#2000000000000000
(1486048821.344507) vcan0 091#7E857E60AB6DF000
(1486048821.345221) vcan0 092#6FAA6F81736AC36D
(1486048821.345289) vcan0 186#13F3016100150400
(1486048821.345343) vcan0 187#DD1408C800600300
(1486048821.345388) vcan0 165#20C0000000000000
(1486048821.346221) vcan0 085#7B4480007A407C46
(1486048821.346289) vcan0 167#72800C10001A0400
(1486048821.346340) vcan0 078#0569800000000000
(1486048821.346389) vcan0 200#0000800D800D0000
(1486048821.347338) vcan0 202#04283800600004C9
(1486048821.347407) vcan0 217#0428040C04140414
(1486048821.347460) vcan0 204#C0007D016F000000
(1486048821.347505) vcan0 3CC#1000000000000000
(1486048821.348316) vcan0 230#300600008F000000
(1486048821.348382) vcan0 422#000000923802FE02
(1486048821.348432) vcan0 423#9C20000000000000
(1486048821.348479) vcan0 430#37000CE7C8867700
(1486048821.350954) vcan0 3A8#0100260E00000000
(1486048821.353440) vcan0 42C#8C20000008C00000
(1486048821.354469) vcan0 091#7EB77E68706EF000
(1486048821.354546) vcan0 092#6F9D6F7C736ED06E
(1486048821.354604) vcan0 167#72800C10001A0500
(1486048821.354652) vcan0 076#3D7DC0800FFF0000
(1486048821.355343) vcan0 077#04DB07CE7FF81DF5
(1486048821.355412) vcan0 07D#003AC5001E1F77CE
(1486048821.355464) vcan0 202#04264000600004CA
(1486048821.355508) vcan0 082#6D08140489804000
(1486048821.356337) vcan0 085#7B4480007A507C45
(1486048821.356407) vcan0 204#C0007D016F000000
(1486048821.356456) vcan0 213#FFFF00040001FE40
(1486048821.356502) vcan0 214#000000000000FF00
(1486048821.357337) vcan0 216#0E36332000000000
(1486048821.357407) vcan0 217#0424040C04140418
(1486048821.357458) vcan0 415#04CBD02907C907C9
(1486048821.357507) vcan0 41D#8000000000000000
(1486048821.358333) vcan0 4B0#010080000001D0C5
(1486048821.359832) vcan0 083#4020000008000000
(1486048821.360836) vcan0 2A1#FFFFFFFF00000000
(1486048821.363464) vcan0 186#13F9016100150400
(1486048821.364588) vcan0 091#7EE27E6E3E6FF000
(1486048821.364665) vcan0 047#2000000000000000
(1486048821.364719) vcan0 092#6F8A6F7D7370DF6F
(1486048821.364766) vcan0 165#20C0000000000000
(1486048821.365586) vcan0 167#72800C10001A0500
(1486048821.365659) vcan0 187#DD1408C800600300
(1486048821.365711) vcan0 200#0000800D800D0000
(1486048821.365757) vcan0 078#0168800000000000
(1486048821.366469) vcan0 085#7B45800077607C46
(1486048821.366537) vcan0 202#04254800600004CA
(1486048821.366589) vcan0 204#C0007D016F000000
(1486048821.366634) vcan0 217#0424040C04180414
(1486048821.367460) vcan0 230#300600008F000000
(1486048821.367524) vcan0 242#05B3200DCE000001
(1486048821.367573) vcan0 3CA#FE80080000000000
(1486048821.367620) vcan0 42F#7D04002E66120170
(1486048821.370081) vcan0 3A8#0100260E00000000
(1486048821.373343) vcan0 091#7F007E721A70F000
(1486048821.374358) vcan0 092#6F786F847370E970
(1486048821.374446) vcan0 167#72800D10001A0400
(1486048821.374508) vcan0 202#04245000600004CA
(1486048821.375351) vcan0 076#3D7DC0800FFF0000
(1486048821.375433) vcan0 077#04DD07D37FF805F0
(1486048821.375498) vcan0 07D#003AC4101D9F87ED
(1486048821.375555) vcan0 204#C0007D016F000000
(1486048821.376234) vcan0 082#6908140089804000
(1486048821.376312) vcan0 085#7B46800075707C46
(1486048821.376372) vcan0 213#FFFF00040001FF40
(1486048821.376427) vcan0 214#000000000000FE10
(1486048821.376481) vcan0 216#113A372400000000
(1486048821.377216) vcan0 217#04200410041C0410
(1486048821.377294) vcan0 261#0000000000000000
(1486048821.377348) vcan0 3CC#1000000000000000
(1486048821.377400) vcan0 415#04CBD42807C907C9
(1486048821.378216) vcan0 41D#8000000000000000
(1486048821.378289) vcan0 4B0#010080001001D0C4
(1486048821.383228) vcan0 091#7F127E760371F000
(1486048821.384217) vcan0 186#13FA016100140400
(1486048821.384293) vcan0 092#6F676F8D736DF371
(1486048821.384354) vcan0 187#DC1408C800700300
(1486048821.384407) vcan0 047#2000000000000000
(1486048821.385356) vcan0 165#20C0000000000000
(1486048821.385437) vcan0 167#72800D10001A0400
(1486048821.385494) vcan0 217#041C04140420040C
(1486048821.385552) vcan0 078#0068000000000000
(1486048821.386232) vcan0 085#7B46800074807C46
(1486048821.386308) vcan0 200#0000800D800D0000
(1486048821.386363) vcan0 202#04235800600004CA
(1486048821.386418) vcan0 204#C0007D0170000000
(1486048821.387218) vcan0 230#300600008F000000
(1486048821.389963) vcan0 3A8#0100260E00000000
(1486048821.393339) vcan0 091#7F197E7BF672F000
(1486048821.394348) vcan0 092#6F5C6F957368FA72
(1486048821.394436) vcan0 167#72800D10001A0400
(1486048821.394494) vcan0 076#3D7EC0800FFF0000
(1486048821.395351) vcan0 077#04DC07D87FF7CDF5
(1486048821.395439) vcan0 07D#003AC3201D9F8808
(1486048821.395500) vcan0 202#04226000600004CA
(1486048821.395554) vcan0 082#6608140489804000
(1486048821.396225) vcan0 085#7B46800073907C46
(1486048821.396301) vcan0 204#C0007D0170000000
(1486048821.396358) vcan0 213#FFFF00040001FF40
(1486048821.396409) vcan0 214#000000000000FD20
(1486048821.397226) vcan0 216#153E3B2900000000
(1486048821.397304) vcan0 217#041C041404200408
(1486048821.397365) vcan0 415#04CAD82807C907C9
(1486048821.397421) vcan0 3CA#FE80080000000000
(1486048821.398221) vcan0 41D#8000000000000000
(1486048821.398294) vcan0 05D#8358875F3C000000
(1486048821.398355) vcan0 42F#7D04002E66110170
(1486048821.398410) vcan0 4B0#010080002001D0C3
(1486048821.399827) vcan0 33B#0000000000000000
(1486048821.403092) vcan0 186#13F4016100140400
(1486048821.404224) vcan0 091#7F107E80F973F000
(1486048821.404311) vcan0 092#6F586F9C7361FD73
(1486048821.404374) vcan0 187#DC1408C800700300
(1486048821.404426) vcan0 047#2000000000000000
(1486048821.405229) vcan0 05C#80D000EE201E0000
(1486048821.405318) vcan0 165#20C0000000000000
(1486048821.405376) vcan0 167#72800C10001A0400
(1486048821.405429) vcan0 18A#0020180111000000
(1486048821.406240) vcan0 078#0168800000000000
(1486048821.406317) vcan0 085#7B46800072A07C46
(1486048821.406376) vcan0 200#0000800D800D0000
(1486048821.406428) vcan0 202#04216800600004CA
(1486048821.407229) vcan0 204#C0007D0170000000
(1486048821.407300) vcan0 217#041C040C0424040C
(1486048821.407358) vcan0 230#300600008F000000
(1486048821.407409) vcan0 242#05B3200FCD000001
(1486048821.408218) vcan0 3A7#0E423A045F700000
(1486048821.408289) vcan0 3CC#1000000000000000
(1486048821.408345) vcan0 40A#C1023130373639FF
(1486048821.408399) vcan0 42C#8C20000008C00000
(1486048821.408451) vcan0 596#9600FFFFFFFFFFFF
(1486048821.410951) vcan0 3A8#0100260E00000000
(1486048821.413721) vcan0 091#7EFA7E860974F000
(1486048821.414726) vcan0 092#6F596F9B735EFF74
(1486048821.414814) vcan0 167#72800C10001A0400
(1486048821.414871) vcan0 076#3D7FC0800FFF0000
(1486048821.414926) vcan0 077#04DD07DB7FF7B9F9
(1486048821.415603) vcan0 07D#003AC2301E1F4808
(1486048821.415680) vcan0 202#04207000600004CA
(1486048821.415741) vcan0 082#6A08140489804000
(1486048821.415794) vcan0 085#7B46800071B07C46
(1486048821.416722) vcan0 204#C0007D0170000000
(1486048821.416795) vcan0 213#FFFF00040001FF40
(1486048821.416851) vcan0 214#000000000000FC30
(1486048821.416907) vcan0 216#19433F2D00000000
(1486048821.417719) vcan0 217#041C04080424040C
(1486048821.417798) vcan0 415#04C2DC2F07C907C9
(1486048821.417926) vcan0 3A6#0E401A045F700000
(1486048821.417979) vcan0 416#5B00F30001000000
(1486048821.418032) vcan0 41D#8000000000000000
(1486048821.418711) vcan0 41E#0000000000000000
(1486048821.418783) vcan0 4B0#010080003001D0C2
(1486048821.419704) vcan0 455#A000000000000000
(1486048821.422962) vcan0 186#13F4016100140400
(1486048821.423969) vcan0 187#DC1408C800700300
(1486048821.424043) vcan0 091#7EE07E882075F000
(1486048821.424103) vcan0 092#6F5A6F91735D0875
(1486048821.425224) vcan0 047#2000000000000000
(1486048821.425306) vcan0 05A#00000045EAA10000
(1486048821.425370) vcan0 165#20C0000000000000
(1486048821.425423) vcan0 217#041C041004240410
(1486048821.425477) vcan0 167#72800C10001A0400
(1486048821.426099) vcan0 078#0068000000000000
(1486048821.426178) vcan0 085#7B4780006EC07C47
(1486048821.426236) vcan0 178#000001FF0E73CA73
(1486048821.427010) vcan0 200#0000800D800D0000
(1486048821.427063) vcan0 202#04217800600004C8
(1486048821.427114) vcan0 3CA#FE80080000000000
(1486048821.428111) vcan0 204#C0007D016F000000
(1486048821.428190) vcan0 230#300600008F000000
(1486048821.428264) vcan0 261#0000000000000000
(1486048821.429079) vcan0 42F#7D04002E66110170
(1486048821.430970) vcan0 3A8#0100261000000000
(1486048821.433720) vcan0 091#7EC47E843F76F000
(1486048821.434722) vcan0 092#6F596F87735A1576
(1486048821.434800) vcan0 167#72800D10001A0400
(1486048821.434859) vcan0 076#3D7FC0800FFF0000
(1486048821.434907) vcan0 077#04DF07DD7FF7BDF9
(1486048821.435841) vcan0 07D#003AC1401D9F37FA
(1486048821.435919) vcan0 202#04310000600004C7
(1486048821.435975) vcan0 082#6808140089804000
(1486048821.436023) vcan0 085#7B4880006DD07C46
(1486048821.436717) vcan0 204#C0007D016F000000
(1486048821.436781) vcan0 213#FFFF00040001FF40
(1486048821.436830) vcan0 214#000000000000FB40
(1486048821.436878) vcan0 216#1E47443000000000
(1486048821.437710) vcan0 217#0420041404240410
(1486048821.437781) vcan0 3CC#1000000000000000
(1486048821.437875) vcan0 415#04C7E02907C907C9
(1486048821.437926) vcan0 41D#8000000000000000
(1486048821.438705) vcan0 4B0#010080004001D0C1
(1486048821.442833) vcan0 186#13F3016100140400
(1486048821.443945) vcan0 187#DC1408C800700300
(1486048821.444030) vcan0 04A#0200000000000000
(1486048821.444083) vcan0 04B#00C0D8D8D8D8C000
(1486048821.444128) vcan0 04C#105FFFC000000000
(1486048821.444961) vcan0 047#2000000000000000
(1486048821.445035) vcan0 091#7EA77E766977F000
(1486048821.445093) vcan0 092#6F5B6F8373541C77
(1486048821.445143) vcan0 217#041C04180420040C
(1486048821.445981) vcan0 165#20C0000000000000
(1486048821.446047) vcan0 085#7B4A80006AE07C46
(1486048821.446100) vcan0 167#72800C10001A0400
(1486048821.446145) vcan0 078#0569800000000000
(1486048821.446827) vcan0 200#0000800D800D0000
(1486048821.446885) vcan0 422#000000923802FE02
(1486048821.446930) vcan0 423#9C20000000000000
(1486048821.446972) vcan0 202#04300800600004C7
(1486048821.447821) vcan0 204#C0007D016F000000
(1486048821.447880) vcan0 430#37000CE7C8867700
(1486048821.447924) vcan0 230#300600008F000000
(1486048821.447966) vcan0 242#05B3200DCD000001
(1486048821.448009) vcan0 43A#0000020000000000
(1486048821.448811) vcan0 59E#9E00FFFFFFFFFFFF
(1486048821.449939) vcan0 3A8#0100261000000000
(1486048821.453567) vcan0 091#7E907E649178F000
(1486048821.454691) vcan0 092#6F656F8573540F78
(1486048821.454762) vcan0 167#72800C10001A0400
(1486048821.454810) vcan0 076#3D81C0800FFF0000
(1486048821.454854) vcan0 077#04E007DC7FF7BDF3
(1486048821.455697) vcan0 07D#003AC0501D9F27F1
(1486048821.455768) vcan0 202#042F1000600004C7
(1486048821.455819) vcan0 082#6608140089804000
(1486048821.455863) vcan0 085#7B4B800068F07C46
(1486048821.456576) vcan0 204#C0007D016F000000
(1486048821.456634) vcan0 213#FFFF00040001FF40
(1486048821.456678) vcan0 214#000000000000FA50
(1486048821.456723) vcan0 216#224B473400000000
(1486048821.457696) vcan0 217#041804180420040C
(1486048821.457759) vcan0 3CA#FE80080000000000
(1486048821.457853) vcan0 415#04CDE42207CA07CA
(1486048821.457901) vcan0 41D#8000000000000000
(1486048821.458682) vcan0 42C#8C20000008C00000
(1486048821.458737) vcan0 42F#7D04002E66110170
(1486048821.458777) vcan0 4B0#010080005001D0C0
(1486048821.459800) vcan0 083#4020000008000000
(1486048821.460807) vcan0 2A1#FFFFFFFF00000000
(1486048821.460859) vcan0 33B#0000000000000000
(1486048821.462933) vcan0 186#13F6016100140400
(1486048821.464043) vcan0 187#DC1408C800700300
(1486048821.464102) vcan0 091#7E867E55A979F000
(1486048821.464154) vcan0 092#6F796F84735EF179
(1486048821.464939) vcan0 047#2000000000000000
(1486048821.464992) vcan0 217#04180410041C040C
(1486048821.465037) vcan0 165#20C0000000000000
(1486048821.465074) vcan0 167#72800C10001A0400
(1486048821.465945) vcan0 200#0000800D800D0000
(1486048821.466000) vcan0 078#0368800000000000
(1486048821.466046) vcan0 085#7B4C800076007C46
(1486048821.466085) vcan0 202#042D1800600004C8
(1486048821.466123) vcan0 204#C0007D016F000000
(1486048821.466910) vcan0 230#300600008F000000
(1486048821.466963) vcan0 3CC#1000000000000000
(1486048821.470553) vcan0 3A8#0100261100000000
(1486048821.473650) vcan0 091#7E8C7E4BAC7AF000
(1486048821.474670) vcan0 092#6F8C6F7A7367DE7A
(1486048821.474731) vcan0 167#72800C10001A0400
(1486048821.474767) vcan0 076#3D84C0800FFF0000
(1486048821.474805) vcan0 077#04E007CD7FF7C9F3
(1486048821.475657) vcan0 07D#0038C1601D9F07DE
(1486048821.475716) vcan0 202#042B2000600004C9
(1486048821.475755) vcan0 082#670813F889804000
(1486048821.475791) vcan0 085#7B4E800073107C46
(1486048821.476551) vcan0 204#C0007D016F000000
(1486048821.476599) vcan0 213#FFFF00040001FF40
(1486048821.476636) vcan0 214#000000000000F960
(1486048821.476673) vcan0 216#264F4B3800000000
(1486048821.477548) vcan0 217#0424040C04200410
(1486048821.477600) vcan0 261#0000000000000000
(1486048821.477639) vcan0 415#04C6E82807CA07CA
(1486048821.477674) vcan0 41D#8000000000000000
(1486048821.478529) vcan0 4B0#010080006001C0C1
(1486048821.482419) vcan0 186#13FB016100130400
(1486048821.483531) vcan0 187#DB1408C800800300
(1486048821.483590) vcan0 091#7EA97E44957BF000
(1486048821.484538) vcan0 092#6F976F73736AD67B
(1486048821.484597) vcan0 047#2000000000000000
(1486048821.484632) vcan0 165#20C0000000000000
(1486048821.484666) vcan0 217#0428040C04240410
(1486048821.485428) vcan0 167#72800C10001A0400
(1486048821.485476) vcan0 200#0000800D800D0000
(1486048821.485513) vcan0 078#0068000000000000
(1486048821.485551) vcan0 085#7B5180006F207C46
(1486048821.486553) vcan0 202#042B2800600004C8
(1486048821.486604) vcan0 204#C0007D016F000000
(1486048821.486641) vcan0 230#300600008F000000
(1486048821.486675) vcan0 242#05B32008CD000001
(1486048821.486712) vcan0 42F#7D04002E66120170
(1486048821.487542) vcan0 3CA#FE80080000000000
(1486048821.490793) vcan0 3A8#0100261400000000
(1486048821.493363) vcan0 091#7ED57E3C707CF000
(1486048821.494470) vcan0 092#6F9B6F7E7365CB7C
(1486048821.494516) vcan0 167#72800D10001A0400
(1486048821.494554) vcan0 202#042A3000600004C8
(1486048821.494592) vcan0 076#3D85C0800FFF0000
(1486048821.495463) vcan0 077#04DF07C87FF801EE
(1486048821.495504) vcan0 07D#003ABE701D9F77E9
(1486048821.495540) vcan0 082#6C08140889804000
(1486048821.495575) vcan0 085#7B5480006B307C46
(1486048821.496546) vcan0 204#C0007D016F000000
(1486048821.496622) vcan0 213#FFFF00040001FF40
(1486048821.496685) vcan0 214#000000000000F870
(1486048821.496752) vcan0 216#2B544F3D00000000
(1486048821.497522) vcan0 217#0428040804280414
(1486048821.497594) vcan0 3CC#1000000000000000
(1486048821.497659) vcan0 415#04CCEC2107CA07CA
(1486048821.497727) vcan0 41D#8000000000000000
(1486048821.498494) vcan0 05D#8358AF5F32000000
(1486048821.498555) vcan0 4B0#010080007001D0BE
(1486048821.502269) vcan0 186#13FE016100130400
(1486048821.503281) vcan0 187#DB1408C800800300
(1486048821.503345) vcan0 18A#0020180111000000
(1486048821.504280) vcan0 091#7F027E334A7DF000
(1486048821.504328) vcan0 092#6F966F96735CC07D
(1486048821.504366) vcan0 047#2000000000000000
(1486048821.504399) vcan0 05C#807000F4201E0000
(1486048821.505227) vcan0 165#20C0000000000000
(1486048821.505264) vcan0 167#72800D10001A0400
(1486048821.505298) vcan0 200#0000800D800D0000
(1486048821.505329) vcan0 078#0168800000000000
(1486048821.506206) vcan0 085#7B58800065407C47
(1486048821.506242) vcan0 202#04293800600004C8
(1486048821.506274) vcan0 204#C0007D016E000000
(1486048821.506304) vcan0 217#0424040804280410
(1486048821.507193) vcan0 230#300600008F000000
(1486048821.507225) vcan0 42C#8C20000008C00000
(1486048821.509945) vcan0 3A8#0100261600000000
(1486048821.513322) vcan0 091#7F237E26357EF000
(1486048821.514508) vcan0 092#6F8D6FA6734FC57E
(1486048821.514555) vcan0 167#72800D10001A0400
(1486048821.514590) vcan0 076#3D8BC0800FFF0000
(1486048821.514624) vcan0 077#04DE07C37FF805F1
(1486048821.515465) vcan0 07D#0038BF801D1F5803
(1486048821.515505) vcan0 202#04274000600004C9
(1486048821.515537) vcan0 082#6A08140089804000
(1486048821.515574) vcan0 085#7B5C800060507C47
(1486048821.516445) vcan0 204#C0007D016E000000
(1486048821.516478) vcan0 213#FFFF00040001FF40
(1486048821.516507) vcan0 214#000000000000F780
(1486048821.516538) vcan0 216#2F58534100000000
(1486048821.517443) vcan0 217#0420040C04280410
(1486048821.517476) vcan0 415#04C7F02507CA07CA
(1486048821.517507) vcan0 3CA#FE80080000000000
(1486048821.517536) vcan0 416#5C00F20001000000
(1486048821.518444) vcan0 41D#8000000000000000
(1486048821.518476) vcan0 42F#7D04002E66120170
(1486048821.518505) vcan0 4B0#010080008001C0BF
(1486048821.519440) vcan0 455#A000000000000000
(1486048821.520453) vcan0 33B#0000000000000000
(1486048821.522004) vcan0 186#13FE016100130400
(1486048821.523134) vcan0 187#DB1408C800800300
(1486048821.524138) vcan0 091#7F317E1B317FF000
(1486048821.524185) vcan0 092#6F876FA67345D47F
(1486048821.524222) vcan0 047#2000000000000000
(1486048821.525224) vcan0 05A#00000045F0410000
(1486048821.525277) vcan0 165#20C0000000000000
(1486048821.525320) vcan0 217#041C041004240408
(1486048821.525354) vcan0 167#72800C10001A0400
(1486048821.526227) vcan0 078#0168800000000000
(1486048821.526277) vcan0 085#7B6080005B607C47
(1486048821.526315) vcan0 178#000001FF0E73CA73
(1486048821.526347) vcan0 3CC#1000000000000000
(1486048821.527078) vcan0 200#0000800D800D0000
(1486048821.527113) vcan0 202#04274800600004C8
(1486048821.527145) vcan0 204#C0007D016E000000
(1486048821.528069) vcan0 230#300600008F000000
(1486048821.528101) vcan0 242#05B3200ACE000001
(1486048821.528131) vcan0 261#0000000000000000
(1486048821.530450) vcan0 3A8#0100261C00000000
(1486048821.533596) vcan0 091#7F337E163380F000
(1486048821.534608) vcan0 092#6F876F987345E180
(1486048821.534663) vcan0 167#72800C10001A0400
(1486048821.534699) vcan0 076#3D91C0800FFF0000
(1486048821.534734) vcan0 077#04DD07BB7FF7F9FC
(1486048821.535511) vcan0 07D#003ABC901D1EF812
(1486048821.535558) vcan0 202#04265000600004C8
(1486048821.535595) vcan0 082#6808140089804000
(1486048821.535631) vcan0 085#7B63800057707C47
(1486048821.536464) vcan0 204#C0007D016E000000
(1486048821.536498) vcan0 213#FFFF00040001FF40
(1486048821.536527) vcan0 214#000000000000F690
(1486048821.536558) vcan0 216#335C584500000000
(1486048821.537444) vcan0 217#041C041004200404
(1486048821.537479) vcan0 415#04C7F42407CA07CA
(1486048821.537509) vcan0 41D#8000000000000000
(1486048821.537539) vcan0 4B0#010080009001D0BC
(1486048821.541841) vcan0 186#1400016100120400
(1486048821.542816) vcan0 187#DB1408C800800300
(1486048821.543832) vcan0 04A#0200000000000000
(1486048821.543866) vcan0 04B#00C0D8D8D8D8C000
(1486048821.543897) vcan0 04C#105FFFC000000000
(1486048821.543927) vcan0 091#7F317E193181F000
(1486048821.544957) vcan0 092#6F8A6F867357DD81
(1486048821.544990) vcan0 217#041C0410041C0404
(1486048821.545020) vcan0 047#2000000000000000
(1486048821.545945) vcan0 085#7B65800055807C46
(1486048821.545978) vcan0 078#0469000000000000
(1486048821.546007) vcan0 165#20C0000000000000
(1486048821.546036) vcan0 167#72800C10001A0400
(1486048821.546942) vcan0 422#000000923802FE02
(1486048821.546974) vcan0 423#9C20000000000000
(1486048821.547002) vcan0 430#3F000CE7E8867700
(1486048821.547033) vcan0 200#0000800D800D0000
(1486048821.547061) vcan0 202#04255800600004C8
(1486048821.547942) vcan0 204#C0007D0171000000
(1486048821.547974) vcan0 230#300600008F000000
(1486048821.548003) vcan0 3CA#FE80080000000000
(1486048821.548032) vcan0 42F#7D04002E66120170
(1486048821.548939) vcan0 431#057B00C609800002
(1486048821.549956) vcan0 3A8#0100262200000000
(1486048821.553083) vcan0 091#7F317E232682F000
(1486048821.554140) vcan0 42C#8C20000008C00000
(1486048821.554185) vcan0 092#6F8E6F757375CB82
(1486048821.554223) vcan0 167#72800C10001A0400
(1486048821.554256) vcan0 202#04256000600004C7
(1486048821.555112) vcan0 076#3D99C0800FFF0000
(1486048821.555148) vcan0 077#04DF07BA7FF7F1F8
(1486048821.555180) vcan0 07D#003ABBA01D1EC813
(1486048821.555211) vcan0 204#C0007D0171000000
(1486048821.556069) vcan0 082#6C0814048A804000
(1486048821.556102) vcan0 085#7B67800052907C46
(1486048821.556132) vcan0 213#FFFF00040001FF40
(1486048821.556161) vcan0 214#000000000000F5A0
(1486048821.557067) vcan0 216#37615C4900000000
(1486048821.557100) vcan0 217#041C040C04180400
(1486048821.557130) vcan0 3CC#1000000000000000
(1486048821.557159) vcan0 415#04C7F82307CB07CB
(1486048821.558066) vcan0 41D#8000000000000000
(1486048821.558097) vcan0 4B0#01008000A001D0BB
(1486048821.559689) vcan0 083#4020000008000000
(1486048821.560689) vcan0 2A1#FFFFFFFF00000000
(1486048821.561975) vcan0 186#1401016100120400
(1486048821.562972) vcan0 187#DB1408C800800300
(1486048821.564106) vcan0 091#7F327E311683F000
(1486048821.564140) vcan0 092#6F8F6F69738EBC83
(1486048821.564171) vcan0 047#2000000000000000
(1486048821.564201) vcan0 165#20C0000000000000
(1486048821.565082) vcan0 217#041C040C041C03FC
(1486048821.565115) vcan0 167#72800D10001A0500
(1486048821.565146) vcan0 200#0000800D800D0000
(1486048821.565175) vcan0 078#0168800000000000
(1486048821.566068) vcan0 085#7B6A80004EA07C46
(1486048821.566101) vcan0 202#04246800600004C7
(1486048821.566140) vcan0 204#C0007D0171000000
(1486048821.566171) vcan0 230#300600008F000000
(1486048821.567066) vcan0 242#05B3200ACD000001
(1486048821.570832) vcan0 3A8#0100262900000000
(1486048821.573220) vcan0 091#7F317E3D0A84F000
(1486048821.574230) vcan0 092#6F8F6F67739EAD84
(1486048821.574284) vcan0 454#3646200372204242
(1486048821.574321) vcan0 167#72800D10001A0500
(1486048821.575228) vcan0 076#3D9EC0800FFF0000
(1486048821.575282) vcan0 077#04DF07C27FF7F9EB
(1486048821.575320) vcan0 07D#003ABAB01D201812
(1486048821.575355) vcan0 202#04237000600004C7
(1486048821.575388) vcan0 082#6C08140089804000
(1486048821.576094) vcan0 085#7B6D800049B07C47
(1486048821.576130) vcan0 204#C0007D0171000000
(1486048821.576160) vcan0 213#FFFF00040001FF40
(1486048821.576188) vcan0 214#000000000000F4B0
(1486048821.577069) vcan0 216#3C65604E00000000
(1486048821.577102) vcan0 217#041C041004180400
(1486048821.577132) vcan0 261#0000000000000000
(1486048821.577160) vcan0 3CA#FE80080000000000
(1486048821.578070) vcan0 415#04C6FC2307CC07CC
(1486048821.578104) vcan0 41D#8000000000000000
(1486048821.578134) vcan0 42F#7D04002E66120170
(1486048821.578163) vcan0 4B0#01008000B001D0BA
(1486048821.579689) vcan0 33B#0000000000000000
(1486048821.581841) vcan0 186#1402016100120400
(1486048821.582832) vcan0 187#DA1408C800900300
(1486048821.583854) vcan0 091#7F247E450E85F000
(1486048821.583889) vcan0 092#6F8F6F6F73A49E85
(1486048821.583920) vcan0 047#2000000000000000
(1486048821.584848) vcan0 165#20C0000000000000
(1486048821.584881) vcan0 217#04200414041803FC
(1486048821.584913) vcan0 167#72800D10001A0400
(1486048821.584945) vcan0 200#0000800D800D0000
(1486048821.585827) vcan0 078#0168800000000000
(1486048821.585860) vcan0 085#7B6F800047C07C46
(1486048821.585890) vcan0 202#04227800600004C7
(1486048821.585919) vcan0 204#C0007D0171000000
(1486048821.586815) vcan0 230#300600008F000000
(1486048821.586846) vcan0 3CC#1000000000000000
(1486048821.589940) vcan0 3A8#0100262F00000000
(1486048821.593450) vcan0 091#7F0F7E491E86F000
(1486048821.594602) vcan0 092#6F946F7C73A78886
(1486048821.594642) vcan0 167#72800D10001A0300
(1486048821.594669) vcan0 076#3DA4C0800FFF0000
(1486048821.594693) vcan0 077#04DD07C87FF7F9EC
(1486048821.595596) vcan0 07D#003AB9C01D20780E
(1486048821.595637) vcan0 202#04320000600004C6
(1486048821.595664) vcan0 082#6A08140489804000
(1486048821.595688) vcan0 085#7B71800044D07C46
(1486048821.596605) vcan0 204#C0007D0171000000
(1486048821.596643) vcan0 213#FFFF00040001FE40
(1486048821.596670) vcan0 214#000000000000F3C0
(1486048821.596695) vcan0 216#4069655200000000
(1486048821.597600) vcan0 217#04200410041403F8
(1486048821.597641) vcan0 415#04CCC02C07CD07CD
(1486048821.597668) vcan0 41D#8000000000000000
(1486048821.597691) vcan0 4B0#01008000C001D0B9
(1486048821.597715) vcan0 05D#8358975F38000000
(1486048821.601389) vcan0 186#1403016100120400
(1486048821.602377) vcan0 187#DA1408C800900300
(1486048821.602409) vcan0 18A#0020180111000000
(1486048821.603379) vcan0 091#7EFA7E4E2E87F000
(1486048821.604486) vcan0 092#6FA06F8373AE6D87
(1486048821.604515) vcan0 047#2000000000000000
(1486048821.604538) vcan0 05C#801000FA201E0000
(1486048821.604562) vcan0 165#20C0000000000000
(1486048821.605490) vcan0 167#72800D10001A0300
(1486048821.605522) vcan0 217#041C0410041003F8
(1486048821.605547) vcan0 078#0068000000000000
(1486048821.605573) vcan0 085#7B73800040E07C47
(1486048821.606599) vcan0 200#0000800D800D0000
(1486048821.606636) vcan0 202#04300800600004C7
(1486048821.606663) vcan0 204#C0007D0171000000
(1486048821.606686) vcan0 230#300600008F000000
(1486048821.607604) vcan0 242#05B3200ECE000001
(1486048821.607644) vcan0 3A7#0E423A045F700000
(1486048821.607667) vcan0 3CA#FE80080000000000
(1486048821.607691) vcan0 40A#C104014107F670C1
(1486048821.608506) vcan0 42C#8C20000008C00000
(1486048821.608538) vcan0 42F#7D04002E66110170
(1486048821.610762) vcan0 3A8#0100263500000000
(1486048821.613503) vcan0 091#7EEA7E563588F000
(1486048821.614603) vcan0 092#6FA26F8073B86388
(1486048821.614644) vcan0 167#72800C10001A0400
(1486048821.614670) vcan0 076#3DA8C0800FFF0000
(1486048821.614694) vcan0 077#04DB07CB7FF7FDF0
(1486048821.615512) vcan0 07D#0038BAD01D208801
(1486048821.615546) vcan0 202#042E1000600004C8
(1486048821.615574) vcan0 082#6D08140489804000
(1486048821.615598) vcan0 085#7B7480003FF07C46
(1486048821.616507) vcan0 204#C0007D0171000000
(1486048821.616539) vcan0 213#FFFF00040001FE40
(1486048821.616563) vcan0 214#000000000000F2D0
(1486048821.616586) vcan0 216#436C695600000000
(1486048821.617638) vcan0 217#041C0410040C03FC
(1486048821.617673) vcan0 3A6#0E401A045F700000
(1486048821.617699) vcan0 3CC#1000000000000000
(1486048821.617723) vcan0 415#04C8C42F07CE07CE
(1486048821.617747) vcan0 416#5D00F10001000000
(1486048821.618658) vcan0 41D#8000000000000000
(1486048821.618743) vcan0 455#A000000000000000
(1486048821.618800) vcan0 4B0#01008000D001C0BA
(1486048821.621326) vcan0 186#1403016100120400
(1486048821.622337) vcan0 187#DA1408C800900300
(1486048821.623594) vcan0 091#7EE07E613389F000
(1486048821.624593) vcan0 092#6F9F6F7673BF6889
(1486048821.624670) vcan0 047#2000000000000000
(1486048821.624727) vcan0 05A#00000045E6E10000
(1486048821.624781) vcan0 165#20C0000000000000
(1486048821.625721) vcan0 217#0420040C04100400
(1486048821.625853) vcan0 167#72800C10001A0400
(1486048821.625918) vcan0 078#0168800000000000
(1486048821.625974) vcan0 085#7B7580004D007C46
(1486048821.626723) vcan0 178#000002000E73CA73
(1486048821.626811) vcan0 200#0000800D800D0000
(1486048821.626868) vcan0 202#042D1800600004C8
(1486048821.626923) vcan0 204#C0007D0172000000
(1486048821.627590) vcan0 230#300600008F000000
(1486048821.627661) vcan0 261#0000000000000000
(1486048821.630968) vcan0 3A8#0100263800000000
(1486048821.633588) vcan0 091#7ED87E6F2C8AF000
(1486048821.634710) vcan0 092#6F9C6F6E73B67B8A
(1486048821.634800) vcan0 167#72800C10001A0400
(1486048821.634859) vcan0 076#3DACC0800FFF0000
(1486048821.634913) vcan0 077#04D907D17FF809F1
(1486048821.635725) vcan0 07D#0038B9E01D20D7FA
(1486048821.635814) vcan0 202#042C2000600004C8
(1486048821.635876) vcan0 082#6D08140489804000
(1486048821.635927) vcan0 085#7B7680004B107C46
(1486048821.636848) vcan0 204#C0007D0172000000
(1486048821.636931) vcan0 213#FFFF00040001FD40
(1486048821.636993) vcan0 214#000000000000F1E0
(1486048821.637050) vcan0 216#47706C5B00000000
(1486048821.637904) vcan0 217#041C040C04100408
(1486048821.637984) vcan0 3CA#FE80080000000000
(1486048821.638039) vcan0 415#04C6C83007CF07CF
(1486048821.638088) vcan0 41D#8000000000000000
(1486048821.638827) vcan0 42F#7D04002E66110170
(1486048821.638901) vcan0 4B0#01008000E001C0B9
(1486048821.639954) vcan0 33B#0000000000000000
(1486048821.641205) vcan0 186#1403016100110400
(1486048821.642215) vcan0 187#DA1408C800900300
(1486048821.643562) vcan0 04A#0200000000000000
(1486048821.644706) vcan0 04B#00C0D8D8D8D8C000
(1486048821.644779) vcan0 047#2000000000000000
(1486048821.644831) vcan0 04C#105FFFC000000000
(1486048821.644876) vcan0 084#1100002113170A00
(1486048821.645593) vcan0 091#7ECC7E7D298BF000
(1486048821.645661) vcan0 092#6F9B6F6F739F918B
(1486048821.645714) vcan0 085#7B7680004A207C46
(1486048821.645761) vcan0 078#0569800000000000
(1486048821.646588) vcan0 165#20C0000000000000
(1486048821.646655) vcan0 167#72800C10001A0400
(1486048821.646705) vcan0 200#0000800D800D0000
(1486048821.646750) vcan0 217#041804080414040C
(1486048821.647584) vcan0 202#042C2800600004C7
(1486048821.647650) vcan0 3CC#1000000000000000
(1486048821.647698) vcan0 204#C0007D0172000000
(1486048821.647743) vcan0 422#000000923802FE02
(1486048821.648569) vcan0 230#300600008F000000
(1486048821.648632) vcan0 242#05B3200DCE000001
(1486048821.648684) vcan0 423#9C20000000000000
(1486048821.648731) vcan0 430#37000CE7C8867700
(1486048821.650064) vcan0 3A8#0100263D00000000
(1486048821.653327) vcan0 42C#8C20000008C00000
(1486048821.654461) vcan0 091#7EBA7E87308CF000
(1486048821.654539) vcan0 092#6F976F7A7388A08C
(1486048821.654596) vcan0 167#72800C10001A0300
(1486048821.654645) vcan0 076#3DAEC0800FFF0000
(1486048821.655341) vcan0 077#04D707D67FF805EC
(1486048821.655409) vcan0 07D#0038B8F01D20C7F7
(1486048821.655463) vcan0 202#042B3000600004C7
(1486048821.655510) vcan0 082#6E08140089804000
(1486048821.656333) vcan0 085#7B76800049307C46
(1486048821.656405) vcan0 204#C0007D0172000000
(1486048821.656455) vcan0 213#FFFF00040001FD40
(1486048821.656500) vcan0 214#000000000000F0F0
(1486048821.657333) vcan0 216#4B75705F00000000
(1486048821.657404) vcan0 217#0410040804140410
(1486048821.657455) vcan0 3D8#0000000080456030
(1486048821.657500) vcan0 3CD#0000000000000000
(1486048821.658334) vcan0 415#04BECC3707D007D0
(1486048821.658402) vcan0 41D#8000000000000000
(1486048821.658453) vcan0 4B0#01008000F001C0B8
(1486048821.659825) vcan0 5B3#B300FFFFFFFFFFFF
(1486048821.660829) vcan0 081#0000000000000000
(1486048821.660896) vcan0 083#4020000008000000
(1486048821.660945) vcan0 2A1#FFFFFFFF00000000
(1486048821.660989) vcan0 3E6#0001040880000000
(1486048821.661960) vcan0 186#1404016100110400
(1486048821.662029) vcan0 187#DA1408C800900300
(1486048821.663205) vcan0 091#7EA27E8D418DF000
(1486048821.664218) vcan0 092#6F936F887376A78D
(1486048821.664285) vcan0 047#2000000000000000
(1486048821.664333) vcan0 165#20C0000000000000
(1486048821.665212) vcan0 217#040C040C04140410
(1486048821.665281) vcan0 167#72800C10001A0300
(1486048821.665329) vcan0 200#0000800D800D0000
(1486048821.665374) vcan0 078#0068000000000000
(1486048821.666213) vcan0 085#7B76800048407C46
(1486048821.666282) vcan0 202#042C3800600004C5
(1486048821.666333) vcan0 204#C0007D0171000000
(1486048821.666381) vcan0 230#300600008F000000
(1486048821.666427) vcan0 42F#7D04002E66110170
(1486048821.667322) vcan0 3CA#FE80080000000000
(1486048821.670709) vcan0 3A8#0100263E00000000
(1486048821.673437) vcan0 091#7E8F7E914F8EF000
(1486048821.674601) vcan0 092#6F926F90736AAB8E
(1486048821.674680) vcan0 167#72800C10001A0400
(1486048821.674737) vcan0 076#3DAFC0800FFF0000
(1486048821.674786) vcan0 077#04D507DF7FF7FDF3
(1486048821.675592) vcan0 07D#003AC5001D1FA7E7
(1486048821.675660) vcan0 202#042C4000600004C4
(1486048821.675712) vcan0 082#6A08140089804000
(1486048821.675759) vcan0 085#7B75800049507C45
(1486048821.676586) vcan0 204#C0007D0171000000
(1486048821.676650) vcan0 213#FFFF00040001FC40
(1486048821.676703) vcan0 214#000000000000FF00
(1486048821.676751) vcan0 216#5079746300000000
(1486048821.677583) vcan0 217#0408040C0410040C
(1486048821.677651) vcan0 261#0000000000000000
(1486048821.677698) vcan0 3CC#1000000000000000
(1486048821.677745) vcan0 415#04B9D03B07D107D1
(1486048821.678582) vcan0 41D#8000000000000000
(1486048821.678647) vcan0 4B0#010080000001D0C5
(1486048821.681238) vcan0 186#1404016100100400
(1486048821.682174) vcan0 187#D91408C800A00300
(1486048821.683458) vcan0 091#7E867E96528FF000
(1486048821.684460) vcan0 092#6F996F8C7366AB8F
(1486048821.684529) vcan0 242#05B32010CE000001
(1486048821.684582) vcan0 047#2000000000000000
(1486048821.684627) vcan0 165#20C0000000000000
(1486048821.685586) vcan0 167#72800D10001A0400
(1486048821.685653) vcan0 200#0000800D800D0000
(1486048821.685703) vcan0 078#0168800000000000
(1486048821.685751) vcan0 085#7B75800047607C46
(1486048821.686589) vcan0 202#042D4800600004C2
(1486048821.686658) vcan0 204#C0007D0171000000
(1486048821.686707) vcan0 217#0408040C0410040C
(1486048821.686754) vcan0 230#300600008F000000
(1486048821.690578) vcan0 3A8#0100264000000000
(1486048821.693387) vcan0 091#7E877E9B4B90F000
(1486048821.694354) vcan0 092#6FA56F84736BA190
(1486048821.694409) vcan0 167#72800D10001A0400
(1486048821.694455) vcan0 076#3DAFC0800FFF0000
(1486048821.694496) vcan0 077#04D207E27FF7FDF6
(1486048821.695363) vcan0 07D#003AC4101C9F77DE
(1486048821.695415) vcan0 202#042E5000600004C0
(1486048821.695463) vcan0 082#6908140089804000
(1486048821.695507) vcan0 085#7B75800046707C46
(1486048821.696477) vcan0 204#C0007D0171000000
(1486048821.696524) vcan0 213#FFFF00040001FB40
(1486048821.696571) vcan0 214#000000000000FE10
(1486048821.696618) vcan0 216#547D796800000000
(1486048821.697475) vcan0 217#0408040C0410040C
(1486048821.697552) vcan0 415#04B8D43B07D207D2
(1486048821.697619) vcan0 3CA#FE80080000000000
(1486048821.697680) vcan0 41D#8000000000000000
(1486048821.698567) vcan0 05D#8358BF5F2E000000
(1486048821.698662) vcan0 42F#7D04002E66110170
(1486048821.698750) vcan0 4B0#010080001001D0C4
(1486048821.699866) vcan0 33B#0000000000000000
(1486048821.700858) vcan0 186#1401016100100400
(1486048821.701945) vcan0 187#D91408C800A00300
(1486048821.702084) vcan0 18A#0020180111000000
(1486048821.703390) vcan0 091#7E937E9E3B91F000
(1486048821.704414) vcan0 092#6FAE6F80736F9791
(1486048821.704491) vcan0 047#2000000000000000
(1486048821.704549) vcan0 217#0408040804140410
(1486048821.705558) vcan0 05C#80B000F0201E0000
(1486048821.705634) vcan0 078#0168800000000000
(1486048821.705692) vcan0 085#7B75800045807C46
(1486048821.705747) vcan0 165#20C0000000000000
(1486048821.706540) vcan0 167#72800C10001A0400
(1486048821.706616) vcan0 200#0000800D800D0000
(1486048821.706673) vcan0 202#042E5800600004BF
(1486048821.706729) vcan0 204#C0007D0170000000
(1486048821.707488) vcan0 230#300600008F000000
(1486048821.707552) vcan0 3CC#1000000000000000
(1486048821.707608) vcan0 42C#8C20000008C00000
(1486048821.709889) vcan0 3A8#0100264000000000
(1486048821.713346) vcan0 091#7EA87EA22192F000
(1486048821.714511) vcan0 092#6FB06F8473699692
(1486048821.714580) vcan0 167#72800C10001A0400
(1486048821.714626) vcan0 202#042E6000600004BE
(1486048821.714671) vcan0 076#3DAEC0800FFF0000
(1486048821.715407) vcan0 077#04D107E47FF80DF2
(1486048821.715467) vcan0 07D#0038C5201C9F77E2
(1486048821.715514) vcan0 082#680814008A804000
(1486048821.715557) vcan0 085#7B75800044907C46
(1486048821.716474) vcan0 204#C0007D0170000000
(1486048821.716517) vcan0 213#FFFF00040001FC40
(1486048821.716557) vcan0 214#000000000000FD20
(1486048821.716596) vcan0 216#58827D6C00000000
(1486048821.717466) vcan0 217#040C0404041C0410
(1486048821.717510) vcan0 415#04B7D83B07D207D2
(1486048821.717550) vcan0 416#5E00F00001000000
(1486048821.717589) vcan0 41D#8000000000000000
(1486048821.718440) vcan0 4B0#010080002001C0C5
(1486048821.719452) vcan0 455#A000000000000000
(1486048821.720452) vcan0 186#1401016100100400
(1486048821.721477) vcan0 187#D91408C800A00300
(1486048821.723471) vcan0 091#7EC67EA40093F000
(1486048821.724602) vcan0 092#6FAC6F8C735D9D93
(1486048821.724657) vcan0 047#2000000000000000
(1486048821.724693) vcan0 05A#00000045EC810000
(1486048821.724728) vcan0 165#20C0000000000000
(1486048821.725597) vcan0 217#0410040404200414
(1486048821.725650) vcan0 078#0068000000000000
(1486048821.725688) vcan0 085#7B75800043A07C46
(1486048821.725722) vcan0 167#72800C10001A0400
(1486048821.726452) vcan0 178#000001FF0E73CA73
(1486048821.726487) vcan0 200#0000800E800E0000
(1486048821.726519) vcan0 202#042F6800600004BC
(1486048821.727440) vcan0 204#C0007D0170000000
(1486048821.727473) vcan0 3CA#FE80080000000000
(1486048821.727502) vcan0 230#300600008F000000
(1486048821.727531) vcan0 242#05B32010CE000001
(1486048821.728437) vcan0 261#0000000000000000
(1486048821.729451) vcan0 42F#7D04002E66110170
(1486048821.730455) vcan0 3A8#0100263E00000000
(1486048821.733474) vcan0 091#7EE67EA0E394F000
(1486048821.734474) vcan0 092#6FA06F94734FAE94
(1486048821.734510) vcan0 167#72800C10001A0400
(1486048821.734541) vcan0 202#042F7000600004BB
(1486048821.734572) vcan0 076#3DAEC0800FFF0000
(1486048821.735599) vcan0 077#04D107E67FF819F2
(1486048821.735653) vcan0 07D#003AC2301C9F67F2
(1486048821.735689) vcan0 082#6708140089804000
(1486048821.735723) vcan0 085#7B75800042B07C46
(1486048821.736450) vcan0 204#C0007D0170000000
(1486048821.736485) vcan0 213#FFFF00040001FC40
(1486048821.736515) vcan0 214#000000000000FC30
(1486048821.736548) vcan0 216#5D86817000000000
(1486048821.737443) vcan0 217#0414040404200418
(1486048821.737477) vcan0 3CC#1000000000000000
(1486048821.737507) vcan0 415#04B8DC3907D307D3
(1486048821.737537) vcan0 41D#8000000000000000
(1486048821.738477) vcan0 4B0#010080003001D0C2
(1486048821.740191) vcan0 186#13FB016100100400
(1486048821.741327) vcan0 187#D91408C800A00300
(1486048821.742970) vcan0 04A#0200000000000000
(1486048821.744109) vcan0 04B#00C0D8D8D8D8C000
(1486048821.744143) vcan0 04C#105FFFC000000000
(1486048821.744175) vcan0 091#7EFC7E95D795F000
(1486048821.744207) vcan0 047#2000000000000000
(1486048821.745220) vcan0 092#6F956F9C7344BB95
(1486048821.745277) vcan0 217#0414040404200414
(1486048821.745316) vcan0 165#20C0000000000000
(1486048821.745351) vcan0 085#7B75800041C07C46
(1486048821.746095) vcan0 078#0569800000000000
(1486048821.746131) vcan0 167#72800D10001A0400
(1486048821.746162) vcan0 200#0000800E800E0000
(1486048821.746192) vcan0 422#000000923802FE02
(1486048821.747066) vcan0 202#042E7800600004BB
(1486048821.747099) vcan0 204#C0007D0170000000
(1486048821.747128) vcan0 423#9C20000000000000
(1486048821.747157) vcan0 230#300600008F000000
(1486048821.748064) vcan0 430#37000CE7C886F700
(1486048821.750078) vcan0 3A8#0100263E00000000
(1486048821.753080) vcan0 091#7F077E8AD596F000
(1486048821.754100) vcan0 092#6F8E6FA0733DC496
(1486048821.754137) vcan0 167#72800D10001A0400
(1486048821.754168) vcan0 076#3DAEC0800FFF0000
(1486048821.755224) vcan0 077#04D207E57FF809F7
(1486048821.755277) vcan0 07D#0038C3401C9EF7FC
(1486048821.755315) vcan0 202#043E0000600004BA
(1486048821.755349) vcan0 082#6608140089804000
(1486048821.756088) vcan0 085#7B75800040D07C46
(1486048821.756123) vcan0 204#C0007D016E000000
(1486048821.756154) vcan0 213#FFFF00040001FD40
(1486048821.756184) vcan0 214#000000000000FB40
(1486048821.757067) vcan0 216#618A867400000000
(1486048821.757101) vcan0 217#04140404041C0414
(1486048821.757131) vcan0 415#04BDE03307D307D3
(1486048821.757160) vcan0 3CA#FE80080000000000
(1486048821.758068) vcan0 41D#8000000000000000
(1486048821.758100) vcan0 42C#8C20000008C00000
(1486048821.758130) vcan0 42F#7D04002E66120170
(1486048821.758161) vcan0 4B0#010080004001C0C3
(1486048821.759812) vcan0 083#4020000008000000
(1486048821.760814) vcan0 2A1#FFFFFFFF00000000
(1486048821.760847) vcan0 33B#0000000000000000
(1486048821.760876) vcan0 186#13F5016100100400
(1486048821.760906) vcan0 187#D91408C800A00300
(1486048821.763066) vcan0 091#7F047E80E197F000
(1486048821.764099) vcan0 092#6F876F9D7340CA97
(1486048821.764134) vcan0 047#2000000000000000
(1486048821.764165) vcan0 165#20C0000000000000
(1486048821.765220) vcan0 217#0414040404140410
(1486048821.765274) vcan0 167#72800C10001A0500
(1486048821.765312) vcan0 078#0168800000000000
(1486048821.765347) vcan0 085#7B7580003FE07C46
(1486048821.766091) vcan0 200#0000800E800E0000
(1486048821.766124) vcan0 202#043D0800600004BA
(1486048821.766156) vcan0 204#C0007D016E000000
(1486048821.766185) vcan0 230#300600008F000000
(1486048821.767065) vcan0 242#05B32013CE000001
(1486048821.767098) vcan0 3CC#1000000000000000
(1486048821.770939) vcan0 3A8#0100263E00000000
(1486048821.773454) vcan0 091#7EF67E7AF598F000
(1486048821.774475) vcan0 092#6F7F6F8E734DD398
(1486048821.774512) vcan0 167#72800E10001A0400
(1486048821.774545) vcan0 076#3DAEC0800FFF0000
(1486048821.774577) vcan0 077#04D307DB7FF7F1FA
(1486048821.775599) vcan0 07D#003AC0501C9EB804
(1486048821.775653) vcan0 202#043B1000600004BB
(1486048821.775690) vcan0 082#6808140089804000
(1486048821.775723) vcan0 085#7B7580003EF07C46
(1486048821.776464) vcan0 204#C0007D016E000000
(1486048821.776498) vcan0 213#FFFF00040001FE40
(1486048821.776528) vcan0 214#000000000000FA50
(1486048821.776559) vcan0 216#658E8A7900000000
(1486048821.777441) vcan0 217#04140408040C040C
(1486048821.777474) vcan0 261#0000000000000000
(1486048821.777504) vcan0 415#04BEE43107D407D4
(1486048821.777535) vcan0 41D#8000000000000000
(1486048821.778441) vcan0 4B0#010080005001D0C0
(1486048821.780202) vcan0 186#13EE016200100400
(1486048821.781202) vcan0 187#D81408C800B00300
(1486048821.783478) vcan0 091#7EE77E790499F000
(1486048821.784475) vcan0 092#6F776F7B7362D899
(1486048821.784510) vcan0 047#2000000000000000
(1486048821.784542) vcan0 165#20C0000000000000
(1486048821.784573) vcan0 167#72800E10001A0400
(1486048821.785595) vcan0 217#0414040804040408
(1486048821.785648) vcan0 078#0068000000000000
(1486048821.785686) vcan0 085#7B7580004D007C46
(1486048821.785720) vcan0 200#0000800E800E0000
(1486048821.786467) vcan0 202#043A1800600004BB
(1486048821.786502) vcan0 204#C0007D016E000000
(1486048821.786532) vcan0 230#300600008F000000
(1486048821.786561) vcan0 42F#7D04002E66120170
(1486048821.787439) vcan0 3CA#FE80080000000000
(1486048821.789944) vcan0 3A8#0100263E00000000
(1486048821.793442) vcan0 091#7EDB7E790F9AF000
(1486048821.794475) vcan0 092#6F6E6F6B7376DC9A
(1486048821.794512) vcan0 167#72800D10001A0400
(1486048821.794545) vcan0 076#3DAEC0800FFF0000
(1486048821.794577) vcan0 077#04D407D97FF7E9F5
(1486048821.795600) vcan0 07D#003ABF601D1EE7FC
(1486048821.795653) vcan0 202#04382000600004BC
(1486048821.795691) vcan0 082#6908140089804000
(1486048821.795725) vcan0 085#7B7580004C107C46
(1486048821.796464) vcan0 204#C0007D016E000000
(1486048821.796497) vcan0 213#FFFF00040001FE40
(1486048821.796527) vcan0 214#000000000000F960
(1486048821.796558) vcan0 216#6A938E7C00000000
(1486048821.797440) vcan0 217#0414040804080404
(1486048821.797474) vcan0 3CC#1000000000000000
(1486048821.797503) vcan0 415#04BFE82F07D407D4
(1486048821.797533) vcan0 41D#8000000000000000
(1486048821.798439) vcan0 05D#8358A75F34000000
(1486048821.798472) vcan0 4B0#010080006001D0BF
(1486048821.799814) vcan0 186#13EC016200100400
(1486048821.800834) vcan0 187#D81408C800B00300
(1486048821.800860) vcan0 18A#0020180111000000
(1486048821.803100) vcan0 091#7ED07E781A9BF000
(1486048821.804095) vcan0 092#6F686F667383D99B
(1486048821.804120) vcan0 047#2000000000000000
(1486048821.804143) vcan0 05C#805000F6201E0000
(1486048821.805224) vcan0 217#0414040804100404
(1486048821.805264) vcan0 165#20C0000000000000
(1486048821.805288) vcan0 167#72800D10001A0500
(1486048821.805312) vcan0 078#0168800000000000
(1486048821.806144) vcan0 085#7B7680004A207C46
(1486048821.806179) vcan0 200#0000800E800E0000
(1486048821.806203) vcan0 202#04372800600004BC
(1486048821.806227) vcan0 204#C0007D016E000000
(1486048821.807135) vcan0 230#300600008F000000
(1486048821.807167) vcan0 242#05B3200FCE000001
(1486048821.807197) vcan0 3A7#0E423A045F700000
(1486048821.807220) vcan0 3B3#4048020F10050002
(1486048821.808129) vcan0 40A#C110409060250000
(1486048821.808163) vcan0 42C#8C20000008C00000
(1486048821.810749) vcan0 3A8#0100263E00000000
(1486048821.813591) vcan0 091#7EBE7E752E9CF000
(1486048821.814556) vcan0 092#6F666F727385CC9C
(1486048821.814596) vcan0 167#72800D10001A0500
(1486048821.814619) vcan0 076#3DAEC0800FFF0000
(1486048821.814642) vcan0 077#04D207D87FF7CDEA
(1486048821.815599) vcan0 07D#003ABE701D1FE7F5
(1486048821.815638) vcan0 202#04363000600004BC
(1486048821.815667) vcan0 082#6908140089804000
(1486048821.815691) vcan0 085#7B77800048307C46
(1486048821.816507) vcan0 204#C0007D016E000000
(1486048821.816540) vcan0 213#FFFF00040001FD40
(1486048821.816569) vcan0 214#000000000000F870
(1486048821.816594) vcan0 216#6C97928000000000
(1486048821.817486) vcan0 217#041404040414040C
(1486048821.817521) vcan0 3A6#0E401A045F700000
(1486048821.817545) vcan0 3CA#FE80080000000000
(1486048821.817569) vcan0 415#04BEEC2F07D407D4
(1486048821.818489) vcan0 416#5F00EF0001000000
(1486048821.818524) vcan0 41D#8000000000000000
(1486048821.818549) vcan0 42F#7D04002E66120170
(1486048821.818572) vcan0 4B0#010080007001D0BE
(1486048821.819480) vcan0 455#A000000000000000
(1486048821.820454) vcan0 186#13EC016200100400
(1486048821.820481) vcan0 187#D81408C800B00300
(1486048821.820503) vcan0 33B#0000000000000000
(1486048821.823504) vcan0 091#7EAA7E72449DF000
(1486048821.824497) vcan0 092#6F656F8A737ABF9D
(1486048821.824534) vcan0 047#2000000000000000
(1486048821.824558) vcan0 05A#00000045F2210000
(1486048821.824583) vcan0 165#20C0000000000000
(1486048821.825503) vcan0 078#0168800000000000
(1486048821.825535) vcan0 217#04140404041C0410
(1486048821.825561) vcan0 085#7B78800046407C46
(1486048821.825585) vcan0 167#72800F10001A0500
(1486048821.826508) vcan0 178#000001FF0E73CA73
(1486048821.826540) vcan0 3CC#1000000000000000
(1486048821.826563) vcan0 200#0000800E800E0000
(1486048821.826585) vcan0 202#04353800600004BC
(1486048821.827492) vcan0 204#C0007D016E000000
(1486048821.827525) vcan0 230#300600008F000000
(1486048821.827547) vcan0 261#0000000000000000
(1486048821.829896) vcan0 3A8#0100263E00000000
(1486048821.833591) vcan0 091#7E987E6E599EF000
(1486048821.834486) vcan0 092#6F6F6FA07367B19E
(1486048821.834527) vcan0 167#72800E10001A0400
(1486048821.834570) vcan0 076#3DAFC0800FFF0000
(1486048821.834603) vcan0 077#04D007D67FF7CDED
(1486048821.835505) vcan0 07D#003ABD801D1FE7E9
(1486048821.835551) vcan0 202#04334000600004BD
(1486048821.835588) vcan0 082#6A08140089804000
(1486048821.835622) vcan0 085#7B79800044507C46
(1486048821.836585) vcan0 204#C0007D016A000000
(1486048821.836621) vcan0 213#FFFF00040001FC40
(1486048821.836653) vcan0 214#000000000000F780
(1486048821.836684) vcan0 216#719B978400000000
(1486048821.837566) vcan0 217#041404040420040C
(1486048821.837600) vcan0 415#04BDF02F07D407D4
(1486048821.837631) vcan0 41D#8000000000000000
(1486048821.837660) vcan0 4B0#010080008001D0BD
(1486048821.839439) vcan0 186#13EB016200100400
(1486048821.840451) vcan0 187#D81408C800B00300
(1486048821.843454) vcan0 04A#0200000000000000
(1486048821.844503) vcan0 04B#00C0D8D8D8D8C000
(1486048821.844535) vcan0 047#2000000000000000
(1486048821.844558) vcan0 04C#105FFFC000000000
(1486048821.844582) vcan0 091#7E877E6B6C9FF000
(1486048821.845504) vcan0 092#6F7D6FAA7350AF9F
(1486048821.845537) vcan0 165#20C0000000000000
(1486048821.845560) vcan0 078#0469000000000000
(1486048821.845584) vcan0 085#7B79800044607C45
(1486048821.846599) vcan0 167#72800E10001A0400
(1486048821.846636) vcan0 217#041004080420040C
(1486048821.846663) vcan0 200#0000800F800F0000
(1486048821.846689) vcan0 422#000000923802FE02
(1486048821.847595) vcan0 202#04324800600004BD
(1486048821.847635) vcan0 204#C0007D016A000000
(1486048821.847659) vcan0 3CA#FE80080000000000
(1486048821.847682) vcan0 230#300600008F000000
(1486048821.848505) vcan0 423#9C20000000000000
(1486048821.848538) vcan0 242#05B3200ECE000001
(1486048821.848564) vcan0 42F#7D04002E66120170
(1486048821.848588) vcan0 430#37000CE7C8867700
(1486048821.850485) vcan0 3A8#0100264000000000
(1486048821.853338) vcan0 42C#8C20000008C00000
(1486048821.854348) vcan0 091#7E747E6A7FA0F000
(1486048821.854388) vcan0 092#6F896FA77342B3A0
(1486048821.854418) vcan0 167#72800D10001A0400
(1486048821.854460) vcan0 076#3DB1C0800FFF0000
(1486048821.855229) vcan0 077#04CF07D57FF7D5FA
(1486048821.855255) vcan0 07D#003ABC901D1F67E3
(1486048821.855279) vcan0 202#04315000600004BD
(1486048821.855304) vcan0 082#6C08140089804000
(1486048821.856389) vcan0 085#7B7A800041707C46
(1486048821.856424) vcan0 204#C0007D016A000000
(1486048821.856450) vcan0 213#FFFF00040001FD40
(1486048821.856476) vcan0 214#000000000000F690
(1486048821.857362) vcan0 216#75A09A8800000000
(1486048821.857397) vcan0 217#04100408041C0408
(1486048821.857423) vcan0 3CC#1000000000000000
(1486048821.857447) vcan0 415#04BEF42D07D407D4
(1486048821.858458) vcan0 41D#8000000000000000
(1486048821.858533) vcan0 4B0#010080009001D0BC
(1486048821.859708) vcan0 186#13F0016200100400
(1486048821.860710) vcan0 187#D81408C800B00300
(1486048821.860784) vcan0 083#4020000008000000
(1486048821.860841) vcan0 2A1#FFFFFFFF00000000
(1486048821.863594) vcan0 091#7E5F7E6796A1F000
(1486048821.864752) vcan0 092#6F966F987349ADA1
(1486048821.864850) vcan0 047#2000000000000000
(1486048821.864909) vcan0 165#20C0000000000000
(1486048821.864961) vcan0 167#72800D10001A0500
(1486048821.865535) vcan0 200#0000801080100000
(1486048821.865599) vcan0 078#0168800000000000
(1486048821.865654) vcan0 085#7B7C80003D807C47
(1486048821.865708) vcan0 202#04305800600004BD
(1486048821.866596) vcan0 204#C0007D016A000000
(1486048821.866670) vcan0 217#0410040804100404
(1486048821.866730) vcan0 230#300600008F000000
(1486048821.870986) vcan0 3A8#0100264100000000
(1486048821.873455) vcan0 091#7E497E64AEA2F000
(1486048821.874589) vcan0 092#6FA06F7E7357AEA2
(1486048821.874700) vcan0 167#72800D10001A0500
(1486048821.874765) vcan0 076#3DB2C0800FFF0000
(1486048821.874825) vcan0 077#04D007D37FF7F1FC
(1486048821.875591) vcan0 07D#0038BDA01C9EB7D2
(1486048821.875668) vcan0 202#042F6000600004BD
(1486048821.875726) vcan0 082#6708140089804000
(1486048821.875779) vcan0 085#7B7C80003D907C46
(1486048821.876588) vcan0 204#C0007D0168000000
(1486048821.876668) vcan0 213#FFFF00040001FE40
(1486048821.876726) vcan0 214#000000000000F5A0
(1486048821.876776) vcan0 216#79A39E8D00000000
(1486048821.877587) vcan0 217#0414040C04100400
(1486048821.877663) vcan0 261#0000000000000000
(1486048821.877717) vcan0 3CA#FE80080000000000
(1486048821.877765) vcan0 415#04BCF82E07D407D4
(1486048821.877851) vcan0 41D#8000000000000000
(1486048821.878580) vcan0 42F#7D04002E66120170
(1486048821.878653) vcan0 4B0#01008000A001C0BD
(1486048821.879579) vcan0 186#13F40162000F0400
(1486048821.880586) vcan0 187#D71408C800C00300
(1486048821.880660) vcan0 33B#0000000000000000
(1486048821.881597) vcan0 350#0000000000000000
(1486048821.882689) vcan0 3E0#0000000080000000
(1486048821.883707) vcan0 091#7E2E7E64C8A3F000
(1486048821.884711) vcan0 092#6FA06F647367B7A3
(1486048821.884817) vcan0 047#2000000000000000
(1486048821.884880) vcan0 165#20C0000000000000
(1486048821.884932) vcan0 167#72800E10001A0600
(1486048821.884985) vcan0 200#0000801080100000
(1486048821.885716) vcan0 202#042F6800600004BC
(1486048821.885793) vcan0 085#7B7B80003EA07C45
(1486048821.885889) vcan0 204#C0007D0168000000
(1486048821.885935) vcan0 078#0168800000000000
(1486048821.886704) vcan0 217#04140410040C0400
(1486048821.886776) vcan0 230#300600008F000000
(1486048821.886826) vcan0 242#05B32007CE000001
(1486048821.886878) vcan0 3CC#1000000000000000
(1486048821.891083) vcan0 3A8#0100264300000000
(1486048821.893386) vcan0 091#7E157E65DFA4F000
(1486048821.894357) vcan0 092#6F9E6F5A7378B1A4
(1486048821.894411) vcan0 167#72801010001A0600
(1486048821.894461) vcan0 202#042E7000600004BC
(1486048821.894510) vcan0 076#3DB5C0800FFF0000
(1486048821.895354) vcan0 077#04D207D27FF809F1
(1486048821.895403) vcan0 07D#0038BCB01C9F17C2
(1486048821.895451) vcan0 082#6D08140089804000
(1486048821.895498) vcan0 085#7B7B80003CB07C46
(1486048821.896502) vcan0 204#C0007D0168000000
(1486048821.896552) vcan0 213#FFFF00040001FF40
(1486048821.896601) vcan0 214#000000000000F4B0
(1486048821.896649) vcan0 216#7EA7A29100000000
(1486048821.897496) vcan0 217#0414041004080404
(1486048821.897548) vcan0 415#04C6FC2307D507D5
(1486048821.897597) vcan0 41D#8000000000000000
(1486048821.897642) vcan0 4B0#01008000B001C0BC
(1486048821.898533) vcan0 05D#83588F5F3A000000
(1486048821.899514) vcan0 186#13F30162000F0400
(1486048821.900782) vcan0 187#D71408C800C00300
(1486048821.900891) vcan0 18A#0020180111000000
(1486048821.903139) vcan0 091#7E097E64EBA5F000
(1486048821.904164) vcan0 092#6F9B6F6673819EA5
(1486048821.904243) vcan0 047#2000000000000000
(1486048821.904314) vcan0 05C#80F000EC201E0000
(1486048821.905165) vcan0 217#0414040C04080408
(1486048821.905242) vcan0 078#0068000000000000
(1486048821.905302) vcan0 165#20C0000000000000
(1486048821.905344) vcan0 167#72801010001A0600
(1486048821.906163) vcan0 085#7B7C80003AC07C46
(1486048821.906236) vcan0 200#0000801080100000
(1486048821.906278) vcan0 202#042B7800600004BE
(1486048821.906332) vcan0 204#C0007D0168000000
(1486048821.907116) vcan0 230#300600008F000000
(1486048821.907152) vcan0 42C#8C20000008C00000
(1486048821.907184) vcan0 42F#7D04002E6613016F
(1486048821.907232) vcan0 3CA#FE80080000000000
(1486048821.910012) vcan0 3A8#0100264600000000
(1486048821.913156) vcan0 091#7E0C7E63E8A6F000
(1486048821.914265) vcan0 092#6F9D6F7E738381A6
(1486048821.914339) vcan0 167#72800F10001A0600
(1486048821.914389) vcan0 202#04390000600004BF
(1486048821.915102) vcan0 076#3DB4C0800FFF0000
(1486048821.915155) vcan0 077#04D307D27FF805EA
(1486048821.915202) vcan0 07D#003AB9C01C9FD7B7
(1486048821.915248) vcan0 204#C0007D016B000000
(1486048821.916087) vcan0 082#6A08140089804000
(1486048821.916136) vcan0 085#7B7C800039D07C46
(1486048821.916180) vcan0 213#FFFF00040001FE40
(1486048821.916224) vcan0 214#000000000000F3C0
(1486048821.916268) vcan0 216#82ABA79500000000
(1486048821.917093) vcan0 217#0414040C04080408
(1486048821.917127) vcan0 3CC#1000000000000000
(1486048821.917158) vcan0 415#04C3C03507D507D5
(1486048821.917205) vcan0 416#5000FE0001000000
(1486048821.918095) vcan0 41D#8000000000000000
(1486048821.918130) vcan0 4B0#01008000C001D0B9
(1486048821.919136) vcan0 455#A000000000000000
(1486048821.919181) vcan0 186#13F30162000F0400
(1486048821.919217) vcan0 187#D71408C800C00300
(1486048821.923535) vcan0 091#7E1F7E61D6A7F000
(1486048821.924499) vcan0 092#6FA56F92737D6AA7
(1486048821.924554) vcan0 047#2000000000000000
(1486048821.924589) vcan0 05A#00000045E8C10000
(1486048821.924634) vcan0 165#20C0000000000000
(1486048821.925533) vcan0 078#0168800000000000
(1486048821.925598) vcan0 167#72800F10001A0600
(1486048821.925636) vcan0 085#7B7B800039E07C46
(1486048821.925686) vcan0 178#000002000E73CA73
(1486048821.926536) vcan0 217#040C04100408040C
(1486048821.926602) vcan0 200#0000801180110000
(1486048821.926654) vcan0 202#04370800600004C0
(1486048821.926702) vcan0 204#C0007D016B000000
(1486048821.927534) vcan0 230#300600008F000000
(1486048821.927580) vcan0 242#05B3200BCE000001
(1486048821.927636) vcan0 261#0000000000000000
(1486048821.931032) vcan0 3A8#0100264400000000
(1486048821.933402) vcan0 091#7E437E64AEA8F000
(1486048821.934377) vcan0 092#6FA96F9A737466A8
(1486048821.934432) vcan0 167#72800F10001A0600
(1486048821.934467) vcan0 076#3DB5C0800FFF0000
(1486048821.934512) vcan0 077#04D107D17FF805F1
(1486048821.935533) vcan0 07D#003AB8D01C9FE7BD
(1486048821.935598) vcan0 202#04361000600004C0
(1486048821.935651) vcan0 082#6708140089804000
(1486048821.935699) vcan0 085#7B7A80003AF07C45
(1486048821.936476) vcan0 204#C0007D016B000000
(1486048821.936511) vcan0 213#FFFF00040001FF40
(1486048821.936560) vcan0 214#000000000000F2D0
(1486048821.936607) vcan0 216#86AFAB9A00000000
(1486048821.937470) vcan0 217#04080414040C040C
(1486048821.937519) vcan0 415#04BFC43807D507D5
(1486048821.937564) vcan0 3CA#FE80080000000000
(1486048821.937595) vcan0 41D#8000000000000000
(1486048821.937626) vcan0 42F#7D04002E6613016F
(1486048821.938464) vcan0 4B0#01008000D001D0B8
(1486048821.939468) vcan0 186#13F00162000F0400
(1486048821.939517) vcan0 187#D71408C800C00300
(1486048821.940603) vcan0 33B#0000000000000000
(1486048821.943115) vcan0 04A#0200000000000000
(1486048821.944114) vcan0 04B#00C0D8D8D8D8C000
(1486048821.944148) vcan0 04C#105FFFC000000000
(1486048821.944178) vcan0 047#2000000000000000
(1486048821.944208) vcan0 091#7E807E6C68A9F000
(1486048821.945118) vcan0 092#6FA96F9C737067A9
(1486048821.945169) vcan0 217#0408040C0410040C
(1486048821.945211) vcan0 078#0569800000000000
(1486048821.945251) vcan0 085#7B7A800049007C45
(1486048821.946159) vcan0 165#20C0000000000000
(1486048821.946229) vcan0 167#72801010001A0600
(1486048821.946284) vcan0 3CC#1000000000000000
(1486048821.946333) vcan0 422#000000923802FE02
(1486048821.947110) vcan0 423#9C20000000000000
(1486048821.947162) vcan0 200#0000801080100000
(1486048821.947211) vcan0 202#04351800600004C0
(1486048821.947259) vcan0 204#C0007D016B000000
(1486048821.948100) vcan0 230#300600008F000000
(1486048821.948151) vcan0 430#37000CE7C8867700
(1486048821.951099) vcan0 3A8#0100264600000000
(1486048821.953501) vcan0 091#7ED87E7A01AAF000
(1486048821.954503) vcan0 092#6FA26F9B736F6FAA
(1486048821.954548) vcan0 42C#8C20000008C00000
(1486048821.954582) vcan0 076#3DB4C0800FFF0000
(1486048821.954615) vcan0 077#04D207D27FF811F9
(1486048821.955449) vcan0 07D#003BB6E01D1FA7C9
(1486048821.955484) vcan0 167#72800F10001A0600
(1486048821.955516) vcan0 082#6208140489804000
(1486048821.955546) vcan0 085#7B79800049107C45
(1486048821.956457) vcan0 202#04352000600004BF
(1486048821.956491) vcan0 204#C0007D016E000000
(1486048821.956522) vcan0 213#FFFF00040001FF40
(1486048821.956550) vcan0 214#000000000000F1E0
(1486048821.957438) vcan0 216#8AB4AF9E00000000
(1486048821.957471) vcan0 217#040C04040414040C
(1486048821.957501) vcan0 415#04BAC83C07D507D5
(1486048821.957530) vcan0 41D#8000000000000000
(1486048821.958438) vcan0 4B0#01008000E001D8B6
(1486048821.959590) vcan0 186#13F30162000F0400
(1486048821.959642) vcan0 187#D71408C800C00300
(1486048821.960477) vcan0 083#4020000008000000
(1486048821.960511) vcan0 2A1#FFFFFFFF00000000
(1486048821.963464) vcan0 091#7F3A7E8B8CABF000
(1486048821.964594) vcan0 092#6F986F93736C83AB
(1486048821.964646) vcan0 047#2000000000000000
(1486048821.964680) vcan0 217#041803FC0414040C
(1486048821.964713) vcan0 078#0068000000000000
(1486048821.965487) vcan0 165#20C0000000000000
(1486048821.965522) vcan0 167#72800F10001A0600
(1486048821.965562) vcan0 085#7B78800049207C45
(1486048821.965595) vcan0 200#0000801080100000
(1486048821.966443) vcan0 202#04352800600004BE
(1486048821.966479) vcan0 204#C0007D016E000000
(1486048821.966510) vcan0 230#300600008F000000
(1486048821.967438) vcan0 242#05B3200BCE000001
(1486048821.967471) vcan0 3CA#FE80080000000000
(1486048821.967503) vcan0 42F#7D04002E6613016F
(1486048821.969937) vcan0 3A8#0100264400000000
(1486048821.973328) vcan0 091#7F907E9B25ACF000
(1486048821.974470) vcan0 092#6F846F87736DA1AC
(1486048821.974505) vcan0 167#72801010001A0600
(1486048821.974537) vcan0 076#3DB3C0800FFF0000
(1486048821.974570) vcan0 077#04D307DE7FF809F9
(1486048821.975452) vcan0 07D#003BB5F01D1F8815
(1486048821.975486) vcan0 202#04343000600004BE
(1486048821.975516) vcan0 082#6B08140089804000
(1486048821.975557) vcan0 085#7B78800047307C46
(1486048821.976439) vcan0 204#C0007D016E000000
(1486048821.976471) vcan0 213#FFFF00040001FF40
(1486048821.976500) vcan0 214#000000000000F0F0
(1486048821.976530) vcan0 216#8FB8B3A200000000
(1486048821.977437) vcan0 217#042003FC04140404
(1486048821.977470) vcan0 261#0000000000000000
(1486048821.977499) vcan0 3CC#1000000000000000
(1486048821.977527) vcan0 415#04B8CC3D07D507D5
(1486048821.978437) vcan0 41D#8000000000000000
(1486048821.978468) vcan0 4B0#01008000F001D8B5
(1486048821.979445) vcan0 186#13F90162000F0400
(1486048821.979471) vcan0 187#D61408C800D00300
(1486048821.983052) vcan0 091#7FC57EA6E4ADF000
(1486048821.984100) vcan0 092#6F5D6F7B7376CAAD
(1486048821.984124) vcan0 047#2000000000000000
(1486048821.984147) vcan0 165#20C0000000000000
(1486048821.985097) vcan0 078#0168800000000000
(1486048821.985122) vcan0 167#72801010001A0600
(1486048821.985142) vcan0 200#0000800F800F0000
(1486048821.985165) vcan0 085#7B78800047407C45
(1486048821.986220) vcan0 202#04343800600004BD
(1486048821.986259) vcan0 204#C0007D016E000000
(1486048821.986283) vcan0 217#042403FC04140404
(1486048821.986307) vcan0 230#300600008F000000
(1486048821.991126) vcan0 3A8#0100264400000000
(1486048821.993590) vcan0 091#7FD87EA7CFAEF000
(1486048821.994594) vcan0 092#6F396F77737FE8AE
(1486048821.994636) vcan0 167#72801010001A0600
(1486048821.994660) vcan0 076#3DB1C0800FFF0000
(1486048821.994684) vcan0 077#04D607E77FF7C1F0
(1486048821.995599) vcan0 07D#003BC4001D9FA840
(1486048821.995639) vcan0 202#04344000600004BC
(1486048821.995667) vcan0 082#6408140889804000
(1486048821.995705) vcan0 085#7B79800044507C46
(1486048821.996486) vcan0 204#C0007D016F000000
(1486048821.996513) vcan0 213#FFFF00040001FF40
(1486048821.996534) vcan0 214#000000000000FF00
(1486048821.996559) vcan0 216#93BCB8A700000000
(1486048821.997503) vcan0 217#04240408041003FC
(1486048821.997537) vcan0 3CA#FE80080000000000
(1486048821.997562) vcan0 415#04C3D03107D507D5
(1486048821.997587) vcan0 41D#8000000000000000
(1486048821.998486) vcan0 05D#8359B7602E000000
(1486048821.998521) vcan0 42F#7D04002E6613016F
(1486048821.998546) vcan0 4B0#010080000001D8C4
(1486048821.999609) vcan0 186#13FA0162000F0400
(1486048821.999643) vcan0 187#D61408C800D00300
(1486048821.999668) vcan0 18A#0020180111000000
(1486048822.000626) vcan0 33B#0000000000000000
(1486048822.003505) vcan0 091#7FC67E9FE8AFF000
(1486048822.004592) vcan0 092#6F296F7A7383F0AF
(1486048822.004632) vcan0 047#2000000000000000
(1486048822.004656) vcan0 05C#809000F2201E0000
(1486048822.004680) vcan0 078#0168800000000000
(1486048822.005505) vcan0 165#20C0000000000000
(1486048822.005538) vcan0 167#72801010001A0500
(1486048822.005565) vcan0 085#7B79800043607C46
(1486048822.005592) vcan0 200#0000800F800F0000
(1486048822.006509) vcan0 202#04324800600004BD
(1486048822.006544) vcan0 204#C0007D016F000000
(1486048822.006569) vcan0 217#04180410041003F8
(1486048822.006594) vcan0 230#300600008F000000
(1486048822.007509) vcan0 242#05B3200ECE000001
(1486048822.007544) vcan0 3A7#0E423A045F700000
(1486048822.007569) vcan0 3CC#1000000000000000
(1486048822.007593) vcan0 40A#C00000074098D200
(1486048822.008479) vcan0 42C#8C20000008C00000
(1486048822.009877) vcan0 3A8#0100264100000000
(1486048822.013506) vcan0 091#7F8D7E9827B0F000
(1486048822.014502) vcan0 092#6F336F80737FE3B0
(1486048822.014536) vcan0 167#72800E10001A0500
(1486048822.014564) vcan0 076#3DB1C0800FFF0000
(1486048822.014587) vcan0 077#04D607E57FF799EF
(1486048822.015502) vcan0 07D#003BC3101D9FD841
(1486048822.015536) vcan0 202#04305000600004BE
(1486048822.015564) vcan0 082#6608140089804000
(1486048822.015588) vcan0 085#7B78800044707C45
(1486048822.016501) vcan0 204#C0007D016F000000
(1486048822.016533) vcan0 213#FFFF00040001FF40
(1486048822.016556) vcan0 214#000000000000FE10
(1486048822.016581) vcan0 216#96C1BCAB00000000
(1486048822.017508) vcan0 217#04100410041003FC
(1486048822.017542) vcan0 3A6#0E401A045F700000
(1486048822.017567) vcan0 415#04C6D42D07D507D5
(1486048822.017592) vcan0 416#5100FD0001000000
(1486048822.018506) vcan0 41D#8000000000000000
(1486048822.018539) vcan0 4B0#010080001001D8C3
(1486048822.018567) vcan0 186#13FA0162000F0400
(1486048822.019479) vcan0 187#D61408C800D00300
(1486048822.019512) vcan0 455#A000000000000000
(1486048822.023482) vcan0 091#7F3F7E9676B1F000
(1486048822.024591) vcan0 092#6F4D6F83737BC9B1
(1486048822.024631) vcan0 047#2000000000000000
(1486048822.024654) vcan0 05A#00000045EE610000
(1486048822.024679) vcan0 078#0068000000000000
(1486048822.025504) vcan0 165#20C0000000000000
(1486048822.025536) vcan0 167#72800E10001A0500
(1486048822.025561) vcan0 085#7B78800042807C46
(1486048822.025586) vcan0 217#0408040C040C03FC
(1486048822.026507) vcan0 178#000002010E73CA73
(1486048822.026542) vcan0 200#0000800F800F0000
(1486048822.026567) vcan0 202#042E5800600004BF
(1486048822.027483) vcan0 204#C0007D016F000000
(1486048822.027516) vcan0 3CA#FE80080000000000
(1486048822.027542) vcan0 188#4000000000000000
(1486048822.027566) vcan0 230#300600008F000000
(1486048822.028479) vcan0 261#0000000000000000
(1486048822.028513) vcan0 42F#7D04002E6613016F
(1486048822.030854) vcan0 3A8#0100264100000000
(1486048822.033481) vcan0 091#7EF47E99BEB2F000
(1486048822.034603) vcan0 092#6F656F857375B4B2
(1486048822.034644) vcan0 167#72800E10001A0500
(1486048822.034668) vcan0 076#3DB2C0800FFF0000
(1486048822.034693) vcan0 077#04D407E27FF791F1
(1486048822.035632) vcan0 07D#003BC2201D9FD816
(1486048822.035665) vcan0 202#042C6000600004C0
(1486048822.035691) vcan0 082#6608140089804000
(1486048822.035715) vcan0 085#7B78800041907C46
(1486048822.036610) vcan0 204#C0007D016E000000
(1486048822.036645) vcan0 213#FFFF00040001FF40
(1486048822.036670) vcan0 214#000000000000FD20
(1486048822.036695) vcan0 216#9AC5BFAF00000000
(1486048822.037609) vcan0 217#0408040C04140400
(1486048822.037644) vcan0 3CC#1000000000000000
(1486048822.037670) vcan0 415#04B8D83A07D507D5
(1486048822.037695) vcan0 41D#8000000000000000
(1486048822.038610) vcan0 4B0#010080002001D8C2
(1486048822.038645) vcan0 186#13FD0162000F0400
(1486048822.038671) vcan0 187#D61408C800D00300
(1486048822.043500) vcan0 04A#0200000000000000
(1486048822.044484) vcan0 04B#00C0D8D8D8D8C000
(1486048822.044515) vcan0 047#2000000000000000
(1486048822.044539) vcan0 04C#105FFFC000000000
(1486048822.044562) vcan0 078#0569800000000000
(1486048822.045507) vcan0 091#7EBD7E99F4B3F000
(1486048822.045541) vcan0 092#6F766F89736EA5B3
(1486048822.045566) vcan0 085#7B78800041A07C45
(1486048822.045590) vcan0 217#0408040C04140400
(1486048822.046486) vcan0 422#000000923802FE02
(1486048822.046545) vcan0 423#9C20000000000000
(1486048822.046593) vcan0 165#20C0000000000000
(1486048822.046646) vcan0 167#72800E10001A0500
(1486048822.047470) vcan0 200#0000800E800E0000
(1486048822.047497) vcan0 202#042C6800600004BF
(1486048822.047517) vcan0 204#C0007D016E000000
(1486048822.047536) vcan0 230#300600008F000000
(1486048822.048482) vcan0 242#05B32009CE000001
(1486048822.048517) vcan0 430#37000CE7C8867700
(1486048822.050216) vcan0 3A8#0100264300000000
(1486048822.053334) vcan0 42C#8C20000008C00000
(1486048822.054345) vcan0 091#7E947E9421B4F000
(1486048822.054385) vcan0 092#6F7F6F9173649DB4
(1486048822.054414) vcan0 167#72800E10001A0500
(1486048822.054438) vcan0 076#3DB1C0800FFF0000
(1486048822.055343) vcan0 077#04D307E37FF7C9F3
(1486048822.055384) vcan0 07D#003BC1301D9FA7FF
(1486048822.055415) vcan0 202#042D7000600004BD
(1486048822.055458) vcan0 082#6708140089804000
(1486048822.056214) vcan0 085#7B7980003EB07C46
(1486048822.056241) vcan0 204#C0007D016E000000
(1486048822.056265) vcan0 213#FFFF00040001FF40
(1486048822.056286) vcan0 214#000000000000FC30
(1486048822.057193) vcan0 216#9FC9C3B200000000
(1486048822.057220) vcan0 217#0408040C04140400
(1486048822.057241) vcan0 415#04BBDC3607D507D5
(1486048822.057264) vcan0 41D#8000000000000000
(1486048822.058260) vcan0 3CA#FE80080000000000
(1486048822.058293) vcan0 42F#7D04002E6612016F
(1486048822.058320) vcan0 4B0#010080003001D8C1
(1486048822.058345) vcan0 186#14000162000F0400
(1486048822.058370) vcan0 187#D61408C800D00300
(1486048822.059978) vcan0 083#4020000008000000
(1486048822.060980) vcan0 2A1#FFFFFFFF00000000
(1486048822.061012) vcan0 33B#0000000000000000
(1486048822.063482) vcan0 091#7E787E8749B5F000
(1486048822.064592) vcan0 092#6F886F98735F91B5
(1486048822.064631) vcan0 047#2000000000000000
(1486048822.064654) vcan0 165#20C0000000000000
(1486048822.064678) vcan0 078#0168800000000000
(1486048822.065506) vcan0 167#72800E10001A0500
(1486048822.065538) vcan0 200#0000800E800E0000
(1486048822.065564) vcan0 085#7B7980003DC07C46
(1486048822.065589) vcan0 202#042C7800600004BD
(1486048822.066511) vcan0 204#C0007D016E000000
(1486048822.066543) vcan0 217#040C040C041403FC
(1486048822.066572) vcan0 230#300600008F000000
(1486048822.066595) vcan0 3CC#1000000000000000
(1486048822.070474) vcan0 3A8#0100264100000000
(1486048822.073324) vcan0 091#7E647E766DB6F000
(1486048822.074316) vcan0 092#6F956F97736182B6
(1486048822.074345) vcan0 167#72800E10001A0500
(1486048822.074369) vcan0 202#043C0000600004BC
(1486048822.074393) vcan0 076#3DB1C0800FFF0000
(1486048822.075436) vcan0 077#04D207DD7FF7E9F6
(1486048822.075463) vcan0 07D#003AC1401D9F57D9
(1486048822.075486) vcan0 082#6808140089804000
(1486048822.075509) vcan0 085#7B7A80003BD07C46
(1486048822.076435) vcan0 204#C0007D0170000000
(1486048822.076461) vcan0 213#FFFF00040001FF40
(1486048822.076484) vcan0 214#000000000000FB40
(1486048822.076508) vcan0 216#A3CDC7B600000000
(1486048822.077452) vcan0 217#040C040C041403F8
(1486048822.077480) vcan0 261#0000000000000000
(1486048822.077502) vcan0 415#04BBE03507D507D5
(1486048822.077526) vcan0 41D#8000000000000000
(1486048822.078484) vcan0 4B0#010080004001D0C1
(1486048822.078519) vcan0 186#14000162000F0400
(1486048822.078545) vcan0 187#D61408C800D00300
(1486048822.083100) vcan0 091#7E577E648BB7F000
(1486048822.084107) vcan0 092#6FA06F8973667FB7
(1486048822.084138) vcan0 047#2000000000000000
(1486048822.084162) vcan0 165#20C0000000000000
(1486048822.085103) vcan0 078#0068000000000000
(1486048822.085131) vcan0 167#72800E10001A0500
(1486048822.085153) vcan0 217#040C0408041003F0
(1486048822.085177) vcan0 085#7B7B800039E07C46
(1486048822.086101) vcan0 200#0000800E800E0000
(1486048822.086125) vcan0 202#043B0800600004BC
(1486048822.086148) vcan0 204#C0007D0170000000
(1486048822.086170) vcan0 230#300600008F000000
(1486048822.087057) vcan0 242#05B32009CE000001
(1486048822.087081) vcan0 42F#7D04002E6612016F
(1486048822.087103) vcan0 3CA#FE80080000000000
(1486048822.089949) vcan0 3A8#0100264100000000
(1486048822.093129) vcan0 091#7E567E539CB8F000
(1486048822.094090) vcan0 092#6FAD6F78736F79B8
(1486048822.094125) vcan0 167#72800E10001A0500
(1486048822.094151) vcan0 202#043A1000600004BC
(1486048822.095057) vcan0 076#3DB2C0800FFF0000
(1486048822.095083) vcan0 077#04D207D27FF809F4
(1486048822.095107) vcan0 07D#003BBF501D9F67CF
(1486048822.095130) vcan0 082#6908140089804000
(1486048822.096053) vcan0 085#7B7C800037F07C46
(1486048822.096078) vcan0 204#C0007D0170000000
(1486048822.096100) vcan0 213#FFFF00040001FF40
(1486048822.096122) vcan0 214#000000000000FA50
(1486048822.097063) vcan0 216#A7D2CCBB00000000
(1486048822.097091) vcan0 217#04100404040C03F0
(1486048822.097115) vcan0 3CC#1000000000000000
(1486048822.097137) vcan0 415#04B9E43607D507D5
(1486048822.098142) vcan0 41D#8000600000000000
(1486048822.098193) vcan0 05D#83589F5E37000000
(1486048822.098232) vcan0 4B0#010080005001D8BF
(1486048822.098266) vcan0 186#14010162000E0400
(1486048822.099115) vcan0 187#D51408C800E00300
(1486048822.099198) vcan0 18A#0020180111000000
(1486048822.101938) vcan0 265#2001010410000000
(1486048822.102913) vcan0 453#3257364570646166
(1486048822.103971) vcan0 091#7E647E4898B9F000
(1486048822.104011) vcan0 092#6FBC6F68737A6EB9
(1486048822.104045) vcan0 047#2000000000000000
(1486048822.104980) vcan0 05C#803000F8201E0000
(1486048822.105043) vcan0 078#0168800000000000
(1486048822.105099) vcan0 165#20C0000000000000
(1486048822.105150) vcan0 167#72800E10001A0500
(1486048822.105978) vcan0 085#7B7C800046007C46
(1486048822.106036) vcan0 200#0000800E800E0000
(1486048822.106113) vcan0 202#043A1800600004BB
(1486048822.106179) vcan0 204#C0007D0170000000
(1486048822.106964) vcan0 217#04100404040803F4
(1486048822.107009) vcan0 230#300600008F000000
(1486048822.107047) vcan0 42C#8C20000008C00000
(1486048822.110527) vcan0 3A8#0100264300000000
(1486048822.113257) vcan0 091#7E827E4180BAF000
(1486048822.114261) vcan0 092#6FC66F62738261BA
(1486048822.114334) vcan0 167#72800E10001A0500
(1486048822.115262) vcan0 076#3DB4C0800FFF0000
(1486048822.115334) vcan0 077#04D107C97FF829EA
(1486048822.115385) vcan0 07D#003BBE601D9FB7D3
(1486048822.115432) vcan0 202#04392000600004BB
(1486048822.116172) vcan0 082#6B08140089804000
(1486048822.116237) vcan0 085#7B7D800044107C46
(1486048822.116286) vcan0 204#C0007D0171000000
(1486048822.116332) vcan0 213#FFFF00040001FE40
(1486048822.116376) vcan0 214#000000000000F960
(1486048822.117100) vcan0 216#ABD6D0BF00000000
(1486048822.117148) vcan0 217#040C03FC040403F4
(1486048822.117190) vcan0 3CA#FE80080000000000
