(1486048657.388463) vcan0 083#4020000008000000
(1486048657.389462) vcan0 2A1#FFFFFFFF00000000
(1486048657.389498) vcan0 091#7E947E927661F000
(1486048657.389542) vcan0 092#6FAD6F9D7357C361
(1486048657.390591) vcan0 167#727FE4100019EE00
(1486048657.390645) vcan0 05D#835C876433000000
(1486048657.390683) vcan0 085#7BDA8000E1807C45
(1486048657.390717) vcan0 202#04256000600005C6
(1486048657.390753) vcan0 076#3E1DC0800FFF0000
(1486048657.391499) vcan0 077#05D107E07FF7FDFA
(1486048657.391545) vcan0 07D#0000F5A0079FA7ED
(1486048657.391581) vcan0 204#C0007D0232000000
(1486048657.391615) vcan0 213#FFFF000400020140
(1486048657.392440) vcan0 214#000000000000F5A0
(1486048657.392476) vcan0 216#4922DC3100000000
(1486048657.392508) vcan0 217#04F404F804EC04F4
(1486048657.392539) vcan0 415#05C9F82007EB07EB
(1486048657.393433) vcan0 41D#8000600000000000
(1486048657.393458) vcan0 078#0168800000000000
(1486048657.393480) vcan0 422#000000953802FE02
(1486048657.393520) vcan0 423#9220000000000000
(1486048657.394466) vcan0 430#37000CE6C8867700
(1486048657.394543) vcan0 4B0#01008000A00078E6
(1486048657.395456) vcan0 186#140D015401F70400
(1486048657.395495) vcan0 187#D41408C800F00300
(1486048657.399200) vcan0 091#7E827E8F8A62F000
(1486048657.400210) vcan0 092#6FB76F977354C162
(1486048657.400325) vcan0 047#2000000000000000
(1486048657.400387) vcan0 082#670814008A804000
(1486048657.400463) vcan0 05C#80D000EE201E0000
(1486048657.401015) vcan0 085#7BD78000E3907C45
(1486048657.401091) vcan0 165#20C0000000000000
(1486048657.401166) vcan0 167#727FE4100019EF00
(1486048657.401238) vcan0 200#00007FE57FE50000
(1486048657.402010) vcan0 217#04F004F804E404F8
(1486048657.402089) vcan0 202#04246800600005C6
(1486048657.402164) vcan0 204#C0007D0232000000
(1486048657.402216) vcan0 230#200600008C000000
(1486048657.403183) vcan0 3CC#1000000000000000
(1486048657.403325) vcan0 596#9600FFFFFFFFFFFF
(1486048657.404087) vcan0 242#05B3201ACE000001
(1486048657.404189) vcan0 3C3#62C1000000000000
(1486048657.404269) vcan0 40A#C110409060250000
(1486048657.405131) vcan0 42C#8C20000008C00000
(1486048657.406173) vcan0 3A8#010026AD00000000
(1486048657.408330) vcan0 33B#0000000000000000
(1486048657.409342) vcan0 091#7E8D7E8E7F63F000
(1486048657.409396) vcan0 092#6FBA6F977356BB63
(1486048657.410338) vcan0 167#727FE4100019EF00
(1486048657.410376) vcan0 085#7BD68000E2A07C46
(1486048657.410418) vcan0 202#04227000600005C7
(1486048657.410454) vcan0 204#C0007D0231000000
(1486048657.411238) vcan0 076#3E1AC0800FFF0000
(1486048657.411279) vcan0 077#05D307DD7FF811F7
(1486048657.411314) vcan0 07D#0000F4B0079F67DC
(1486048657.411347) vcan0 213#FFFF000400020140
(1486048657.412245) vcan0 214#000000000000F4B0
(1486048657.412292) vcan0 216#4D28E03700000000
(1486048657.412330) vcan0 217#04F404F004DC04F4
(1486048657.412365) vcan0 415#05CCFC1C07EA07EA
(1486048657.413200) vcan0 416#5300FB0001000000
(1486048657.413235) vcan0 41D#8000600000000000
(1486048657.413259) vcan0 078#0168800000000000
(1486048657.413280) vcan0 41E#0000000000000000
(1486048657.414197) vcan0 42F#7D04002E65FE0238
(1486048657.414234) vcan0 4B0#01008000B00078E5
(1486048657.415306) vcan0 186#140D015401F70400
(1486048657.415331) vcan0 187#D41408C800F00300
(1486048657.416367) vcan0 3CA#FE4DADA900000000
(1486048657.417366) vcan0 455#A000000000000000
(1486048657.418619) vcan0 091#7EB17E8F5964F000
(1486048657.419618) vcan0 092#6FB56F97735FB664
(1486048657.419667) vcan0 047#2000000000000000
(1486048657.420618) vcan0 082#620814048A804000
(1486048657.420667) vcan0 085#7BD48000E3B07C46
(1486048657.420704) vcan0 165#20C0000000000000
(1486048657.420729) vcan0 217#04F404EC04E004EC
(1486048657.421591) vcan0 167#727FE4100019EE00
(1486048657.421627) vcan0 178#000002000E79CA7A
(1486048657.421660) vcan0 200#00007FE57FE50000
(1486048657.422698) vcan0 202#04217800600005C7
(1486048657.422733) vcan0 204#C0007D0231000000
(1486048657.422756) vcan0 230#200600008C000000
(1486048657.423691) vcan0 261#0000000000000000
(1486048657.426219) vcan0 3A8#010026AA00000000
(1486048657.427344) vcan0 05A#00000045EAA10000
(1486048657.428711) vcan0 091#7EE77E931E65F000
(1486048657.429714) vcan0 092#6FAD6F907372B165
(1486048657.429770) vcan0 167#727FE4100019EE00
(1486048657.429796) vcan0 085#7BD28000E4C07C46
(1486048657.430747) vcan0 202#042F0000600005C8
(1486048657.430797) vcan0 204#C0007D0231000000
(1486048657.430824) vcan0 3CC#1000000000000000
(1486048657.430848) vcan0 076#3E13C0800FFF0000
(1486048657.431717) vcan0 077#05D307DD7FF811F7
(1486048657.431743) vcan0 07D#0000F3C0081F97EB
(1486048657.431778) vcan0 213#FFFF000400020040
(1486048657.431811) vcan0 214#000000000000F3C0
(1486048657.432696) vcan0 216#532DE63B00000000
(1486048657.432732) vcan0 217#04F804E804E404E0
(1486048657.432765) vcan0 415#05C5C03207E907E9
(1486048657.432797) vcan0 41D#8000600000000000
(1486048657.433694) vcan0 078#0469000000000000
(1486048657.433729) vcan0 4B0#01008000C00088E2
(1486048657.433760) vcan0 3C3#7EC1000000000000
(1486048657.434679) vcan0 186#1410015301F70400
(1486048657.435679) vcan0 187#D41408C800F00300
(1486048657.435703) vcan0 18A#0020180111000000
(1486048657.438970) vcan0 091#7F1D7E95E466F000
(1486048657.440089) vcan0 092#6F9D6F85738EAF66
(1486048657.440145) vcan0 047#2000000000000000
(1486048657.440173) vcan0 082#680814008A804000
(1486048657.440208) vcan0 085#7BCF8000E7D07C45
(1486048657.440969) vcan0 165#20C0000000000000
(1486048657.440994) vcan0 167#727FE4100019EE00
(1486048657.441017) vcan0 217#04F804E804EC04D8
(1486048657.441051) vcan0 200#00007FE57FE50000
(1486048657.441945) vcan0 202#042F0800600005C7
(1486048657.441981) vcan0 204#C0007D0232000000
(1486048657.442015) vcan0 230#200600008C000000
(1486048657.443067) vcan0 42F#7D04002E65FD0237
(1486048657.444085) vcan0 242#05B3201ACE000001
(1486048657.446378) vcan0 3CA#FE4DADA900000000
(1486048657.447593) vcan0 3A8#010026A400000000
(1486048657.448709) vcan0 04A#0200000000000000
(1486048657.449863) vcan0 04B#00C0D8D8D8D8C000
(1486048657.449903) vcan0 04C#105FFFC000000000
(1486048657.449928) vcan0 091#7F437E95BD67F000
(1486048657.449969) vcan0 085#7BCD8000E8E07C45
(1486048657.450755) vcan0 092#6F886F7E73AAAE67
(1486048657.450803) vcan0 167#727FE4100019EE00
(1486048657.450830) vcan0 202#042E1000600005C7
(1486048657.450865) vcan0 076#3E0EC0800FFF0000
(1486048657.451724) vcan0 077#05D207DF7FF7F9F2
(1486048657.451760) vcan0 07D#0000F2D00820780B
(1486048657.451792) vcan0 204#C0007D0232000000
(1486048657.451815) vcan0 213#FFFF000400020040
(1486048657.452681) vcan0 214#000000000000F2D0
(1486048657.452717) vcan0 216#5732EA4100000000
(1486048657.452749) vcan0 217#04F804EC04FC04DC
(1486048657.452781) vcan0 415#05C6C43007E807E8
(1486048657.453681) vcan0 41D#8000600000000000
(1486048657.453706) vcan0 078#0168800000000000
(1486048657.453739) vcan0 4B0#01008000D00088E1
(1486048657.454693) vcan0 42C#8C20000008C00000
(1486048657.455691) vcan0 186#1412015301F70400
(1486048657.455726) vcan0 187#D41408C800F00300
(1486048657.458961) vcan0 091#7F4D7E95B268F000
(1486048657.460089) vcan0 092#6F7D6F8273B6A868
(1486048657.460144) vcan0 047#2000000000000000
(1486048657.460172) vcan0 082#640814008A804000
(1486048657.460208) vcan0 085#7BCC8000E7F07C46
(1486048657.460969) vcan0 165#20C0000000000000
(1486048657.460996) vcan0 167#727FE4100019EE00
(1486048657.461019) vcan0 200#00007FE47FE40000
(1486048657.461054) vcan0 217#04F404F0050004DC
(1486048657.461963) vcan0 202#042D1800600005C7
(1486048657.462000) vcan0 204#C0007D0232000000
(1486048657.462024) vcan0 230#200600008C000000
(1486048657.462046) vcan0 3CC#1000000000000000
(1486048657.465567) vcan0 3A8#0100269E00000000
(1486048657.468240) vcan0 33B#0000000000000000
(1486048657.469335) vcan0 091#7F427E97BA69F000
(1486048657.469392) vcan0 092#6F816F8D73A8A669
(1486048657.470351) vcan0 167#727FE4100019EE00
(1486048657.470439) vcan0 085#7BC98000F9007C46
(1486048657.470486) vcan0 202#042D2000600005C6
(1486048657.470525) vcan0 204#C0007D0232000000
(1486048657.471190) vcan0 076#3E09C0800FFF0000
(1486048657.471226) vcan0 077#05D207DF7FF7D5F1
(1486048657.471258) vcan0 07D#0000F1E00821281A
(1486048657.471289) vcan0 213#FFFF000400020040
(1486048657.472178) vcan0 214#000000000000F1E0
(1486048657.472213) vcan0 216#5D37F04700000000
(1486048657.472246) vcan0 217#04F004F0050004E0
(1486048657.472286) vcan0 261#0000000000000000
(1486048657.473180) vcan0 415#05C9C82C07E707E7
(1486048657.473214) vcan0 41D#8000600000000000
(1486048657.473243) vcan0 078#0168800000000000
(1486048657.473271) vcan0 42F#7D04002E65FD0237
(1486048657.474304) vcan0 4B0#01008000E00088E0
(1486048657.475304) vcan0 186#1410015301F70400
(1486048657.475338) vcan0 187#E31408C800000300
(1486048657.476693) vcan0 3CA#FE4DADA900000000
(1486048657.478952) vcan0 091#7F247E9BD36AF000
(1486048657.480126) vcan0 092#6F8D6F9A7392A26A
(1486048657.480162) vcan0 047#2000000000000000
(1486048657.480188) vcan0 082#640814048A804000
(1486048657.480213) vcan0 085#7BC68000FC107C45
(1486048657.481069) vcan0 165#20C0000000000000
(1486048657.481108) vcan0 167#727FE4100019EE00
(1486048657.481141) vcan0 200#00007FE47FE40000
(1486048657.481173) vcan0 217#04F004F004FC04E4
(1486048657.482100) vcan0 202#042B2800600005C7
(1486048657.482155) vcan0 204#C0007D0232000000
(1486048657.482197) vcan0 230#200600008C000000
(1486048657.483491) vcan0 242#05B3201CCE000001
(1486048657.486250) vcan0 3A8#0100269A00000000
(1486048657.488247) vcan0 083#4020000008000000
(1486048657.489245) vcan0 2A1#FFFFFFFF00000000
(1486048657.489290) vcan0 091#7EFC7EA0F66BF000
(1486048657.490250) vcan0 092#6F9D6F9F73849A6B
(1486048657.490297) vcan0 085#7BC48000FD207C45
(1486048657.490334) vcan0 05D#835CAF632A000000
(1486048657.490369) vcan0 167#727FE3100019EE00
(1486048657.490402) vcan0 202#042A3000600005C7
(1486048657.491377) vcan0 076#3E06C0800FFF0000
(1486048657.491425) vcan0 077#05D207E17FF7E9F8
(1486048657.491461) vcan0 07D#0000F0F00820880D
(1486048657.491493) vcan0 204#C0007D0231000000
(1486048657.492320) vcan0 213#FFFF000400020040
(1486048657.492346) vcan0 214#000000000000F0F0
(1486048657.492372) vcan0 216#613CF44B00000000
(1486048657.492396) vcan0 217#04F004EC04F404EC
(1486048657.493298) vcan0 3CC#1000000000000000
(1486048657.493321) vcan0 078#0068000000000000
(1486048657.493345) vcan0 415#05C2CC3207E607E6
(1486048657.493369) vcan0 41D#8000600000000000
(1486048657.494351) vcan0 422#000000953802FE02
(1486048657.494386) vcan0 423#9220000000000000
(1486048657.494413) vcan0 430#37000CE6C8867700
(1486048657.494436) vcan0 4B0#01008000F00078E1
(1486048657.495349) vcan0 186#140F015301F70400
(1486048657.495387) vcan0 187#E31408C800000300
(1486048657.498993) vcan0 091#7ED77EA4166CF000
(1486048657.500090) vcan0 092#6FA96F9A737F976C
(1486048657.500135) vcan0 047#2000000000000000
(1486048657.500159) vcan0 082#670814008A804000
(1486048657.500183) vcan0 05C#807000F4201E0000
(1486048657.501213) vcan0 085#7BC28000FD307C46
(1486048657.501257) vcan0 165#20C0000000000000
(1486048657.501282) vcan0 167#727FE3100019EE00
(1486048657.501306) vcan0 217#04EC04EC04EC04E8
(1486048657.502129) vcan0 200#00007FE47FE40000
(1486048657.502164) vcan0 202#042A3800600005C6
(1486048657.502191) vcan0 204#C0007D0231000000
(1486048657.503125) vcan0 230#200600008C000000
(1486048657.503160) vcan0 42F#7D04002E65FD0237
(1486048657.504123) vcan0 42C#8C20000008C00000
(1486048657.506462) vcan0 3CA#FE4D8DA500000000
(1486048657.507369) vcan0 3A8#0100269700000000
(1486048657.508997) vcan0 091#7EB97EA6316DF000
(1486048657.510089) vcan0 092#6FAE6F8C73809E6D
(1486048657.510133) vcan0 167#727FE3100019EE00
(1486048657.510157) vcan0 085#7BC18000FD407C46
(1486048657.510183) vcan0 202#042A4000600005C5
(1486048657.511090) vcan0 204#C0007D0231000000
(1486048657.511131) vcan0 076#3E01C0800FFF0000
(1486048657.511159) vcan0 077#05D107E47FF801F8
(1486048657.511185) vcan0 07D#0000FF00082027F6
(1486048657.511997) vcan0 213#FFFF00040001FF40
(1486048657.512033) vcan0 214#000000000000FF00
(1486048657.512059) vcan0 216#6741FA5100000000
(1486048657.512084) vcan0 217#04F004F004E804EC
(1486048657.513101) vcan0 415#05C2D03107E507E5
(1486048657.513138) vcan0 416#5400FA0001000000
(1486048657.513165) vcan0 078#0168800000000000
(1486048657.513191) vcan0 41D#8000600000000000
(1486048657.514101) vcan0 4B0#01008000000078F0
(1486048657.514139) vcan0 186#140F015301F70400
(1486048657.515097) vcan0 187#E31408C800000300
(1486048657.516748) vcan0 455#A000000000000000
(1486048657.519086) vcan0 091#7EA37EA3496EF000
(1486048657.520089) vcan0 092#6FAE6F7E738AA16E
(1486048657.520133) vcan0 047#2000000000000000
(1486048657.520156) vcan0 082#650814048A804000
(1486048657.520182) vcan0 085#7BC08000FD507C46
(1486048657.521003) vcan0 165#20C0000000000000
(1486048657.521038) vcan0 217#04F004F004E804F0
(1486048657.521066) vcan0 3CC#1000000000000000
(1486048657.521091) vcan0 167#727FE4100019EE00
(1486048657.522002) vcan0 178#000001FE0E79CA7A
(1486048657.522039) vcan0 200#00007FE57FE50000
(1486048657.522066) vcan0 202#042A4800600005C4
(1486048657.522974) vcan0 204#C0007D022E000000
(1486048657.523012) vcan0 230#200600008C000000
(1486048657.523037) vcan0 261#0000000000000000
(1486048657.523973) vcan0 242#05B3201ACE000001
(1486048657.525743) vcan0 3A8#0100269200000000
(1486048657.527459) vcan0 05A#00000045F0410000
(1486048657.528454) vcan0 33B#0000000000000000
(1486048657.529460) vcan0 091#7E977E9D5A6FF000
(1486048657.529505) vcan0 092#6FAE6F7773979A6F
(1486048657.530472) vcan0 085#7BBF8000FE607C45
(1486048657.530518) vcan0 167#727FE4100019EE00
(1486048657.530543) vcan0 202#04295000600005C4
(1486048657.531372) vcan0 076#3DFDC0800FFF0000
(1486048657.531409) vcan0 077#05D107E47FF809F0
(1486048657.531435) vcan0 07D#0000FE10082067E6
(1486048657.531460) vcan0 204#C0007D022E000000
(1486048657.531483) vcan0 213#FFFF00040001FF40
(1486048657.532369) vcan0 214#000000000000FE10
(1486048657.532405) vcan0 216#6B46FE5500000000
(1486048657.532432) vcan0 217#04F404F004E804EC
(1486048657.532457) vcan0 415#05C9D42907E407E4
(1486048657.533479) vcan0 078#0569800000000000
(1486048657.533514) vcan0 41D#8000600000000000
(1486048657.533540) vcan0 42F#7D04002E65FD0237
(1486048657.533564) vcan0 4B0#01008000100088ED
(1486048657.534475) vcan0 186#140E015301F70400
(1486048657.534511) vcan0 187#E31408C800000300
(1486048657.534536) vcan0 18A#0020180111000000
(1486048657.536346) vcan0 3CA#FE4D8DA500000000
(1486048657.538999) vcan0 091#7E9A7E975C70F000
(1486048657.540002) vcan0 092#6FB36F7973A18870
(1486048657.540036) vcan0 047#2000000000000000
(1486048657.540061) vcan0 082#640814008A804000
(1486048657.540085) vcan0 085#7BBE8000FE707C45
(1486048657.541001) vcan0 165#20C0000000000000
(1486048657.541034) vcan0 167#727FE4100019EE00
(1486048657.541058) vcan0 200#00007FE57FE50000
(1486048657.541080) vcan0 217#04F804F004F404EC
(1486048657.542003) vcan0 202#04275800600005C5
(1486048657.542035) vcan0 204#C0007D022E000000
(1486048657.542060) vcan0 230#200600008C000000
(1486048657.546957) vcan0 3A8#0100268E00000000
(1486048657.549185) vcan0 04A#0200000000000000
(1486048657.550170) vcan0 04B#00C0D8D8D8D8C000
(1486048657.550255) vcan0 04C#105FFFC000000000
(1486048657.550311) vcan0 085#7BBD8000FD807C46
(1486048657.550368) vcan0 091#7EB37E934671F000
(1486048657.551216) vcan0 092#6FB76F8573A67271
(1486048657.551308) vcan0 076#3DFBC0800FFF0000
(1486048657.551370) vcan0 077#05CE07E07FF80DEF
(1486048657.551423) vcan0 07D#0000FD200820C7E4
(1486048657.552213) vcan0 167#727FE4100019EF00
(1486048657.552288) vcan0 202#04266000600005C5
(1486048657.552347) vcan0 204#C0007D022E000000
(1486048657.552398) vcan0 213#FFFF00040001FF40
(1486048657.553201) vcan0 214#000000000000FD20
(1486048657.553280) vcan0 216#714B045B00000000
(1486048657.553339) vcan0 217#04FC04E804F804EC
(1486048657.553394) vcan0 3CC#1000000000000000
(1486048657.554205) vcan0 078#0068000000000000
(1486048657.554284) vcan0 415#05CBD82607E307E3
(1486048657.554347) vcan0 41D#8000600000000000
(1486048657.554398) vcan0 42C#8C20000008C00000
(1486048657.554449) vcan0 4B0#01008000200078EE
(1486048657.555192) vcan0 186#140E015301F70400
(1486048657.555266) vcan0 187#E31408C800000300
(1486048657.557563) vcan0 3A7#0E423A045F700000
(1486048657.559068) vcan0 091#7EE07E8F1C72F000
(1486048657.560082) vcan0 092#6FB76F94739E6A72
(1486048657.560149) vcan0 047#2000000000000000
(1486048657.560224) vcan0 082#670814008A804000
(1486048657.560366) vcan0 085#7BBD8000FC907C46
(1486048657.560999) vcan0 165#20C0000000000000
(1486048657.561073) vcan0 167#727FE4100019EF00
(1486048657.561139) vcan0 217#04F804E004F804EC
(1486048657.561228) vcan0 200#00007FE57FE50000
(1486048657.561970) vcan0 202#04246800600005C6
(1486048657.562041) vcan0 204#C0007D022E000000
(1486048657.562104) vcan0 230#200600008C000000
(1486048657.562958) vcan0 42F#7D04002E65FE0236
(1486048657.564076) vcan0 242#05B3201ACE000001
(1486048657.565732) vcan0 3A8#0100268C00000000
(1486048657.566734) vcan0 3A6#0E401A045F700000
(1486048657.566803) vcan0 3CA#FE4D8DA500000000
(1486048657.568608) vcan0 091#7F137E8CEA73F000
(1486048657.569631) vcan0 092#6FB26F9F738C7573
(1486048657.569685) vcan0 085#7BBD8000FBA07C46
(1486048657.570612) vcan0 167#727FE4100019EE00
(1486048657.570663) vcan0 202#04227000600005C7
(1486048657.570711) vcan0 076#3DFAC0800FFF0000
(1486048657.570758) vcan0 077#05CC07DD7FF811F7
(1486048657.571806) vcan0 07D#0000FC300820B7F9
(1486048657.571877) vcan0 204#C0007D022D000000
(1486048657.571933) vcan0 213#FFFF00040001FF40
(1486048657.571979) vcan0 214#000000000000FC30
(1486048657.572822) vcan0 216#7550085F00000000
(1486048657.572938) vcan0 217#04F804E0050004F0
(1486048657.573013) vcan0 261#0000000000000000
(1486048657.573063) vcan0 415#05C2DC2E07E207E2
(1486048657.573761) vcan0 078#0168800000000000
(1486048657.573852) vcan0 41D#8000600000000000
(1486048657.573903) vcan0 4B0#01008000300088EB
(1486048657.574827) vcan0 186#140E015301F70400
(1486048657.574893) vcan0 187#E21408C800100300
(1486048657.578814) vcan0 091#7F3F7E87C274F000
(1486048657.579815) vcan0 092#6FAB6F9F73798E74
(1486048657.579893) vcan0 454#3646200372204242
(1486048657.579947) vcan0 047#2000000000000000
(1486048657.580830) vcan0 082#680814008A804000
(1486048657.580909) vcan0 085#7BBD8000FAB07C46
(1486048657.580964) vcan0 165#20C0000000000000
(1486048657.581010) vcan0 167#727FE4100019EF00
(1486048657.581871) vcan0 200#00007FE57FE50000
(1486048657.581937) vcan0 217#04FC04E8050004F0
(1486048657.581991) vcan0 202#04227800600005C6
(1486048657.582039) vcan0 204#C0007D022D000000
(1486048657.582084) vcan0 230#200600008C000000
(1486048657.582808) vcan0 3CC#1000000000000000
(1486048657.586460) vcan0 3A8#0100268B00000000
(1486048657.588431) vcan0 5B3#B300FFFFFFFFFFFF
(1486048657.589440) vcan0 081#0000000000000000
(1486048657.589514) vcan0 083#4020000008000000
(1486048657.589567) vcan0 2A1#FFFFFFFF00000000
(1486048657.589613) vcan0 091#7F547E86AD75F000
(1486048657.590450) vcan0 092#6FA56F9D7368A675
(1486048657.590527) vcan0 05D#835C976330000000
(1486048657.590578) vcan0 085#7BBD8000F9C07C46
(1486048657.590626) vcan0 167#727FE4100019EF00
(1486048657.591331) vcan0 202#04320000600005C5
(1486048657.591398) vcan0 076#3DFAC0800FFF0000
(1486048657.591447) vcan0 077#05CC07DB7FF805FA
(1486048657.591495) vcan0 07D#0000FB4008200816
(1486048657.592446) vcan0 204#C0007D022D000000
(1486048657.592512) vcan0 213#FFFF00040001FF40
(1486048657.592561) vcan0 214#000000000000FB40
(1486048657.592610) vcan0 216#7B550E6500000000
(1486048657.593429) vcan0 217#04FC04EC04FC04EC
(1486048657.593496) vcan0 078#0168800000000000
(1486048657.593544) vcan0 33B#0000000000000000
(1486048657.593590) vcan0 3E6#0001040880000000
(1486048657.594442) vcan0 415#05C9E02607E107E1
(1486048657.594550) vcan0 41D#8000600000000000
(1486048657.594618) vcan0 422#000000953802FE02
(1486048657.594667) vcan0 186#140D015301F70400
(1486048657.594715) vcan0 187#E21408C800100300
(1486048657.595460) vcan0 423#9220000000000000
(1486048657.595526) vcan0 42F#7D04002E65FE0236
(1486048657.595575) vcan0 430#37000CE6C8867700
(1486048657.595619) vcan0 43A#0000020000000000
(1486048657.596569) vcan0 4B0#01008000400078EC
(1486048657.596648) vcan0 59E#9E00FFFFFFFFFFFF
(1486048657.597573) vcan0 3CA#FE4D5D9D00000000
(1486048657.599201) vcan0 091#7F517E84B176F000
(1486048657.600090) vcan0 092#6FA36FA0735BB176
(1486048657.600167) vcan0 047#2000000000000000
(1486048657.600223) vcan0 082#680814008A804000
(1486048657.600274) vcan0 05C#801000FA201E0000
(1486048657.601090) vcan0 085#7BBD8000F8D07C46
(1486048657.601166) vcan0 165#20C0000000000000
(1486048657.601221) vcan0 167#727FE4100019EF00
(1486048657.601272) vcan0 200#00007FE67FE60000
(1486048657.602053) vcan0 217#04F804F004F804E8
(1486048657.602130) vcan0 202#04300800600005C6
(1486048657.602187) vcan0 204#C0007D022D000000
(1486048657.602240) vcan0 230#200600008C000000
(1486048657.603580) vcan0 242#05B32017CE000001
(1486048657.604575) vcan0 40A#C000000740926600
(1486048657.604651) vcan0 42C#8C20000008C00000
(1486048657.606084) vcan0 3A8#0100268B00000000
(1486048657.608834) vcan0 091#7F3D7E83C577F000
(1486048657.609891) vcan0 092#6FA26FA17351BA77
(1486048657.609982) vcan0 085#7BBD8000F7E07C46
(1486048657.610704) vcan0 167#727FE5100019EE00
(1486048657.610772) vcan0 202#042F1000600005C6
(1486048657.610824) vcan0 3CC#1000000000000000
(1486048657.610870) vcan0 076#3DFAC0800FFF0000
(1486048657.611833) vcan0 077#05CD07DA7FF7FDFA
(1486048657.611901) vcan0 07D#0000FA50081F881B
(1486048657.611953) vcan0 204#C0007D022D000000
(1486048657.612000) vcan0 213#FFFF00040001FF40
(1486048657.612044) vcan0 214#000000000000FA50
(1486048657.612825) vcan0 216#7F5B126900000000
(1486048657.612895) vcan0 217#04EC04F004F404E4
(1486048657.612947) vcan0 415#05CCE42207E007E0
(1486048657.612997) vcan0 078#0068000000000000
(1486048657.613829) vcan0 416#5500F90001000000
(1486048657.613901) vcan0 41D#8000600000000000
(1486048657.613952) vcan0 4B0#01008000500078EB
(1486048657.614003) vcan0 186#140D015301F70400
(1486048657.614795) vcan0 187#E21408C800100300
(1486048657.616819) vcan0 455#A000000000000000
(1486048657.619066) vcan0 091#7F1D7E80E778F000
(1486048657.620073) vcan0 092#6F986F9A7351CA78
(1486048657.620140) vcan0 047#2000000000000000
(1486048657.620189) vcan0 082#6A0814008A804000
(1486048657.620237) vcan0 085#7BBD8000F6F07C46
(1486048657.621191) vcan0 165#20C0000000000000
(1486048657.621257) vcan0 217#04E804F004F404E0
(1486048657.621311) vcan0 167#727FE5100019EE00
(1486048657.622193) vcan0 178#000001FF0E79CA7A
(1486048657.622260) vcan0 200#00007FE67FE60000
(1486048657.623193) vcan0 202#042D1800600005C7
(1486048657.623259) vcan0 204#C0007D022D000000
(1486048657.623307) vcan0 230#200600008C000000
(1486048657.624194) vcan0 261#0000000000000000
(1486048657.625195) vcan0 42F#7D04002E65FE0236
(1486048657.626309) vcan0 3A8#0100268B00000000
(1486048657.627299) vcan0 3CA#FE4D5D9D00000000
(1486048657.628311) vcan0 05A#00000045E6E10000
(1486048657.629438) vcan0 091#7EF77E7E0F79F000
(1486048657.630461) vcan0 092#6F8C6F877361D879
(1486048657.630541) vcan0 167#727FE4100019EF00
(1486048657.630597) vcan0 085#7BBD800005007C46
(1486048657.630645) vcan0 202#042B2000600005C8
(1486048657.630692) vcan0 204#C0007D022D000000
(1486048657.631326) vcan0 076#3DFAC0800FFF0000
(1486048657.631391) vcan0 077#05CE07D97FF7F5F8
(1486048657.631443) vcan0 07D#0000F960081F580B
(1486048657.631492) vcan0 213#FFFF00040001FF40
(1486048657.632322) vcan0 214#000000000000F960
(1486048657.632391) vcan0 216#855F186F00000000
(1486048657.632443) vcan0 217#04EC04EC04F004E4
(1486048657.632492) vcan0 415#05BEE82F07E007E0
(1486048657.633304) vcan0 41D#8000600000000000
(1486048657.633371) vcan0 078#0569800000000000
(1486048657.633427) vcan0 4B0#01008000600078EA
(1486048657.634323) vcan0 186#140A015301F70400
(1486048657.634393) vcan0 187#E21408C800100300
(1486048657.634442) vcan0 18A#0020180111000000
(1486048657.634487) vcan0 3E5#0000000080000000
(1486048657.639076) vcan0 091#7EDD7E7E287AF000
(1486048657.640194) vcan0 092#6F8E6F72737BD07A
(1486048657.640273) vcan0 047#2000000000000000
(1486048657.640326) vcan0 082#650814008A804000
(1486048657.640374) vcan0 085#7BBE800003107C46
(1486048657.641194) vcan0 165#20C0000000000000
(1486048657.641268) vcan0 167#727FE4100019EF00
(1486048657.641321) vcan0 200#00007FE57FE50000
(1486048657.641372) vcan0 217#04EC04EC04F404EC
(1486048657.642086) vcan0 202#042C2800600005C6
(1486048657.642155) vcan0 204#C0007D022D000000
(1486048657.642204) vcan0 230#200600008C000000
(1486048657.642249) vcan0 3CC#1000000000000000
(1486048657.643441) vcan0 084#1100002110270A00
(1486048657.644570) vcan0 242#05B32016CE000001
(1486048657.646185) vcan0 3A8#0100268B00000000
(1486048657.648515) vcan0 33B#0000000000000000
(1486048657.649529) vcan0 04A#0200000000000000
(1486048657.649590) vcan0 04B#00C0D8D8D8D8C000
(1486048657.649634) vcan0 04C#105FFFC000000000
(1486048657.649669) vcan0 091#7ED47E802E7BF000
(1486048657.650531) vcan0 085#7BBD800003207C46
(1486048657.650595) vcan0 092#6F9D6F6E738CB37B
(1486048657.650638) vcan0 167#727FE4100019EF00
(1486048657.651531) vcan0 076#3DFAC0800FFF0000
(1486048657.651591) vcan0 077#05CD07D87FF7E9ED
(1486048657.651641) vcan0 07D#0000F870082017F8
(1486048657.651683) vcan0 202#042D3000600005C4
(1486048657.651723) vcan0 204#C0007D022D000000
(1486048657.652423) vcan0 213#FFFF00040001FF40
(1486048657.652476) vcan0 214#000000000000F870
(1486048657.652519) vcan0 216#89651C7500000000
(1486048657.652559) vcan0 217#04EC04EC04F404F4
(1486048657.653419) vcan0 415#05C0EC2C07DF07DF
(1486048657.653477) vcan0 41D#8000600000000000
(1486048657.653518) vcan0 078#0168800000000000
(1486048657.653558) vcan0 42C#8C20000008C00000
(1486048657.654530) vcan0 186#1408015301F70400
(1486048657.654586) vcan0 187#E21408C800100300
(1486048657.654626) vcan0 42F#7D04002E65FE0235
(1486048657.654666) vcan0 4B0#01008000700078E9
(1486048657.656393) vcan0 3D8#0000000080456030
(1486048657.657518) vcan0 3CA#FE4D5D9D00000000
(1486048657.657586) vcan0 3CD#0000000000000000
(1486048657.659160) vcan0 091#7EE97E84147CF000
(1486048657.660156) vcan0 092#6FA86F7D73889C7C
(1486048657.660224) vcan0 082#680814008A804000
(1486048657.660270) vcan0 047#2000000000000000
(1486048657.660308) vcan0 085#7BBE800001307C46
(1486048657.661156) vcan0 165#20C0000000000000
(1486048657.661217) vcan0 167#727FE5100019EE00
(1486048657.661265) vcan0 200#00007FE57FE50000
(1486048657.661303) vcan0 217#04EC04E404F404F4
(1486048657.662015) vcan0 202#042C3800600005C4
(1486048657.662073) vcan0 204#C0007D022D000000
(1486048657.662114) vcan0 230#200600008C000000
(1486048657.665786) vcan0 3A8#0100268B00000000
(1486048657.669137) vcan0 091#7F1E7E85DC7DF000
(1486048657.670160) vcan0 092#6FAD6F91737C8E7D
(1486048657.670245) vcan0 167#727FE4100019EE00
(1486048657.670309) vcan0 085#7BBF8000FF407C46
(1486048657.670370) vcan0 202#042C4000600005C3
(1486048657.670989) vcan0 204#C0007D022D000000
(1486048657.671029) vcan0 076#3DFAC0800FFF0000
(1486048657.671064) vcan0 077#05CB07DA7FF801F0
(1486048657.671102) vcan0 07D#0000F780082057FC
(1486048657.671951) vcan0 213#FFFF00040001FF40
(1486048657.671985) vcan0 214#000000000000F780
(1486048657.672021) vcan0 216#8F69227900000000
(1486048657.672058) vcan0 217#04F404E004F804F0
(1486048657.672947) vcan0 261#0000000000000000
(1486048657.672980) vcan0 3CC#1000000000000000
(1486048657.673013) vcan0 078#0068000000000000
(1486048657.673047) vcan0 415#05BCF02F07DF07DF
(1486048657.674037) vcan0 41D#8000600000000000
(1486048657.674086) vcan0 186#1407015301F70400
(1486048657.674127) vcan0 187#E11408C800200300
(1486048657.674165) vcan0 4B0#01008000800078E8
(1486048657.679011) vcan0 091#7F6A7E878D7EF000
(1486048657.680017) vcan0 092#6FAD6F9D73738A7E
(1486048657.680069) vcan0 047#2000000000000000
(1486048657.680105) vcan0 082#6A0814048A804000
(1486048657.680141) vcan0 085#7BC08000FD507C46
(1486048657.681138) vcan0 165#20C0000000000000
(1486048657.681208) vcan0 167#727FE4100019EE00
(1486048657.681263) vcan0 217#04FC04DC04F804F0
(1486048657.681315) vcan0 200#00007FE57FE50000
(1486048657.682137) vcan0 202#042C4800600005C2
(1486048657.682206) vcan0 204#C0007D022E000000
(1486048657.682261) vcan0 230#200600008C000000
(1486048657.683101) vcan0 42F#7D04002E65FE0235
(1486048657.684160) vcan0 242#05B32015CE000001
(1486048657.686158) vcan0 3A8#0100268B00000000
(1486048657.687157) vcan0 3CA#FE4D5D9D00000000
(1486048657.688501) vcan0 083#4020000008000000
(1486048657.689513) vcan0 2A1#FFFFFFFF00000000
(1486048657.689570) vcan0 091#7FB67E8D3A7FF000
(1486048657.689617) vcan0 092#6FA66F9F73728F7F
(1486048657.690525) vcan0 085#7BC18000FB607C46
(1486048657.690586) vcan0 05D#835CBF6425000000
(1486048657.690625) vcan0 167#727FE4100019EF00
(1486048657.690662) vcan0 202#042D5000600005C0
(1486048657.691516) vcan0 076#3DFBC0800FFF0000
(1486048657.691575) vcan0 077#05CA07DB7FF805F9
(1486048657.691613) vcan0 07D#0000F690081FF823
(1486048657.691649) vcan0 204#C0007D022E000000
(1486048657.692411) vcan0 213#FFFF00040001FF40
(1486048657.692459) vcan0 214#000000000000F690
(1486048657.692497) vcan0 216#936F267F00000000
(1486048657.692534) vcan0 217#050404DC04FC04E8
(1486048657.693409) vcan0 415#05C5F42507DF07DF
(1486048657.693460) vcan0 078#0168800000000000
(1486048657.693499) vcan0 41D#8000600000000000
(1486048657.693534) vcan0 186#1406015301F70400
(1486048657.693570) vcan0 187#E11408C800200300
(1486048657.694406) vcan0 422#000000953802FE02
(1486048657.694456) vcan0 423#9220000000000000
(1486048657.694494) vcan0 430#37000CE6C8867700
(1486048657.694529) vcan0 431#057B00C609800002
(1486048657.695384) vcan0 4B0#01008000900078E7
(1486048657.699141) vcan0 091#7FE37E910880F000
(1486048657.700140) vcan0 092#6F946F97737D9D80
(1486048657.700199) vcan0 047#2000000000000000
(1486048657.700234) vcan0 082#700814048A804000
(1486048657.700270) vcan0 05C#80B000F0201E0000
(1486048657.701143) vcan0 085#7BC38000F8707C46
(1486048657.701202) vcan0 165#20C0000000000000
(1486048657.701237) vcan0 167#727FE5100019EF00
(1486048657.701273) vcan0 200#00007FE57FE50000
(1486048657.702268) vcan0 217#050404E404FC04E0
(1486048657.702327) vcan0 202#042B5800600005C1
(1486048657.702367) vcan0 204#C0007D022E000000
(1486048657.702402) vcan0 230#200600008C000000
(1486048657.703161) vcan0 3CC#1000000000000000
(1486048657.704277) vcan0 42C#8C20000008C00000
(1486048657.705776) vcan0 3A8#0100268C00000000
(1486048657.708449) vcan0 33B#0000000000000000
(1486048657.709575) vcan0 091#7FE07E920981F000
(1486048657.709662) vcan0 092#6F7C6F8F7386B381
(1486048657.710584) vcan0 167#727FE5100019EF00
(1486048657.710668) vcan0 085#7BC58000F5807C46
(1486048657.710731) vcan0 202#04296000600005C2
(1486048657.710788) vcan0 204#C0007D022F000000
(1486048657.711459) vcan0 076#3DFDC0800FFF0000
(1486048657.711534) vcan0 077#05CD07DE7FF7F1F7
(1486048657.711591) vcan0 07D#0000F5A008201849
(1486048657.711646) vcan0 213#FFFF00040001FF40
(1486048657.712456) vcan0 214#000000000000F5A0
(1486048657.712536) vcan0 216#99732C8300000000
(1486048657.712593) vcan0 217#050004EC04FC04E4
(1486048657.712647) vcan0 415#05CDF81C07DF07DF
(1486048657.712702) vcan0 416#5600F80001000000
(1486048657.713447) vcan0 078#0368800000000000
(1486048657.713524) vcan0 186#1406015301F70400
(1486048657.713580) vcan0 187#E11408C800200300
(1486048657.713631) vcan0 41D#8000600000000000
(1486048657.714448) vcan0 42F#7D04002E65FE0235
(1486048657.714522) vcan0 4B0#01008000A00078E6
(1486048657.716447) vcan0 3CA#FE4D4D9B00000000
(1486048657.717445) vcan0 455#A000000000000000
(1486048657.719205) vcan0 091#7FB57E8E3782F000
(1486048657.720207) vcan0 092#6F736F8C737FC582
(1486048657.720296) vcan0 047#2000000000000000
(1486048657.720353) vcan0 082#6D0814008A804000
(1486048657.720407) vcan0 085#7BC68000F3907C46
(1486048657.721205) vcan0 165#20C0000000000000
(1486048657.721298) vcan0 217#04F404F004FC04E8
(1486048657.721411) vcan0 167#727FE4100019EF00
(1486048657.721996) vcan0 178#000002000E79CA7A
(1486048657.722050) vcan0 200#00007FE57FE50000
(1486048657.722096) vcan0 202#04276800600005C3
(1486048657.723204) vcan0 204#C0007D022F000000
(1486048657.723269) vcan0 230#200600008C000000
(1486048657.723319) vcan0 261#0000000000000000
(1486048657.724187) vcan0 242#05B32016CE000001
(1486048657.726940) vcan0 3A8#0100268E00000000
(1486048657.728062) vcan0 05A#00000045EC810000
(1486048657.729071) vcan0 091#7F737E8C7A83F000
(1486048657.730039) vcan0 092#6F876F897370C283
(1486048657.730109) vcan0 167#727FE4100019EF00
(1486048657.730160) vcan0 085#7BC68000F2A07C46
(1486048657.730208) vcan0 202#04247000600005C5
(1486048657.731073) vcan0 204#C0007D022F000000
(1486048657.731139) vcan0 076#3E01C0800FFF0000
(1486048657.731193) vcan0 077#05CE07DD7FF7C9F4
(1486048657.731243) vcan0 07D#0000F4B00820283B
(1486048657.732232) vcan0 213#FFFF00040001FF40
(1486048657.732337) vcan0 214#000000000000F4B0
(1486048657.732434) vcan0 216#9F79308900000000
(1486048657.732492) vcan0 217#04EC04F004F804EC
(1486048657.733194) vcan0 3CC#1000000000000000
(1486048657.733259) vcan0 415#05CBFC1D07DF07DF
(1486048657.733312) vcan0 186#1405015301F70400
(1486048657.733361) vcan0 078#0469000000000000
(1486048657.734150) vcan0 187#E11408C800200300
(1486048657.734205) vcan0 18A#0020180111000000
(1486048657.734245) vcan0 41D#8000600000000000
(1486048657.734284) vcan0 4B0#01008000B00078E5
(1486048657.739154) vcan0 091#7F2B7E91BC84F000
(1486048657.740156) vcan0 092#6FA86F887365AC84
(1486048657.740221) vcan0 047#2000000000000000
(1486048657.740259) vcan0 082#710814048A804000
(1486048657.740298) vcan0 085#7BC68000F1B07C46
(1486048657.741280) vcan0 165#20C0000000000000
(1486048657.741340) vcan0 167#727FE4100019EF00
(1486048657.741386) vcan0 217#04E804F004F804F4
(1486048657.741428) vcan0 200#00007FE57FE50000
(1486048657.742292) vcan0 202#04227800600005C6
(1486048657.742357) vcan0 204#C0007D0230000000
(1486048657.742399) vcan0 230#200600008C000000
(1486048657.743163) vcan0 42F#7D04002E65FE0235
(1486048657.745670) vcan0 3A8#0100269200000000
(1486048657.746661) vcan0 3CA#FE4D4D9B00000000
(1486048657.748761) vcan0 04A#0200000000000000
(1486048657.749778) vcan0 04B#00C0D8D8D8D8C000
(1486048657.749877) vcan0 04C#105FFFC000000000
(1486048657.749919) vcan0 091#7EF07E9DEB85F000
(1486048657.749962) vcan0 085#7BC78000EFC07C46
(1486048657.750674) vcan0 092#6FBE6F8973609985
(1486048657.750729) vcan0 167#727FE4100019EE00
(1486048657.750774) vcan0 202#04310000600005C6
(1486048657.750813) vcan0 076#3E02C0800FFF0000
(1486048657.751667) vcan0 077#05CD07DE7FF801F3
(1486048657.751722) vcan0 07D#0000F3C0081FB80F
(1486048657.751765) vcan0 204#C0007D0230000000
(1486048657.751803) vcan0 213#FFFF00040001FF40
(1486048657.752793) vcan0 214#000000000000F3C0
(1486048657.752850) vcan0 216#A37D368D00000000
(1486048657.752894) vcan0 217#04E804EC04F404F4
(1486048657.752934) vcan0 186#1405015301F70400
(1486048657.753793) vcan0 187#E11408C800200300
(1486048657.753869) vcan0 078#0168800000000000
(1486048657.753914) vcan0 415#05BEC03907DF07DF
(1486048657.753954) vcan0 41D#8000600000000000
(1486048657.753992) vcan0 42C#8C20000008C00000
(1486048657.754787) vcan0 4B0#01008000C00078E4
(1486048657.757159) vcan0 3A7#0E423A045F700000
(1486048657.758664) vcan0 091#7ECA7EA60786F000
(1486048657.759664) vcan0 092#6FC16F8D73609186
(1486048657.759720) vcan0 082#700814008A804000
(1486048657.760798) vcan0 047#2000000000000000
(1486048657.760852) vcan0 085#7BC78000EFD07C45
(1486048657.760896) vcan0 165#20C0000000000000
(1486048657.760936) vcan0 167#727FE4100019EE00
(1486048657.761721) vcan0 200#00007FE57FE50000
(1486048657.761762) vcan0 217#04F004EC04FC04F4
(1486048657.761802) vcan0 202#04310800600005C5
(1486048657.761865) vcan0 204#C0007D0230000000
(1486048657.761889) vcan0 230#200600008C000000
(1486048657.762668) vcan0 3CC#1000000000000000
(1486048657.763669) vcan0 242#05B32015CE000001
(1486048657.765836) vcan0 3A6#0E401A045F700000
(1486048657.766869) vcan0 3A8#0100269200000000
(1486048657.768377) vcan0 33B#0000000000000000
(1486048657.769381) vcan0 091#7EB67EA61A87F000
(1486048657.769418) vcan0 092#6FBA6F9473668A87
(1486048657.770377) vcan0 167#727FE4100019EE00
(1486048657.770414) vcan0 085#7BC88000ECE07C46
(1486048657.770444) vcan0 202#04311000600005C4
(1486048657.770473) vcan0 204#C0007D0230000000
(1486048657.771359) vcan0 076#3E04C0800FFF0000
(1486048657.771398) vcan0 077#05CE07E47FF81DF5
(1486048657.771429) vcan0 07D#0000F2D0081F97F2
(1486048657.771458) vcan0 213#FFFF00040001FF40
(1486048657.772362) vcan0 214#000000000000F2D0
(1486048657.772422) vcan0 216#A9833C9300000000
(1486048657.772472) vcan0 217#04F404F404FC04F0
(1486048657.772525) vcan0 261#0000000000000000
(1486048657.772566) vcan0 415#05C4C43207DF07DF
(1486048657.773446) vcan0 078#0168800000000000
(1486048657.773486) vcan0 186#1405015301F70400
(1486048657.773519) vcan0 187#E11408C800200300
(1486048657.773552) vcan0 41D#8000600000000000
(1486048657.774434) vcan0 42F#7D04002E65FD0235
(1486048657.774473) vcan0 4B0#01008000D00078E3
(1486048657.776317) vcan0 3CA#FE4D4D9B00000000
(1486048657.778563) vcan0 091#7EA27E9F3488F000
(1486048657.779560) vcan0 092#6FB16F9F73688588
(1486048657.779601) vcan0 047#2000000000000000
(1486048657.780683) vcan0 082#700814008A804000
(1486048657.780719) vcan0 085#7BC88000EBF07C46
(1486048657.780765) vcan0 165#20C0000000000000
(1486048657.780801) vcan0 167#727FE4100019EE00
(1486048657.780834) vcan0 200#00007FE57FE50000
(1486048657.781683) vcan0 217#04F804F8050004EC
(1486048657.781721) vcan0 202#04301800600005C4
(1486048657.781755) vcan0 204#C0007D0230000000
(1486048657.781787) vcan0 230#200600008C000000
(1486048657.786556) vcan0 3A8#0100269500000000
(1486048657.788370) vcan0 083#4020000008000000
(1486048657.789374) vcan0 2A1#FFFFFFFF00000000
(1486048657.789424) vcan0 091#7E877E945989F000
(1486048657.789465) vcan0 092#6FB26FA873618189
(1486048657.790345) vcan0 167#727FE4100019EE00
(1486048657.790384) vcan0 05D#835CA7642B000000
(1486048657.790421) vcan0 085#7BC88000FA007C46
(1486048657.790457) vcan0 202#04302000600005C3
(1486048657.791312) vcan0 076#3E04C0800FFF0000
(1486048657.791352) vcan0 077#05CF07E27FF809FA
(1486048657.791388) vcan0 07D#0000F1E0081FC7E6
(1486048657.791422) vcan0 204#C0007D0231000000
(1486048657.791456) vcan0 213#FFFF00040001FF40
(1486048657.792434) vcan0 214#000000000000F1E0
(1486048657.792473) vcan0 216#AD89409800000000
(1486048657.792508) vcan0 186#1404015401F70400
(1486048657.792542) vcan0 187#E01408C800300300
(1486048657.793433) vcan0 078#0068000000000000
(1486048657.793471) vcan0 217#04F404F4050004E8
(1486048657.793505) vcan0 3CC#1000000000000000
(1486048657.793537) vcan0 415#05D4C82107E007E0
(1486048657.794433) vcan0 41D#8000600000000000
(1486048657.794469) vcan0 422#000000953802FE02
(1486048657.794502) vcan0 423#9220000000000000
(1486048657.794534) vcan0 430#3F000CE6E886F700
(1486048657.795429) vcan0 4B0#01008000E00078E2
(1486048657.798944) vcan0 091#7E647E88878AF000
(1486048657.800071) vcan0 092#6FBE6FA57351878A
(1486048657.800110) vcan0 047#2000000000000000
(1486048657.800145) vcan0 082#6E0814008A804000
(1486048657.800181) vcan0 05C#805000F6201E0000
(1486048657.801070) vcan0 085#7BC88000F9107C46
(1486048657.801108) vcan0 165#20C0000000000000
(1486048657.801141) vcan0 167#727FE4100019EE00
(1486048657.801173) vcan0 217#04F404F804FC04E8
(1486048657.802058) vcan0 200#00007FE57FE50000
(1486048657.802093) vcan0 202#042C2800600005C6
(1486048657.802128) vcan0 204#C0007D0231000000
(1486048657.803067) vcan0 230#200600008C000000
(1486048657.803095) vcan0 42F#7D04002E65FD0234
(1486048657.804047) vcan0 242#05B32016CE000001
(1486048657.804075) vcan0 3B3#4048020F10050002
(1486048657.804100) vcan0 40A#C100334641365030
(1486048657.805085) vcan0 42C#8C20000008C00000
(1486048657.806129) vcan0 3A8#0100269500000000
(1486048657.807122) vcan0 3CA#FE4D3D9B00000000
(1486048657.808999) vcan0 091#7E467E7EAE8BF000
(1486048657.810010) vcan0 092#6FD26F987349878B
(1486048657.810049) vcan0 167#727FE4100019EE00
(1486048657.810079) vcan0 085#7BC78000FA207C45
(1486048657.810106) vcan0 202#04293000600005C8
(1486048657.811000) vcan0 204#C0007D0231000000
(1486048657.811037) vcan0 076#3E04C0800FFF0000
(1486048657.811066) vcan0 077#05D107DB7FF819FB
(1486048657.811093) vcan0 07D#0000F0F0081F57D2
(1486048657.812000) vcan0 213#FFFF000400020040
(1486048657.812038) vcan0 214#000000000000F0F0
(1486048657.812067) vcan0 216#B38D469D00000000
(1486048657.812094) vcan0 186#1404015401F70400
(1486048657.813000) vcan0 187#E01408C800300300
(1486048657.813036) vcan0 217#04F404F404FC04E8
(1486048657.813066) vcan0 078#0168800000000000
(1486048657.813093) vcan0 415#05CACC2A07E007E0
(1486048657.814109) vcan0 416#5700F70001000000
(1486048657.814148) vcan0 41D#8000600000000000
(1486048657.814175) vcan0 4B0#01008000F00078E1
(1486048657.816852) vcan0 455#A000000000000000
(1486048657.818998) vcan0 091#7E387E79C08CF000
(1486048657.819999) vcan0 092#6FE66F8573507E8C
(1486048657.820037) vcan0 047#2000000000000000
(1486048657.820063) vcan0 082#6F0814008A804000
(1486048657.820090) vcan0 085#7BC78000F9307C45
(1486048657.820996) vcan0 165#20C0000000000000
(1486048657.821033) vcan0 217#04F404F404F804E8
(1486048657.821065) vcan0 3CC#1000000000000000
(1486048657.821091) vcan0 167#727FE4100019EE00
(1486048657.822164) vcan0 178#000002000E79CA7A
(1486048657.822215) vcan0 200#00007FE47FE40000
(1486048657.822261) vcan0 202#04283800600005C8
(1486048657.823111) vcan0 204#C0007D0231000000
(1486048657.823150) vcan0 230#200600008C000000
(1486048657.823182) vcan0 261#0000000000000000
(1486048657.826159) vcan0 3A8#0100269500000000
(1486048657.827418) vcan0 05A#00000045F2210000
(1486048657.828406) vcan0 33B#0000000000000000
(1486048657.829413) vcan0 091#7E3F7E7CB58DF000
(1486048657.829468) vcan0 092#6FEF6F7C7359748D
(1486048657.830546) vcan0 167#727FE4100019EE00
(1486048657.830599) vcan0 085#7BC78000F8407C45
(1486048657.830643) vcan0 202#04264000600005C9
(1486048657.830684) vcan0 204#C0007D0231000000
(1486048657.830721) vcan0 076#3E04C0800FFF0000
(1486048657.831540) vcan0 077#05D207D67FF849F2
(1486048657.831596) vcan0 07D#0000FF00081F57C5
(1486048657.831639) vcan0 213#FFFF000400020040
(1486048657.831677) vcan0 214#000000000000FF00
(1486048657.832542) vcan0 216#B7934AA200000000
(1486048657.832598) vcan0 186#1404015301F70400
(1486048657.832641) vcan0 187#E01408C800300300
(1486048657.832680) vcan0 078#0569800000000000
(1486048657.833542) vcan0 18A#0020180111000000
(1486048657.833596) vcan0 217#04F404F404F804F0
(1486048657.833641) vcan0 415#05CCD02707E007E0
(1486048657.833682) vcan0 41D#8000600000000000
(1486048657.834540) vcan0 42F#7D04002E65FD0234
(1486048657.834594) vcan0 4B0#01008000000078F0
(1486048657.836406) vcan0 3CA#FE4D3D9B00000000
(1486048657.839045) vcan0 091#7E597E80968EF000
(1486048657.840048) vcan0 092#6FE76F7F73577A8E
(1486048657.840104) vcan0 082#700814008A804000
(1486048657.840148) vcan0 047#2000000000000000
(1486048657.840186) vcan0 085#7BC78000F7507C45
(1486048657.841048) vcan0 165#20C0000000000000
(1486048657.841101) vcan0 167#727FE3100019EE00
(1486048657.841144) vcan0 200#00007FE47FE40000
(1486048657.841182) vcan0 217#04F804F004F404F0
(1486048657.842039) vcan0 202#04254800600005C9
(1486048657.842095) vcan0 204#C0007D0231000000
(1486048657.842135) vcan0 230#200600008C000000
(1486048657.843660) vcan0 242#05B32015CE000001
(1486048657.846317) vcan0 3A8#0100269500000000
(1486048657.849177) vcan0 04A#0200000000000000
(1486048657.850074) vcan0 04B#00C0D8D8D8D8C000
(1486048657.850148) vcan0 04C#105FFFC000000000
(1486048657.850205) vcan0 085#7BC78000F6607C45
(1486048657.850264) vcan0 091#7E857E83668FF000
(1486048657.851204) vcan0 092#6FD46F8A734A8E8F
(1486048657.851293) vcan0 167#727FE3100019EE00
(1486048657.851352) vcan0 076#3E04C0800FFF0000
(1486048657.851404) vcan0 077#05D107D97FF849F0
(1486048657.852081) vcan0 07D#0000FE10081F77CF
(1486048657.852159) vcan0 202#04245000600005C9
(1486048657.852219) vcan0 186#1404015301F70400
(1486048657.852272) vcan0 187#E01408C800300300
(1486048657.853075) vcan0 204#C0007D0231000000
(1486048657.853149) vcan0 213#FFFF00040001FF40
(1486048657.853211) vcan0 214#000000000000FE10
(1486048657.853268) vcan0 078#0068000000000000
(1486048657.854055) vcan0 216#BD9750A700000000
(1486048657.854133) vcan0 217#050004F004F004EC
(1486048657.854190) vcan0 3CC#1000000000000000
(1486048657.854243) vcan0 415#05CBD42707E007E0
(1486048657.854295) vcan0 41D#8000600000000000
(1486048657.855193) vcan0 42C#8C20000008C00000
(1486048657.855266) vcan0 4B0#01008000100078EF
(1486048657.859186) vcan0 091#7EB37E803A90F000
(1486048657.860192) vcan0 092#6FBE6F957341A190
(1486048657.860271) vcan0 047#2000000000000000
(1486048657.860323) vcan0 082#6F0814008A804000
(1486048657.860371) vcan0 085#7BC78000F5707C45
(1486048657.861074) vcan0 165#20C0000000000000
(1486048657.861140) vcan0 167#727FE3100019EE00
(1486048657.861189) vcan0 217#050004EC04EC04E8
(1486048657.861238) vcan0 200#00007FE47FE40000
(1486048657.862074) vcan0 202#04235800600005C9
(1486048657.862172) vcan0 204#C0007D0231000000
(1486048657.862227) vcan0 230#200600008C000000
(1486048657.863202) vcan0 42F#7D04002E65FD0234
(1486048657.865682) vcan0 3A8#0100269500000000
(1486048657.866808) vcan0 3CA#FE4D3D9B00000000
(1486048657.868808) vcan0 091#7EDB7E7E1391F000
(1486048657.869854) vcan0 092#6FAE6F9C7346A491
(1486048657.869961) vcan0 167#727FE3100019EE00
(1486048657.870859) vcan0 085#7BC78000F4807C45
(1486048657.870972) vcan0 202#04216000600005CA
(1486048657.871058) vcan0 204#C0007D0232000000
(1486048657.871150) vcan0 261#0000000000000000
(1486048657.871626) vcan0 076#3E04C0800FFF0000
(1486048657.871693) vcan0 077#05D007D97FF819F7
(1486048657.871756) vcan0 07D#0000FD20081F07EB
(1486048657.871817) vcan0 186#1404015301F70400
(1486048657.871874) vcan0 187#E01408C800300300
(1486048657.872742) vcan0 213#FFFF00040001FF40
(1486048657.872807) vcan0 214#000000000000FD20
(1486048657.872868) vcan0 216#C19D54AC00000000
(1486048657.872928) vcan0 078#0168800000000000
(1486048657.873732) vcan0 217#050004E804EC04E4
(1486048657.873801) vcan0 415#05D1D82007E007E0
(1486048657.873899) vcan0 41D#8000600000000000
(1486048657.873960) vcan0 4B0#01008000200088EC
(1486048657.878981) vcan0 091#7EFA7E7FF292F000
(1486048657.879981) vcan0 092#6FA76FA073509C92
(1486048657.880049) vcan0 047#2000000000000000
(1486048657.880108) vcan0 082#700814008A804000
(1486048657.880168) vcan0 085#7BC78000F3907C45
(1486048657.880979) vcan0 165#20C0000000000000
(1486048657.881044) vcan0 167#727FE3100019EE00
(1486048657.881103) vcan0 200#00007FE47FE40000
(1486048657.881160) vcan0 217#04FC04E804E804E4
(1486048657.881961) vcan0 202#041F6800600005CB
(1486048657.882021) vcan0 204#C0007D0232000000
(1486048657.882072) vcan0 230#200600008C000000
(1486048657.882123) vcan0 3CC#1000000000000000
(1486048657.883591) vcan0 242#05B32017CE000001
(1486048657.886218) vcan0 3A8#0100269500000000
(1486048657.888457) vcan0 083#4020000008000000
(1486048657.889553) vcan0 2A1#FFFFFFFF00000000
(1486048657.889631) vcan0 33B#0000000000000000
(1486048657.889695) vcan0 091#7F147E82D393F000
(1486048657.889756) vcan0 092#6FA36F9D735A9893
(1486048657.890504) vcan0 085#7BC78000F2A07C45
(1486048657.890570) vcan0 05D#835C8F6431000000
(1486048657.890628) vcan0 167#727FE3100019EE00
(1486048657.890681) vcan0 202#041D7000600005CC
(1486048657.891475) vcan0 076#3E04C0800FFF0000
(1486048657.891532) vcan0 077#05D007D87FF801FA
(1486048657.891587) vcan0 07D#0000FC30081F5800
(1486048657.891641) vcan0 186#1404015401F70400
(1486048657.892471) vcan0 187#DF1408C800400300
(1486048657.892533) vcan0 204#C0007D0232000000
(1486048657.892586) vcan0 213#FFFF00040001FF40
(1486048657.892637) vcan0 214#000000000000FC30
(1486048657.893472) vcan0 078#0168800000000000
(1486048657.893529) vcan0 216#C7A15AB100000000
(1486048657.893583) vcan0 217#04F804E404E804E4
(1486048657.893637) vcan0 415#05C7DC2907E107E1
(1486048657.893690) vcan0 41D#8000600000000000
(1486048657.894473) vcan0 422#000000953802FE02
(1486048657.894530) vcan0 423#9220000000000000
(1486048657.894582) vcan0 42F#7D04002E65FD0234
(1486048657.894634) vcan0 430#37000CE6C8867700
(1486048657.895468) vcan0 4B0#01008000300088EB
(1486048657.896466) vcan0 3CA#FE4D1D9C00000000
(1486048657.899165) vcan0 091#7F257E87BC94F000
(1486048657.900059) vcan0 092#6FA06F9173649C94
(1486048657.900143) vcan0 047#2000000000000000
(1486048657.900206) vcan0 082#700814008A804000
(1486048657.900263) vcan0 05C#80F000EC201E0000
(1486048657.901000) vcan0 085#7BC78000F1B07C45
(1486048657.901065) vcan0 165#20C0000000000000
(1486048657.901123) vcan0 167#727FE3100019EE00
(1486048657.901177) vcan0 200#00007FE47FE40000
(1486048657.902091) vcan0 217#04F404E404EC04E8
(1486048657.902153) vcan0 202#041D7800600005CB
(1486048657.902207) vcan0 204#C0007D0233000000
(1486048657.902262) vcan0 230#200600008C000000
(1486048657.903511) vcan0 42C#8C20000008C00000
(1486048657.906737) vcan0 3A8#0100269500000000
(1486048657.909164) vcan0 091#7F2E7E8DAC95F000
(1486048657.910178) vcan0 092#6F946F80736BB195
(1486048657.910250) vcan0 167#727FE3100019EE00
(1486048657.910299) vcan0 085#7BC78000F0C07C45
(1486048657.910344) vcan0 202#042D0000600005CA
(1486048657.911169) vcan0 204#C0007D0233000000
(1486048657.911234) vcan0 3CC#1000000000000000
(1486048657.911285) vcan0 076#3E04C0800FFF0000
(1486048657.911326) vcan0 077#05D007DB7FF7FDF6
(1486048657.912196) vcan0 07D#0000FB40081FA80E
(1486048657.912277) vcan0 186#1404015401F70400
(1486048657.912324) vcan0 187#DF1408C800400300
(1486048657.912366) vcan0 213#FFFF00040001FF40
(1486048657.913136) vcan0 214#000000000000FB40
(1486048657.913185) vcan0 078#0068000000000000
(1486048657.913229) vcan0 216#CBA75EB600000000
(1486048657.913271) vcan0 217#04EC04E804EC04E4
(1486048657.914124) vcan0 415#05C0E02F07E107E1
(1486048657.914173) vcan0 416#5800F60001000000
(1486048657.914215) vcan0 41D#8000600000000000
(1486048657.914255) vcan0 4B0#01008000400088EA
(1486048657.916842) vcan0 455#A000000000000000
(1486048657.919031) vcan0 091#7F2C7E95A596F000
(1486048657.920171) vcan0 092#6F886F77736FC196
(1486048657.920240) vcan0 047#2000000000000000
(1486048657.920282) vcan0 082#6C0814008A804000
(1486048657.920325) vcan0 085#7BC78000EED07C46
(1486048657.921169) vcan0 165#20C0000000000000
(1486048657.921235) vcan0 217#04F004EC04F004E8
(1486048657.921289) vcan0 167#727FE3100019EE00
(1486048657.922297) vcan0 178#000002010E79CA7A
(1486048657.922367) vcan0 200#00007FE37FE30000
(1486048657.923189) vcan0 202#042E0800600005C8
(1486048657.923250) vcan0 204#C0007D0233000000
(1486048657.923295) vcan0 230#200600008C000000
(1486048657.924177) vcan0 261#0000000000000000
(1486048657.924237) vcan0 242#05B32017CE000001
(1486048657.925172) vcan0 42F#7D04002E65FD0234
(1486048657.926124) vcan0 3A8#0100269500000000
(1486048657.927156) vcan0 3CA#FE4D1D9C00000000
(1486048657.928123) vcan0 05A#00000045E8C10000
(1486048657.929164) vcan0 091#7F237E9DA597F000
(1486048657.930295) vcan0 092#6F7E6F7A7372C497
(1486048657.930400) vcan0 167#727FE3100019EE00
(1486048657.930466) vcan0 085#7BC78000EDE07C46
(1486048657.930536) vcan0 202#042E1000600005C7
(1486048657.930605) vcan0 204#C0007D0233000000
(1486048657.931289) vcan0 076#3E04C0800FFF0000
(1486048657.931372) vcan0 077#05CF07DF7FF7E1EE
(1486048657.931447) vcan0 07D#0000FA50081FD810
(1486048657.931516) vcan0 186#1407015301F70400
(1486048657.932306) vcan0 187#DF1408C800400300
(1486048657.932365) vcan0 18A#0020180111000000
(1486048657.932409) vcan0 213#FFFF00040001FF40
(1486048657.932449) vcan0 214#000000000000FA50
(1486048657.933238) vcan0 078#0569800000000000
(1486048657.933285) vcan0 216#D1AB64BB00000000
(1486048657.933328) vcan0 217#04F404EC04F404EC
(1486048657.933371) vcan0 415#05C1E42D07E107E1
(1486048657.934314) vcan0 41D#8000600000000000
(1486048657.934386) vcan0 4B0#01008000500088E9
(1486048657.939150) vcan0 091#7F177EA5A898F000
(1486048657.940208) vcan0 092#6F726F89736DC598
(1486048657.940299) vcan0 047#2000000000000000
(1486048657.940358) vcan0 082#6B0814008A804000
(1486048657.940413) vcan0 085#7BC78000EDF07C45
(1486048657.941080) vcan0 165#20C0000000000000
(1486048657.941154) vcan0 167#727FE2100019EE00
(1486048657.941214) vcan0 200#00007FE37FE30000
(1486048657.941265) vcan0 217#04F004E804F404EC
(1486048657.942026) vcan0 202#042E1800600005C6
(1486048657.942100) vcan0 204#C0007D0233000000
(1486048657.942151) vcan0 230#200600008C000000
(1486048657.942197) vcan0 3CC#1000000000000000
(1486048657.946657) vcan0 3A8#0100269500000000
(1486048657.948517) vcan0 33B#0000000000000000
(1486048657.949527) vcan0 04A#0200000000000000
(1486048657.949577) vcan0 04B#00C0D8D8D8D8C000
(1486048657.949614) vcan0 04C#105FFFC000000000
(1486048657.949648) vcan0 091#7F107EAAA999F000
(1486048657.950649) vcan0 085#7BC78000FC007C45
(1486048657.950729) vcan0 092#6F716F9A7360C199
(1486048657.950786) vcan0 167#727FE2100019EE00
(1486048657.950825) vcan0 076#3E04C0800FFF0000
(1486048657.951646) vcan0 077#05CD07E47FF7C9F3
(1486048657.951727) vcan0 07D#0000F960081FD809
(1486048657.951784) vcan0 186#1409015301F70400
(1486048657.951836) vcan0 187#DF1408C800400300
(1486048657.952535) vcan0 202#042E2000600005C5
(1486048657.952605) vcan0 204#C0007D0233000000
(1486048657.952646) vcan0 213#FFFF00040001FF40
(1486048657.952681) vcan0 214#000000000000F960
(1486048657.953534) vcan0 216#D7B168C000000000
(1486048657.953605) vcan0 217#04F404E804F404EC
(1486048657.953663) vcan0 078#0168800000000000
(1486048657.953715) vcan0 415#05C2E82B07E107E1
(1486048657.954531) vcan0 41D#8000600000000000
(1486048657.954580) vcan0 42F#7D04002E65FD0234
(1486048657.954618) vcan0 4B0#01008000600088E8
(1486048657.955522) vcan0 42C#8C20000008C00000
(1486048657.956522) vcan0 3CA#FE4D1D9C00000000
(1486048657.957899) vcan0 3A7#0E423A045F700000
(1486048657.959093) vcan0 091#7F0E7EAAAA9AF000
(1486048657.960135) vcan0 092#6F7E6FA07357B69A
(1486048657.960222) vcan0 047#2000000000000000
(1486048657.960291) vcan0 082#680814008A804000
(1486048657.960992) vcan0 085#7BC88000F9107C46
(1486048657.961049) vcan0 165#20C0000000000000
(1486048657.961087) vcan0 167#727FE2100019EE00
(1486048657.961120) vcan0 200#00007FE37FE30000
(1486048657.961154) vcan0 217#04F004EC04F004EC
(1486048657.962018) vcan0 202#042E2800600005C4
(1486048657.962086) vcan0 204#C0007D0233000000
(1486048657.962136) vcan0 230#200600008C000000
(1486048657.963622) vcan0 242#05B32019CE000001
(1486048657.965936) vcan0 3A8#0100269500000000
(1486048657.966895) vcan0 3A6#0E401A045F700000
(1486048657.968623) vcan0 091#7F0E7EA9AA9BF000
(1486048657.969587) vcan0 092#6F916F9F735B9F9B
(1486048657.969641) vcan0 167#727FE2100019EE00
(1486048657.970743) vcan0 085#7BC88000F8207C46
(1486048657.970801) vcan0 202#042D3000600005C4
(1486048657.970852) vcan0 204#C0007D0233000000
(1486048657.970888) vcan0 261#0000000000000000
(1486048657.970922) vcan0 076#3E04C0800FFF0000
(1486048657.971708) vcan0 077#05CB07E67FF7D5FA
(1486048657.971761) vcan0 07D#0000F870081F7806
(1486048657.971811) vcan0 186#1409015301F70400
(1486048657.971846) vcan0 187#DF1408C800400300
(1486048657.972722) vcan0 213#FFFF00040001FE40
(1486048657.972776) vcan0 214#000000000000F870
(1486048657.972824) vcan0 078#0068000000000000
(1486048657.972871) vcan0 216#DBB76EC600000000
(1486048657.973708) vcan0 217#04EC04EC04F004F0
(1486048657.973759) vcan0 3CC#1000000000000000
(1486048657.973794) vcan0 415#05C5EC2707E107E1
(1486048657.973883) vcan0 41D#8000600000000000
(1486048657.974700) vcan0 4B0#01008000700088E7
(1486048657.979014) vcan0 091#7F127EA6A89CF000
(1486048657.980023) vcan0 092#6FA36F98736A849C
(1486048657.980087) vcan0 082#6C0814008A804000
(1486048657.980137) vcan0 047#2000000000000000
(1486048657.980171) vcan0 085#7BC88000F7307C46
(1486048657.980977) vcan0 165#20C0000000000000
(1486048657.981013) vcan0 167#727FE2100019EE00
(1486048657.981043) vcan0 217#04E804EC04EC04EC
(1486048657.981090) vcan0 200#00007FE37FE30000
(1486048657.981959) vcan0 202#042C3800600005C4
(1486048657.982011) vcan0 204#C0007D0235000000
(1486048657.982056) vcan0 230#200600008C000000
(1486048657.983014) vcan0 42F#7D04002E65FD0234
(1486048657.985891) vcan0 3A8#0100269500000000
(1486048657.986889) vcan0 3CA#FE4D0D9C00000000
(1486048657.988519) vcan0 083#4020000008000000
(1486048657.989534) vcan0 2A1#FFFFFFFF00000000
(1486048657.989581) vcan0 091#7F1D7EA39F9DF000
(1486048657.989639) vcan0 092#6FAE6F8E737D6F9D
(1486048657.990630) vcan0 085#7BC88000F6407C46
(1486048657.990704) vcan0 05D#835DB76426000000
(1486048657.990758) vcan0 167#727FE2100019EE00
(1486048657.990793) vcan0 202#042B4000600005C4
(1486048657.990840) vcan0 076#3E04C0800FFF0000
(1486048657.991628) vcan0 077#05CC07E47FF7FDF8
(1486048657.991702) vcan0 07D#0000F780081FC808
(1486048657.991755) vcan0 186#1407015301F70400
(1486048657.991804) vcan0 187#DE1408C800500300
(1486048657.992467) vcan0 204#C0007D0235000000
(1486048657.992503) vcan0 213#FFFF00040001FF40
(1486048657.992552) vcan0 214#000000000000F780
(1486048657.992598) vcan0 078#0168800000000000
(1486048657.993443) vcan0 216#E1BB72CB00000000
(1486048657.993492) vcan0 217#04F004EC04F004EC
(1486048657.993537) vcan0 415#05BFF02C07E107E1
(1486048657.993583) vcan0 41D#8000600000000000
(1486048657.994472) vcan0 422#000000953802FE02
(1486048657.994507) vcan0 423#9220000000000000
(1486048657.994538) vcan0 430#37000CE6C8867700
(1486048657.994569) vcan0 4B0#01008000800088E6
(1486048657.998969) vcan0 091#7F307E9F8F9EF000
(1486048658.000127) vcan0 092#6FB26F837390629E
(1486048658.000200) vcan0 082#690814008A804000
(1486048658.000253) vcan0 047#2000000000000000
(1486048658.000288) vcan0 05C#809000F2201E0000
(1486048658.001128) vcan0 085#7BC98000F4507C46
(1486048658.001202) vcan0 165#20C0000000000000
(1486048658.001241) vcan0 167#727FE3100019EE00
(1486048658.001292) vcan0 200#00007FE37FE30000
(1486048658.002159) vcan0 217#04F804EC04F004EC
(1486048658.002224) vcan0 202#042B4800600005C3
(1486048658.002276) vcan0 204#C0007D0234000000
(1486048658.002323) vcan0 230#200600008C000000
(1486048658.003105) vcan0 3CC#1000000000000000
(1486048658.004149) vcan0 242#05B32017CE000001
(1486048658.004214) vcan0 40A#C1014B3931485232
(1486048658.005145) vcan0 42C#8C20000008C00000
(1486048658.006139) vcan0 3A8#0100269500000000
(1486048658.008510) vcan0 33B#0000000000000000
(1486048658.009524) vcan0 091#7F497E9D779FF000
(1486048658.009588) vcan0 092#6FB26F81739D569F
(1486048658.009641) vcan0 167#727FE3100019EE00
(1486048658.010635) vcan0 085#7BC98000F3607C46
(1486048658.010708) vcan0 202#042B5000600005C2
(1486048658.010762) vcan0 186#1406015301F70400
(1486048658.010811) vcan0 187#DE1408C800500300
(1486048658.011526) vcan0 076#3E04C0800FFF0000
(1486048658.011571) vcan0 077#05CC07E27FF80DF1
(1486048658.011628) vcan0 07D#0000F69008207811
(1486048658.011679) vcan0 204#C0007D0234000000
(1486048658.012520) vcan0 213#FFFF00040001FF40
(1486048658.012564) vcan0 214#000000000000F690
(1486048658.012621) vcan0 216#E5C178D000000000
(1486048658.012671) vcan0 078#0168800000000000
(1486048658.013520) vcan0 217#04FC04EC04F004E4
(1486048658.013585) vcan0 415#05C9F42107E107E1
(1486048658.013638) vcan0 416#5900F50001000000
(1486048658.013687) vcan0 41D#8000600000000000
(1486048658.014601) vcan0 42F#7D04002E65FD0234
(1486048658.014638) vcan0 4B0#01008000900088E5
(1486048658.016342) vcan0 3CA#FE4D0D9C00000000
(1486048658.017386) vcan0 455#A000000000000000
(1486048658.019024) vcan0 091#7F5F7E9964A0F000
(1486048658.020125) vcan0 092#6FA76F8973A352A0
(1486048658.020198) vcan0 047#2000000000000000
(1486048658.020237) vcan0 082#700814048A804000
(1486048658.020288) vcan0 085#7BCA8000F1707C46
(1486048658.021122) vcan0 165#20C0000000000000
(1486048658.021175) vcan0 217#050004EC04F804E4
(1486048658.021240) vcan0 167#727FE2100019ED00
(1486048658.022022) vcan0 178#000002000E79CA7A
(1486048658.022087) vcan0 200#00007FE37FE30000
(1486048658.022126) vcan0 202#04295800600005C3
(1486048658.023024) vcan0 204#C0007D0234000000
(1486048658.023069) vcan0 350#0000000000000000
(1486048658.023106) vcan0 230#200600008C000000
(1486048658.023137) vcan0 261#0000000000000000
(1486048658.024144) vcan0 3E0#0000000080000000
(1486048658.026641) vcan0 3A8#0100269500000000
(1486048658.027770) vcan0 05A#00000045EE610000
(1486048658.029022) vcan0 091#7F627E9267A1F000
(1486048658.030021) vcan0 092#6F956F9673A257A1
(1486048658.030086) vcan0 167#727FE2100019ED00
(1486048658.030124) vcan0 085#7BCB8000EF807C46
(1486048658.030174) vcan0 202#04276000600005C4
(1486048658.031136) vcan0 186#1405015301F70400
(1486048658.031209) vcan0 187#DE1408C800500300
(1486048658.031248) vcan0 076#3E06C0800FFF0000
(1486048658.031298) vcan0 077#05CC07E07FF801F3
(1486048658.031978) vcan0 07D#0000F5A00820C820
(1486048658.032030) vcan0 18A#0020180111000000
(1486048658.032063) vcan0 204#C0007D0235000000
(1486048658.032109) vcan0 213#FFFF00040001FF40
(1486048658.033078) vcan0 214#000000000000F5A0
(1486048658.033129) vcan0 078#0469000000000000
(1486048658.033175) vcan0 216#EBC57CD500000000
(1486048658.033220) vcan0 217#050004EC04F804E0
(1486048658.034086) vcan0 3CC#1000000000000000
(1486048658.034122) vcan0 415#05CEF81B07E107E1
(1486048658.034169) vcan0 41D#8000600000000000
(1486048658.034203) vcan0 4B0#01008000A00088E4
(1486048658.038964) vcan0 091#7F4D7E8A83A2F000
(1486048658.039940) vcan0 092#6F886FA0739467A2
(1486048658.039989) vcan0 082#6D0814008A804000
(1486048658.040034) vcan0 047#2000000000000000
(1486048658.040066) vcan0 085#7BCC8000ED907C46
(1486048658.040953) vcan0 165#20C0000000000000
(1486048658.040987) vcan0 167#727FE2100019ED00
(1486048658.041015) vcan0 217#04F804E804F804E4
(1486048658.041060) vcan0 200#00007FE37FE30000
(1486048658.042124) vcan0 202#04256800600005C5
(1486048658.042188) vcan0 204#C0007D0235000000
(1486048658.042225) vcan0 230#200600008C000000
(1486048658.043141) vcan0 42F#7D04002E65FC0234
(1486048658.044115) vcan0 242#05B32018CE000001
(1486048658.046373) vcan0 3CA#FE4D0D9C00000000
(1486048658.047502) vcan0 3A8#0100269700000000
(1486048658.048642) vcan0 04A#0200000000000000
(1486048658.049646) vcan0 04B#00C0D8D8D8D8C000
(1486048658.049715) vcan0 04C#105FFFC000000000
(1486048658.049769) vcan0 091#7F237E81B5A3F000
(1486048658.049880) vcan0 085#7BCC8000EDA07C45
(1486048658.050703) vcan0 092#6F8A6FA0738573A3
(1486048658.050809) vcan0 167#727FE1100019ED00
(1486048658.050892) vcan0 186#1405015301F70400
(1486048658.050967) vcan0 076#3E07C0800FFF0000
(1486048658.051636) vcan0 077#05CC07DC7FF7E1FA
(1486048658.051718) vcan0 07D#0000F4B00820881A
(1486048658.051787) vcan0 187#DE1408C800500300
(1486048658.051853) vcan0 202#04227000600005C7
(1486048658.052730) vcan0 204#C0007D0235000000
(1486048658.052803) vcan0 213#FFFF00040001FF40
(1486048658.052869) vcan0 214#000000000000F4B0
(1486048658.052938) vcan0 216#EFCB82DA00000000
(1486048658.053726) vcan0 078#0168800000000000
(1486048658.053828) vcan0 217#04F404EC04F804E4
(1486048658.053904) vcan0 415#05C7FC2107E107E1
(1486048658.053974) vcan0 41D#8000600000000000
(1486048658.054039) vcan0 42C#8C20000008C00000
(1486048658.054722) vcan0 4B0#01008000B00088E3
(1486048658.058972) vcan0 091#7EE77E7BF7A4F000
(1486048658.059976) vcan0 092#6F9B6F96737F71A4
(1486048658.060056) vcan0 047#2000000000000000
(1486048658.060125) vcan0 082#6F0814008A804000
(1486048658.060196) vcan0 085#7BCC8000ECB07C45
(1486048658.061007) vcan0 165#20C0000000000000
(1486048658.061083) vcan0 167#727FE1100019ED00
(1486048658.061154) vcan0 200#00007FE37FE30000
(1486048658.061222) vcan0 217#04F004F404F804E8
(1486048658.061978) vcan0 202#04217800600005C7
(1486048658.062053) vcan0 204#C0007D0235000000
(1486048658.062118) vcan0 230#200600008C000000
(1486048658.062183) vcan0 3CC#1000000000000000
(1486048658.065718) vcan0 3A8#0100269800000000
(1486048658.068479) vcan0 33B#0000000000000000
(1486048658.069479) vcan0 091#7E9E7E7941A5F000
(1486048658.069547) vcan0 092#6FAE6F8C737D69A5
(1486048658.069612) vcan0 167#727FE1100019ED00
(1486048658.070624) vcan0 085#7BCC8000EBC07C45
(1486048658.070707) vcan0 186#1405015301F70400
(1486048658.070778) vcan0 187#DE1408C800500300
(1486048658.070846) vcan0 202#04300000600005C7
(1486048658.071611) vcan0 076#3E09C0800FFF0000
(1486048658.071686) vcan0 077#05CD07D77FF7F9F7
(1486048658.071750) vcan0 07D#0000F3C0082027FB
(1486048658.071814) vcan0 204#C0007D0235000000
(1486048658.072630) vcan0 213#FFFF00040001FF40
(1486048658.072697) vcan0 214#000000000000F3C0
(1486048658.072761) vcan0 216#F5CF88DF00000000
(1486048658.072822) vcan0 078#0168800000000000
(1486048658.072879) vcan0 217#04F004F404F404EC
(1486048658.073588) vcan0 261#0000000000000000
(1486048658.073651) vcan0 415#05C8C02F07E107E1
(1486048658.073720) vcan0 41D#8000600000000000
(1486048658.073780) vcan0 42F#7D04002E65FC0234
(1486048658.074589) vcan0 4B0#01008000C00088E2
(1486048658.076346) vcan0 3CA#FE4CFD9C00000000
(1486048658.078974) vcan0 091#7E567E7C85A6F000
(1486048658.080067) vcan0 092#6FBF6F88737B5DA6
(1486048658.080160) vcan0 082#700814008A804000
(1486048658.080232) vcan0 047#2000000000000000
(1486048658.080299) vcan0 085#7BCC8000EAD07C45
(1486048658.081009) vcan0 165#20C0000000000000
(1486048658.081078) vcan0 167#727FE2100019ED00
(1486048658.081145) vcan0 200#00007FE37FE30000
(1486048658.081205) vcan0 217#04EC04F404F404EC
(1486048658.082053) vcan0 202#042F0800600005C7
(1486048658.082145) vcan0 204#C0007D0236000000
(1486048658.082212) vcan0 230#200600008C000000
(1486048658.083700) vcan0 242#05B32016CE000001
(1486048658.086130) vcan0 3A8#0100269A00000000
(1486048658.088652) vcan0 083#4020000008000000
(1486048658.089672) vcan0 2A1#FFFFFFFF00000000
(1486048658.089739) vcan0 091#7E1F7E81B6A7F000
(1486048658.089791) vcan0 092#6FCD6F8C73774EA7
(1486048658.089874) vcan0 085#7BCC8000E9E07C45
(1486048658.090687) vcan0 05D#835C9F642D000000
(1486048658.090750) vcan0 167#727FE2100019ED00
(1486048658.090797) vcan0 186#1405015301F70400
(1486048658.090838) vcan0 076#3E09C0800FFF0000
(1486048658.091806) vcan0 077#05CE07D77FF81DF3
(1486048658.091877) vcan0 07D#0000F2D0082017CE
(1486048658.091924) vcan0 187#DD1408C800600300
(1486048658.091969) vcan0 202#042E1000600005C7
(1486048658.092795) vcan0 204#C0007D0236000000
(1486048658.092863) vcan0 213#FFFF00040001FF40
(1486048658.092912) vcan0 078#0068000000000000
(1486048658.092957) vcan0 214#000000000000F2D0
(1486048658.093686) vcan0 216#F9D58CE400000000
(1486048658.093748) vcan0 217#04F004F404F404F0
(1486048658.093798) vcan0 3CC#1000000000000000
(1486048658.093889) vcan0 415#05C6C43007E207E2
(1486048658.094668) vcan0 41D#8000600000000000
(1486048658.094721) vcan0 422#000000953802FE02
(1486048658.094767) vcan0 423#9220000000000000
(1486048658.094833) vcan0 430#37000CE6C8867700
(1486048658.094898) vcan0 4B0#01008000D00088E1
(1486048658.099158) vcan0 091#7E047E87CAA8F000
(1486048658.100279) vcan0 092#6FD66F9573733FA8
(1486048658.100341) vcan0 047#2000000000000000
(1486048658.100379) vcan0 05C#803000F8201E0000
(1486048658.100418) vcan0 082#700814008A804000
(1486048658.101277) vcan0 085#7BCC8000E8F07C45
(1486048658.101343) vcan0 165#20C0000000000000
(1486048658.101389) vcan0 167#727FE2100019ED00
(1486048658.101426) vcan0 217#04F404F004F004F0
(1486048658.102148) vcan0 200#00007FE37FE30000
(1486048658.102202) vcan0 202#042D1800600005C7
(1486048658.102248) vcan0 204#C0007D0236000000
(1486048658.103262) vcan0 230#200600008C000000
(1486048658.103332) vcan0 42F#7D04002E65FC0234
(1486048658.104261) vcan0 42C#8C20000008C00000
(1486048658.106509) vcan0 3CA#FE4CFD9C00000000
(1486048658.107513) vcan0 3A8#0100269A00000000
(1486048658.108417) vcan0 188#4000000000000000
(1486048658.109542) vcan0 091#7E037E89C8A9F000
(1486048658.109599) vcan0 092#6FD76F9D737236A9
(1486048658.109642) vcan0 186#1404015301F70400
(1486048658.110536) vcan0 187#DD1408C800600300
(1486048658.110590) vcan0 085#7BCC8000F7007C45
(1486048658.110635) vcan0 167#727FE1100019ED00
(1486048658.110676) vcan0 202#042D2000600005C6
(1486048658.110716) vcan0 204#C0007D0236000000
(1486048658.111541) vcan0 076#3E09C0800FFF0000
(1486048658.111597) vcan0 077#05CE07DB7FF835F7
(1486048658.111641) vcan0 07D#0000F1E0081FF7B5
(1486048658.111683) vcan0 213#FFFF00040001FF40
(1486048658.112542) vcan0 214#000000000000F1E0
(1486048658.112601) vcan0 216#FFDB92E900000000
(1486048658.112645) vcan0 217#04F804F004F404EC
(1486048658.112686) vcan0 078#0168800000000000
(1486048658.113543) vcan0 415#05CAC82B07E207E2
(1486048658.113602) vcan0 416#5A00F40001000000
(1486048658.113646) vcan0 41D#8000600000000000
(1486048658.113684) vcan0 4B0#01008000E00088E0
(1486048658.116780) vcan0 455#A000000000000000
(1486048658.118658) vcan0 091#7E157E88B6AAF000
(1486048658.119659) vcan0 092#6FD06F9E737538AA
(1486048658.119715) vcan0 047#2000000000000000
(1486048658.120666) vcan0 082#700814008A804000
(1486048658.120718) vcan0 085#7BCC8000F5107C46
(1486048658.120762) vcan0 165#20C0000000000000
(1486048658.120800) vcan0 217#04FC04F004F404EC
(1486048658.121941) vcan0 3CC#1000000000000000
(1486048658.121996) vcan0 167#727FE1100019ED00
(1486048658.122031) vcan0 178#000002000E79CA7A
(1486048658.122067) vcan0 200#00007FE27FE20000
(1486048658.122884) vcan0 202#042B2800600005C7
(1486048658.122944) vcan0 204#C0007D0236000000
(1486048658.122978) vcan0 230#200600008C000000
(1486048658.123784) vcan0 261#0000000000000000
(1486048658.123834) vcan0 242#05B32017CE000001
(1486048658.125899) vcan0 3A8#0100269A00000000
(1486048658.127364) vcan0 05A#00000045F4010000
(1486048658.128517) vcan0 33B#0000000000000000
(1486048658.129649) vcan0 186#1404015301F70400
(1486048658.129698) vcan0 091#7E327E8799ABF000
(1486048658.129737) vcan0 092#6FC86F9C737A3CAB
(1486048658.130648) vcan0 085#7BCC8000F4207C46
(1486048658.130700) vcan0 167#727FE1100019ED00
(1486048658.130738) vcan0 187#DD1408C800600300
(1486048658.130772) vcan0 18A#0020180111000000
(1486048658.130803) vcan0 076#3E09C0800FFF0000
(1486048658.131764) vcan0 077#05CE07DB7FF82DF9
(1486048658.131825) vcan0 07D#0000F0F0089FF7BA
(1486048658.131864) vcan0 202#042A3000600005C7
(1486048658.131901) vcan0 204#C0007D0237000000
(1486048658.132656) vcan0 213#FFFF00040001FF40
(1486048658.132704) vcan0 214#000000000000F0F0
(1486048658.132745) vcan0 078#0569800000000000
(1486048658.132782) vcan0 216#03DF96EE00000000
(1486048658.133654) vcan0 217#04FC04F004F404E8
(1486048658.133705) vcan0 415#05CECC2607E207E2
(1486048658.133744) vcan0 41D#8000600000000000
(1486048658.133776) vcan0 42F#7D04002E65FC0234
(1486048658.134652) vcan0 4B0#01008000F00088DF
(1486048658.136394) vcan0 3CA#FE4CFD9C00000000
(1486048658.139030) vcan0 091#7E4E7E877CACF000
(1486048658.140034) vcan0 092#6FC66F99737F3BAC
(1486048658.140085) vcan0 082#700814008A804000
(1486048658.140122) vcan0 047#2000000000000000
(1486048658.140157) vcan0 085#7BCB8000F5307C45
(1486048658.141027) vcan0 165#20C0000000000000
(1486048658.141076) vcan0 167#727FE1100019ED00
(1486048658.141113) vcan0 200#00007FE37FE30000
(1486048658.141150) vcan0 217#04F804EC04F404E8
(1486048658.142138) vcan0 202#04283800600005C8
(1486048658.142196) vcan0 204#C0007D0237000000
(1486048658.142231) vcan0 230#200600008C000000
(1486048658.146649) vcan0 3A8#0100269A00000000
(1486048658.148649) vcan0 04A#0200000000000000
(1486048658.149655) vcan0 04B#00C0D8D8D8D8C000
(1486048658.149704) vcan0 04C#105FFFC000000000
(1486048658.149742) vcan0 091#7E617E8A65ADF000
(1486048658.149780) vcan0 085#7BCB8000F3407C46
(1486048658.150611) vcan0 092#6FC66F9473843AAD
(1486048658.150646) vcan0 167#727FE1100019ED00
(1486048658.150671) vcan0 186#1404015301F70400
(1486048658.150694) vcan0 076#3E09C0800FFF0000
(1486048658.151594) vcan0 077#05CF07DB7FF825F8
(1486048658.151629) vcan0 07D#0000FF0008A027CC
(1486048658.151656) vcan0 187#DD1408C800600300
(1486048658.151679) vcan0 202#04264000600005C9
(1486048658.152719) vcan0 204#C0007D0237000000
(1486048658.152752) vcan0 213#FFFF00040001FF40
(1486048658.152777) vcan0 214#000000000000FF00
(1486048658.152803) vcan0 216#09E59CF400000000
(1486048658.153722) vcan0 078#0068000000000000
(1486048658.153757) vcan0 217#04F804EC04F404EC
(1486048658.153784) vcan0 3CC#1000000000000000
(1486048658.153828) vcan0 415#05CAD02907E207E2
(1486048658.153855) vcan0 41D#8000600000000000
(1486048658.154740) vcan0 42C#8C20000008C00000
(1486048658.154773) vcan0 4B0#01008000000088EE
(1486048658.157361) vcan0 3A7#0E423A045F700000
(1486048658.158993) vcan0 091#7E707E934CAEF000
(1486048658.160118) vcan0 092#6FC66F9073853CAE
(1486048658.160153) vcan0 082#700814008A804000
(1486048658.160393) vcan0 047#2000000000000000
(1486048658.160423) vcan0 085#7BCA8000F3507C46
(1486048658.161051) vcan0 165#20C0000000000000
(1486048658.161077) vcan0 167#727FE1100019ED00
(1486048658.161100) vcan0 217#04F804EC04F404EC
(1486048658.161122) vcan0 200#00007FE27FE20000
(1486048658.162046) vcan0 202#04254800600005C9
(1486048658.162073) vcan0 204#C0007D0237000000
(1486048658.162110) vcan0 230#200600008C000000
(1486048658.163046) vcan0 42F#7D04002E65FC0234
(1486048658.164238) vcan0 242#05B32015CE000001
(1486048658.165849) vcan0 3A8#0100269A00000000
(1486048658.166821) vcan0 3CA#FE4CFD9C00000000
(1486048658.167823) vcan0 3A6#0E401A045F700000
(1486048658.168744) vcan0 186#1404015301F70400
(1486048658.169716) vcan0 187#DD1408C800600300
(1486048658.169743) vcan0 091#7E7F7EA02FAFF000
(1486048658.169769) vcan0 092#6FBF6F8F737E4AAF
(1486048658.169795) vcan0 085#7BCA8000F2607C46
(1486048658.169839) vcan0 167#727FE1100019ED00
(1486048658.170725) vcan0 202#04245000600005C9
(1486048658.170784) vcan0 204#C0007D0237000000
(1486048658.170823) vcan0 076#3E07C0800FFF0000
(1486048658.171744) vcan0 077#05CE07DF7FF825F5
(1486048658.171779) vcan0 07D#0000FE1008A047D6
(1486048658.171807) vcan0 213#FFFF00040001FF40
(1486048658.171830) vcan0 214#000000000000FE10
(1486048658.172871) vcan0 216#0EE9A0F800000000
(1486048658.172906) vcan0 217#04F004EC04F004E8
(1486048658.172932) vcan0 261#0000000000000000
(1486048658.172956) vcan0 078#0168800000000000
(1486048658.172979) vcan0 415#05C8D42A07E207E2
(1486048658.173866) vcan0 41D#8000600000000000
(1486048658.173898) vcan0 4B0#01008000100088ED
(1486048658.178957) vcan0 091#7E8B7EAA18B0F000
(1486048658.179994) vcan0 092#6FB16F8F737263B0
(1486048658.180028) vcan0 047#2000000000000000
(1486048658.180053) vcan0 082#6E0814008A804000
(1486048658.180077) vcan0 085#7BC98000F2707C46
(1486048658.180949) vcan0 165#20C0000000000000
(1486048658.180973) vcan0 167#727FE0100019ED00
(1486048658.180997) vcan0 200#00007FE27FE20000
(1486048658.181019) vcan0 217#04F404E804EC04EC
(1486048658.181969) vcan0 202#04235800600005C9
(1486048658.182003) vcan0 204#C0007D0237000000
(1486048658.182029) vcan0 230#200600008C000000
(1486048658.182051) vcan0 3CC#1000000000000000
(1486048658.182963) vcan0 456#8000000000000000
(1486048658.183964) vcan0 265#2001010410000000
(1486048658.183997) vcan0 453#3257364570646166
(1486048658.186741) vcan0 3A8#0100269800000000
(1486048658.188572) vcan0 186#1404015301F70400
(1486048658.189577) vcan0 083#4020000008000000
(1486048658.189615) vcan0 187#DC1408C800700300
(1486048658.189642) vcan0 091#7E907EB10BB1F000
(1486048658.189667) vcan0 092#6FA06F8E736E78B1
(1486048658.190493) vcan0 085#7BC98000F1807C46
(1486048658.190527) vcan0 05D#835C876433000000
(1486048658.190553) vcan0 167#727FE0100019ED00
(1486048658.190577) vcan0 202#04236000600005C8
(1486048658.191495) vcan0 076#3E06C0800FFF0000
(1486048658.191530) vcan0 077#05CD07E67FF809F5
(1486048658.191557) vcan0 07D#0000FD20081FE7DF
(1486048658.191583) vcan0 204#C0007D0236000000
(1486048658.192471) vcan0 213#FFFF00040001FF40
(1486048658.192504) vcan0 214#000000000000FD20
(1486048658.192531) vcan0 216#13EFA6FE00000000
(1486048658.192557) vcan0 078#0168800000000000
(1486048658.193470) vcan0 217#04F004EC04E804EC
(1486048658.193505) vcan0 2A1#FFFFFFFF00000000
(1486048658.193529) vcan0 33B#0000000000000000
(1486048658.193552) vcan0 415#05C2D82F07E207E2
(1486048658.193576) vcan0 41D#8000600000000000
(1486048658.194467) vcan0 422#000000953802FE02
(1486048658.194499) vcan0 423#9220000000000000
(1486048658.194524) vcan0 42F#7D04002E65FC0234
(1486048658.194548) vcan0 430#37000CE6C8867700
(1486048658.195466) vcan0 4B0#01008000200078EE
(1486048658.196488) vcan0 3CA#FE4CDD9D00000000
(1486048658.198993) vcan0 091#7E907EB407B2F000
(1486048658.199985) vcan0 092#6F946F8C737281B2
(1486048658.200020) vcan0 047#2000000000000000
(1486048658.200045) vcan0 082#6B0814008A804000
(1486048658.200069) vcan0 05C#80D000EE201E0000
(1486048658.201116) vcan0 085#7BC88000F1907C46
(1486048658.201150) vcan0 165#20C0000000000000
(1486048658.201175) vcan0 167#727FE1100019ED00
(1486048658.201199) vcan0 200#00007FE27FE20000
(1486048658.202093) vcan0 217#04F004E804E804EC
(1486048658.202127) vcan0 202#04236800600005C7
(1486048658.202153) vcan0 204#C0007D0236000000
(1486048658.202176) vcan0 230#200600008C000000
(1486048658.203465) vcan0 242#05B32014CE000001
(1486048658.205213) vcan0 3EB#C604140000200000
(1486048658.206328) vcan0 40A#C1023130373639FF
(1486048658.206369) vcan0 3A8#0100269700000000
(1486048658.206435) vcan0 42C#8C20000008C00000
(1486048658.208235) vcan0 186#1404015301F70400
(1486048658.209324) vcan0 187#DC1408C800700300
(1486048658.209361) vcan0 091#7E8C7EB40AB3F000
(1486048658.209388) vcan0 092#6F8D6F8B737A80B3
(1486048658.210374) vcan0 085#7BC88000F0A07C46
(1486048658.210408) vcan0 167#727FE1100019ED00
(1486048658.210433) vcan0 202#04237000600005C6
(1486048658.210458) vcan0 204#C0007D0237000000
(1486048658.211360) vcan0 3CC#1000000000000000
(1486048658.211393) vcan0 076#3E06C0800FFF0000
(1486048658.211419) vcan0 077#05CB07E97FF7F1F4
(1486048658.211444) vcan0 07D#0000FC30081FE7E0
(1486048658.212344) vcan0 213#FFFF00040001FF40
(1486048658.212377) vcan0 214#000000000000FC30
(1486048658.212403) vcan0 078#0068000000000000
(1486048658.212428) vcan0 216#18F3AA0200000000
(1486048658.213344) vcan0 217#04F004E404EC04F0
(1486048658.213379) vcan0 415#05C2DC2E07E207E2
(1486048658.213406) vcan0 416#5B00F30001000000
(1486048658.213431) vcan0 41D#8000600000000000
(1486048658.214342) vcan0 4B0#01008000300088EB
(1486048658.216861) vcan0 3E2#0000000080000000
(1486048658.217861) vcan0 455#A000000000000000
(1486048658.219074) vcan0 091#7E8A7EB40BB4F000
(1486048658.219989) vcan0 092#6F8C6F8A737D7EB4
(1486048658.220023) vcan0 047#2000000000000000
(1486048658.220048) vcan0 082#6B0814008A804000
(1486048658.220071) vcan0 085#7BC98000EEB07C46
(1486048658.220985) vcan0 165#20C0000000000000
(1486048658.221018) vcan0 217#04EC04E404EC04F4
(1486048658.221045) vcan0 167#727FE1100019ED00
(1486048658.222115) vcan0 178#000002000E79CA7A
(1486048658.222149) vcan0 200#00007FE27FE20000
(1486048658.223092) vcan0 202#04237800600005C5
(1486048658.223127) vcan0 204#C0007D0237000000
(1486048658.223151) vcan0 230#200600008C000000
(1486048658.224110) vcan0 261#0000000000000000
(1486048658.225108) vcan0 42F#7D04002E65FC0234
(1486048658.226239) vcan0 3A8#0100269700000000
(1486048658.227322) vcan0 3CA#FE4CDD9D00000000
(1486048658.228324) vcan0 05A#00000045EAA10000
(1486048658.228364) vcan0 168#0000000000000000
(1486048658.228388) vcan0 186#1404015301F70400
(1486048658.229245) vcan0 187#DC1408C800700300
(1486048658.229279) vcan0 091#7E937EB6FFB5F000
(1486048658.229308) vcan0 18A#0020180111000000
(1486048658.229331) vcan0 092#6F916F8C73767DB5
(1486048658.230238) vcan0 167#727FE1100019ED00
(1486048658.230270) vcan0 085#7BC98000EDC07C46
(1486048658.230300) vcan0 202#04320000600005C5
(1486048658.230325) vcan0 204#C0007D0237000000
(1486048658.231244) vcan0 076#3E04C0800FFF0000
(1486048658.231279) vcan0 077#05CB07E97FF7E9F4
(1486048658.231306) vcan0 07D#0000FB40082017DF
(1486048658.231332) vcan0 213#FFFF00040001FE40
(1486048658.232220) vcan0 214#000000000000FB40
(1486048658.232255) vcan0 216#1DF9B00800000000
(1486048658.232282) vcan0 217#04F004E404F404F4
(1486048658.232306) vcan0 078#0569800000000000
(1486048658.233218) vcan0 415#05BEE03107E207E2
(1486048658.233253) vcan0 41D#8000600000000000
(1486048658.233277) vcan0 4B0#01008000400088EA
(1486048658.238966) vcan0 091#7E9F7EB9EFB6F000
(1486048658.239990) vcan0 092#6F996F91736F76B6
(1486048658.240024) vcan0 082#690814008A804000
(1486048658.240050) vcan0 047#2000000000000000
(1486048658.240994) vcan0 085#7BC98000ECD07C46
(1486048658.241029) vcan0 165#20C0000000000000
(1486048658.241054) vcan0 167#727FE1100019ED00
(1486048658.241077) vcan0 200#00007FE27FE20000
(1486048658.241100) vcan0 217#04EC04E804F004F0
(1486048658.241991) vcan0 202#04330800600005C3
(1486048658.242026) vcan0 204#C0007D0237000000
(1486048658.242051) vcan0 230#200600008C000000
(1486048658.242073) vcan0 3CC#1000000000000000
(1486048658.243590) vcan0 242#05B32012CE000001
(1486048658.246739) vcan0 3A8#0100269500000000
(1486048658.247984) vcan0 186#1404015301F70400
(1486048658.249074) vcan0 187#DC1408C800700300
(1486048658.249113) vcan0 33B#0000000000000000
(1486048658.249136) vcan0 04A#0200000000000000
(1486048658.250084) vcan0 04B#00C0D8D8D8D8C000
(1486048658.250121) vcan0 04C#105FFFC000000000
(1486048658.250145) vcan0 085#7BC98000EBE07C46
(1486048658.250171) vcan0 091#7EAE7EBEDAB7F000
(1486048658.250196) vcan0 092#6F9E6F96736E6CB7
(1486048658.250999) vcan0 167#727FE1100019ED00
(1486048658.251032) vcan0 076#3E06C0800FFF0000
(1486048658.251059) vcan0 077#05CA07EA7FF7F5F6
(1486048658.251084) vcan0 07D#0000FA50089FD7E5
(1486048658.252093) vcan0 202#04331000600005C2
(1486048658.252128) vcan0 204#C0007D0237000000
(1486048658.252154) vcan0 213#FFFF00040001FE40
(1486048658.252177) vcan0 214#000000000000FA50
(1486048658.253117) vcan0 216#22FDB40C00000000
(1486048658.253153) vcan0 217#04EC04F004F404EC
(1486048658.253180) vcan0 415#05C0E42E07E207E2
(1486048658.253206) vcan0 078#0168800000000000
(1486048658.254096) vcan0 41D#8000600000000000
(1486048658.254129) vcan0 42F#7D04002E65FC0234
(1486048658.254154) vcan0 4B0#01008000500088E9
(1486048658.254179) vcan0 42C#8C20000008C00000
(1486048658.256337) vcan0 3CA#FE4CDD9D00000000
(1486048658.258966) vcan0 091#7EBB7EBFCBB8F000
(1486048658.260078) vcan0 092#6F9B6F9A737167B8
(1486048658.260119) vcan0 047#2000000000000000
(1486048658.260143) vcan0 082#6E0814008A804000
(1486048658.260169) vcan0 085#7BC98000EAF07C46
(1486048658.260995) vcan0 165#20C0000000000000
(1486048658.261029) vcan0 167#727FE1100019ED00
(1486048658.261054) vcan0 200#00007FE27FE20000
(1486048658.261077) vcan0 217#04E804F004F404E8
(1486048658.261991) vcan0 202#04321800600005C2
(1486048658.262025) vcan0 204#C0007D0237000000
(1486048658.262048) vcan0 230#200600008C000000
(1486048658.265612) vcan0 3A8#0100269700000000
(1486048658.267825) vcan0 186#1404015301F70400
(1486048658.268820) vcan0 187#DC1408C800700300
(1486048658.269959) vcan0 091#7EC37EBCC5B9F000
(1486048658.270000) vcan0 092#6F936F97737072B9
(1486048658.270028) vcan0 167#727FE1100019ED00
(1486048658.270050) vcan0 085#7BC98000F9007C46
(1486048658.270869) vcan0 202#04322000600005C1
(1486048658.270947) vcan0 204#C0007D0235000000
(1486048658.270991) vcan0 261#0000000000000000
(1486048658.271026) vcan0 076#3E06C0800FFF0000
(1486048658.271806) vcan0 077#05CA07EC7FF7F9F8
(1486048658.271844) vcan0 07D#0000F960089FE7EE
(1486048658.271878) vcan0 213#FFFF00040001FF40
(1486048658.271911) vcan0 214#000000000000F960
(1486048658.272795) vcan0 216#2703BA1200000000
(1486048658.272828) vcan0 078#0068000000000000
(1486048658.272859) vcan0 217#04EC04EC04F404E4
(1486048658.272890) vcan0 3CC#1000000000000000
(1486048658.273791) vcan0 415#05C4E82907E207E2
(1486048658.273845) vcan0 41D#8000600000000000
(1486048658.273877) vcan0 4B0#01008000600088E8
(1486048658.278924) vcan0 091#7ECB7EB6C2BAF000
(1486048658.279935) vcan0 092#6F916F93736D7ABA
(1486048658.279971) vcan0 047#2000000000000000
(1486048658.280002) vcan0 082#640814008A804000
(1486048658.280937) vcan0 085#7BCA8000F7107C46
(1486048658.280971) vcan0 165#20C0000000000000
(1486048658.281002) vcan0 167#727FE1100019ED00
(1486048658.281031) vcan0 217#04F004E404F404EC
(1486048658.281062) vcan0 200#00007FE27FE20000
(1486048658.281923) vcan0 202#04302800600005C2
(1486048658.281959) vcan0 204#C0007D0235000000
(1486048658.281988) vcan0 230#200600008C000000
(1486048658.282922) vcan0 42F#7D04002E65FC0235
(1486048658.284073) vcan0 242#05B32013CE000001
(1486048658.286458) vcan0 3CA#FE4CCD9D00000000
(1486048658.287451) vcan0 3A8#0100269700000000
(1486048658.288450) vcan0 186#1404015301F70400
(1486048658.288500) vcan0 187#DB1408C800800300
(1486048658.289490) vcan0 083#4020000008000000
(1486048658.289535) vcan0 2A1#FFFFFFFF00000000
(1486048658.289571) vcan0 091#7EDB7EAFB8BBF000
(1486048658.289605) vcan0 092#6F9D6F92736D6EBB
(1486048658.290461) vcan0 085#7BCA8000F6207C46
(1486048658.290497) vcan0 05D#835CAF6429000000
(1486048658.290529) vcan0 167#727FE1100019ED00
(1486048658.290559) vcan0 202#042F3000600005C2
(1486048658.291423) vcan0 076#3E06C0800FFF0000
(1486048658.291456) vcan0 077#05CA07E97FF7EDF6
(1486048658.291486) vcan0 07D#0000F870089FD7F3
(1486048658.291518) vcan0 169#0081C00000000000
(1486048658.291547) vcan0 204#C0007D0236000000
(1486048658.292425) vcan0 213#FFFF00040001FF40
(1486048658.292459) vcan0 214#000000000000F870
(1486048658.292490) vcan0 078#0168800000000000
(1486048658.292520) vcan0 216#2C07BE1600000000
(1486048658.293421) vcan0 217#04F004E804F004F0
(1486048658.293456) vcan0 415#05BFEC2D07E207E2
(1486048658.293488) vcan0 41D#8000600000000000
(1486048658.293518) vcan0 422#000000953802FE02
(1486048658.294421) vcan0 423#9220000000000000
(1486048658.294453) vcan0 430#37000CE6C8867700
(1486048658.294482) vcan0 4B0#01008000700088E7
(1486048658.299051) vcan0 091#7EF27EA9A6BCF000
(1486048658.300084) vcan0 092#6FA36F91736F66BC
(1486048658.300118) vcan0 047#2000000000000000
(1486048658.300149) vcan0 082#720814088A804000
(1486048658.300180) vcan0 05C#807000F4201E0000
(1486048658.301085) vcan0 085#7BCA8000F5307C46
(1486048658.301119) vcan0 165#20C0000000000000
(1486048658.301148) vcan0 167#727FE1100019ED00
(1486048658.301177) vcan0 200#00007FE37FE30000
(1486048658.302048) vcan0 217#04F404E804F004EC
(1486048658.302084) vcan0 202#042F3800600005C1
(1486048658.302115) vcan0 204#C0007D0236000000
(1486048658.302144) vcan0 230#200600008C000000
(1486048658.303043) vcan0 3CC#1000000000000000
(1486048658.304200) vcan0 3B3#4048020F10050002
(1486048658.304255) vcan0 3C3#7EC1000000000000
(1486048658.304290) vcan0 42C#8C20000008C00000
(1486048658.305678) vcan0 3A8#0100269700000000
(1486048658.307465) vcan0 186#1404015301F70400
(1486048658.308451) vcan0 187#DB1408C800800300
(1486048658.309460) vcan0 33B#0000000000000000
(1486048658.309495) vcan0 091#7F087EA592BDF000
(1486048658.309529) vcan0 092#6F9E6F92737662BD
(1486048658.309560) vcan0 167#727FE1100019ED00
(1486048658.310436) vcan0 085#7BCC8000F2407C46
(1486048658.310471) vcan0 202#042E4000600005C1
(1486048658.310501) vcan0 204#C0007D0236000000
(1486048658.310530) vcan0 076#3E06C0800FFF0000
(1486048658.311427) vcan0 077#05CA07E57FF7FDF6
(1486048658.311462) vcan0 07D#0000F780089FD7FF
(1486048658.311493) vcan0 213#FFFF00040001FF40
(1486048658.311522) vcan0 214#000000000000F780
(1486048658.312423) vcan0 216#310DC41C00000000
(1486048658.312459) vcan0 217#04F804E404EC04EC
(1486048658.312491) vcan0 078#0168800000000000
(1486048658.312520) vcan0 415#05C5F02607E207E2
(1486048658.313547) vcan0 416#5C00F20001000000
(1486048658.313582) vcan0 41D#8000600000000000
(1486048658.313613) vcan0 42F#7D04002E65FC0235
(1486048658.313642) vcan0 4B0#01008000800088E6
(1486048658.316294) vcan0 3CA#FE4CCD9D00000000
(1486048658.317305) vcan0 455#A000000000000000
(1486048658.318933) vcan0 091#7F1C7EA082BEF000
(1486048658.319958) vcan0 092#6F986F91737A64BE
(1486048658.319993) vcan0 082#6B0814008A804000
(1486048658.320024) vcan0 047#2000000000000000
(1486048658.320055) vcan0 085#7BCE8000EF507C46
(1486048658.320933) vcan0 165#20C0000000000000
(1486048658.320966) vcan0 217#04F404E404E404EC
(1486048658.320997) vcan0 167#727FE1100019ED00
(1486048658.321920) vcan0 178#000001FF0E79CA7A
(1486048658.321954) vcan0 200#00007FE27FE20000
(1486048658.321993) vcan0 202#042D4800600005C1
(1486048658.322919) vcan0 204#C0007D0236000000
(1486048658.322950) vcan0 230#200600008C000000
(1486048658.322979) vcan0 261#0000000000000000
(1486048658.324041) vcan0 242#05B32013CE000001
(1486048658.326668) vcan0 3A8#0100269700000000
(1486048658.327732) vcan0 05A#00000045F0410000
(1486048658.327779) vcan0 186#1404015301F70400
(1486048658.327814) vcan0 187#DB1408C800800300
(1486048658.328832) vcan0 18A#0020180111000000
(1486048658.328868) vcan0 091#7F287E9B7ABFF000
(1486048658.329853) vcan0 092#6F986F94737763BF
(1486048658.329890) vcan0 167#727FE1100019ED00
(1486048658.329921) vcan0 085#7BD08000EC607C46
(1486048658.330796) vcan0 202#042B5000600005C2
(1486048658.330831) vcan0 204#C0007D0236000000
(1486048658.330860) vcan0 3CC#1000000000000000
(1486048658.330889) vcan0 076#3E09C0800FFF0000
(1486048658.331796) vcan0 077#05CA07E37FF7F5F6
(1486048658.331829) vcan0 07D#0000F69008A0180B
(1486048658.331859) vcan0 213#FFFF00040001FF40
(1486048658.331887) vcan0 214#000000000000F690
(1486048658.332798) vcan0 078#0469000000000000
(1486048658.332834) vcan0 216#3612C92000000000
(1486048658.332866) vcan0 217#04EC04E804E004EC
(1486048658.332895) vcan0 415#05C2F42807E207E2
(1486048658.332925) vcan0 41D#8000600000000000
(1486048658.333794) vcan0 4B0#01008000900088E5
(1486048658.338937) vcan0 091#7F2A7E9B77C0F000
(1486048658.339919) vcan0 092#6F966F96737960C0
(1486048658.339953) vcan0 047#2000000000000000
(1486048658.339984) vcan0 082#6F0814008A804000
(1486048658.340015) vcan0 085#7BD08000EC707C45
(1486048658.340934) vcan0 165#20C0000000000000
(1486048658.340967) vcan0 167#727FE1100019ED00
(1486048658.340995) vcan0 217#04E004EC04E004EC
(1486048658.341026) vcan0 200#00007FE27FE20000
(1486048658.341919) vcan0 202#042A5800600005C2
(1486048658.341952) vcan0 204#C0007D0236000000
(1486048658.342919) vcan0 230#200600008C000000
(1486048658.342952) vcan0 42F#7D04002E65FC0235
(1486048658.345580) vcan0 3A8#0100269A00000000
(1486048658.346826) vcan0 3CA#FE4CCD9D00000000
(1486048658.347947) vcan0 186#1404015301F70400
(1486048658.348000) vcan0 187#DB1408C800800300
(1486048658.348838) vcan0 083#6020000008000000
(1486048658.349860) vcan0 04A#0200000000000000
(1486048658.349895) vcan0 04B#00C0D8D8D8D8C000
(1486048658.349927) vcan0 04C#105FFFC000000000
(1486048658.349956) vcan0 085#7BD28000E8807C46
(1486048658.349986) vcan0 091#7F287E9F74C1F000
(1486048658.350796) vcan0 092#6F916F92738859C1
(1486048658.350829) vcan0 167#727FE1100019ED00
(1486048658.350857) vcan0 076#3E0DC0800FFF0000
(1486048658.350886) vcan0 077#05C907E17FF7F1F7
(1486048658.351796) vcan0 07D#0000F5A008A0080F
(1486048658.351828) vcan0 202#04296000600005C2
(1486048658.351859) vcan0 204#C0007D0235000000
(1486048658.351887) vcan0 213#FFFF00040001FF40
(1486048658.352797) vcan0 214#000000000000F5A0
(1486048658.352831) vcan0 216#3B17CE2600000000
(1486048658.352861) vcan0 217#04DC04F404E404E4
(1486048658.352890) vcan0 078#0168800000000000
(1486048658.353801) vcan0 415#05B8F83107E207E2
(1486048658.353858) vcan0 41D#8000600000000000
(1486048658.353888) vcan0 42C#8C20000008C00000
(1486048658.353916) vcan0 4B0#01008000A00088E4
(1486048658.357293) vcan0 3A7#0E423A045F700000
(1486048658.359074) vcan0 091#7F2A7EA26EC2F000
(1486048658.360079) vcan0 092#6F936F8473A04CC2
(1486048658.360132) vcan0 082#680814008A804000
(1486048658.360168) vcan0 047#2000000000000000
(1486048658.360208) vcan0 085#7BD28000E8907C45
(1486048658.361068) vcan0 165#20C0000000000000
(1486048658.361103) vcan0 167#727FE1100019ED00
(1486048658.361135) vcan0 200#00007FE37FE30000
(1486048658.361168) vcan0 217#04E004FC04EC04DC
(1486048658.362048) vcan0 202#042A6800600005C0
(1486048658.362083) vcan0 204#C0007D0235000000
(1486048658.362112) vcan0 230#200600008C000000
(1486048658.362141) vcan0 3CC#1000000000000000
(1486048658.363671) vcan0 242#05B32015CE000001
(1486048658.366560) vcan0 3A8#0100269E00000000
(1486048658.367698) vcan0 3A6#0E401A045F700000
(1486048658.367753) vcan0 186#1404015301F70400
(1486048658.367789) vcan0 187#DB1408C800800300
(1486048658.368696) vcan0 091#7F357EA361C3F000
(1486048658.369611) vcan0 33B#0000000000000000
(1486048658.369656) vcan0 092#6F956F7673B146C3
(1486048658.369693) vcan0 085#7BD38000E5A07C46
(1486048658.370585) vcan0 167#727FE1100019ED00
(1486048658.370620) vcan0 202#042B7000600005BE
(1486048658.370656) vcan0 076#3E0EC0800FFF0000
(1486048658.371696) vcan0 077#05CB07E47FF7F1F2
(1486048658.371733) vcan0 07D#0000F4B008A0B80F
(1486048658.371773) vcan0 204#C0007D0234000000
(1486048658.371801) vcan0 213#FFFF00040001FF40
(1486048658.371827) vcan0 214#000000000000F4B0
(1486048658.372686) vcan0 216#411CD32C00000000
(1486048658.372718) vcan0 217#04E804F404F404D8
(1486048658.372746) vcan0 078#0168800000000000
(1486048658.372782) vcan0 261#0000000000000000
(1486048658.373671) vcan0 415#05C7FC2107E207E2
(1486048658.373707) vcan0 41D#8000600000000000
(1486048658.373737) vcan0 42F#7D04002E65FC0235
(1486048658.373766) vcan0 4B0#01008000B00088E3
(1486048658.376294) vcan0 3CA#FE4CBD9D00000000
(1486048658.378932) vcan0 091#7F4B7EA548C4F000
(1486048658.379934) vcan0 092#6F9A6F7B73AE3EC4
(1486048658.379968) vcan0 047#2000000000000000
(1486048658.379999) vcan0 082#660814008A804000
(1486048658.380030) vcan0 085#7BD38000E5B07C45
(1486048658.380935) vcan0 165#20C0000000000000
(1486048658.380967) vcan0 167#727FE2100019ED00
(1486048658.380998) vcan0 200#00007FE37FE30000
(1486048658.381027) vcan0 217#04EC04E804F804D8
(1486048658.381919) vcan0 202#04287800600005C0
(1486048658.381951) vcan0 204#C0007D0234000000
(1486048658.381980) vcan0 230#200600008C000000
(1486048658.382919) vcan0 3A7#0E445A045F700000
(1486048658.383983) vcan0 3B3#4048020F180500C2
(1486048658.386612) vcan0 3A8#0100269E00000000
(1486048658.387610) vcan0 186#1404015401F70400
(1486048658.387656) vcan0 187#DA1408C800900300
(1486048658.388694) vcan0 083#6020000008000000
(1486048658.389617) vcan0 2A1#FFFFFFFF00000000
(1486048658.389663) vcan0 091#7F6A7EA726C5F000
(1486048658.389700) vcan0 092#6FA06F8A739C3AC5
(1486048658.389735) vcan0 085#7BD48000E2C07C46
(1486048658.390717) vcan0 05D#835C976330000000
(1486048658.390754) vcan0 167#727FE2100019ED00
(1486048658.390785) vcan0 202#04360000600005C1
(1486048658.390816) vcan0 076#3E10C0800FFF0000
(1486048658.391696) vcan0 077#05CA07E47FF7F9EF
(1486048658.391724) vcan0 07D#0000F3C008A0F819
(1486048658.391749) vcan0 204#C0007D0234000000
(1486048658.391772) vcan0 213#FFFF00040001FF40
(1486048658.392709) vcan0 078#0068000000000000
(1486048658.392734) vcan0 214#000000000000F3C0
(1486048658.392757) vcan0 216#4521D83000000000
(1486048658.392782) vcan0 217#04E804E004FC04D0
(1486048658.393717) vcan0 3CC#1000000000000000
(1486048658.393750) vcan0 415#05BDC03A07E207E2
(1486048658.393778) vcan0 41D#8000600000000000
(1486048658.393802) vcan0 422#000000953802FE02
(1486048658.393858) vcan0 423#9220000000000000
(1486048658.394738) vcan0 430#37000CE6C8867700
(1486048658.394771) vcan0 4B0#01008000C00090E1
(1486048658.399111) vcan0 091#7F8B7EA803C6F000
(1486048658.400199) vcan0 092#6FA16F9373903BC6
(1486048658.400240) vcan0 082#6F0814008A804000
(1486048658.400265) vcan0 047#2000000000000000
(1486048658.400287) vcan0 05C#801000FA201E0000
(1486048658.401198) vcan0 085#7BD68000DED07C47
(1486048658.401238) vcan0 165#20C0000000000000
(1486048658.401262) vcan0 167#727FE2100019ED00
(1486048658.401285) vcan0 217#04F004DC04F804D8
(1486048658.402121) vcan0 596#9600FFFFFFFFFFFF
(1486048658.402153) vcan0 200#00007FE37FE30000
(1486048658.402177) vcan0 202#04360800600005C0
(1486048658.402202) vcan0 204#C0007D0234000000
(1486048658.403104) vcan0 230#200600008C000000
(1486048658.403138) vcan0 42F#7D04002E65FC0235
(1486048658.404115) vcan0 242#05B32014CE000001
(1486048658.404149) vcan0 40A#C104014107F670C1
(1486048658.404176) vcan0 42C#8C20000008C00000
(1486048658.405990) vcan0 3A8#010026A100000000
(1486048658.406986) vcan0 3CA#FE4CBD9D00000000
(1486048658.408074) vcan0 186#1404015401F70400
(1486048658.408115) vcan0 187#DA1408C800900300
(1486048658.409071) vcan0 091#7FA67EA3ECC7F000
(1486048658.409111) vcan0 092#6FA06F8F739738C7
(1486048658.410078) vcan0 167#727FE2100019ED00
(1486048658.410116) vcan0 085#7BD88000DCE07C46
(1486048658.410144) vcan0 202#04361000600005BF
(1486048658.411075) vcan0 204#C0007D0234000000
(1486048658.411112) vcan0 076#3E10C0800FFF0000
(1486048658.411136) vcan0 077#05CA07E57FF7FDF6
(1486048658.411162) vcan0 07D#0000F2D008A0782D
(1486048658.412074) vcan0 213#FFFF00040001FF40
(1486048658.412111) vcan0 214#000000000000F2D0
(1486048658.412137) vcan0 216#4B26DC3600000000
(1486048658.412173) vcan0 078#0168800000000000
(1486048658.412968) vcan0 217#04F404E004F004DC
(1486048658.412995) vcan0 415#05B6C44007E307E3
(1486048658.413020) vcan0 416#5D00F10001000000
(1486048658.413043) vcan0 41D#8000600000000000
(1486048658.414091) vcan0 41E#0000000000000000
(1486048658.414124) vcan0 4B0#01008000D00090E0
(1486048658.416855) vcan0 455#A000000000000000
(1486048658.418697) vcan0 091#7FB97E9AE1C8F000
(1486048658.419697) vcan0 092#6FAA6F88739F2CC8
(1486048658.419737) vcan0 047#2000000000000000
(1486048658.420700) vcan0 082#670814008A804000
(1486048658.420740) vcan0 085#7BD98000DAF07C46
(1486048658.420767) vcan0 165#20C0000000000000
(1486048658.420792) vcan0 217#04F804EC04EC04E0
(1486048658.421852) vcan0 3CC#1000000000000000
(1486048658.421895) vcan0 167#727FE2100019ED00
(1486048658.421920) vcan0 178#000001FF0E79CA7A
(1486048658.421945) vcan0 200#00007FE37FE30000
(1486048658.422841) vcan0 202#04361800600005BE
(1486048658.422883) vcan0 204#C0007D0234000000
(1486048658.422907) vcan0 230#200600008C000000
(1486048658.423738) vcan0 261#0000000000000000
(1486048658.426237) vcan0 3A8#010026A100000000
(1486048658.427320) vcan0 186#1404015401F70400
(1486048658.427360) vcan0 187#DA1408C800900300
(1486048658.427383) vcan0 18A#0020180111000000
(1486048658.428320) vcan0 05A#00000045E6E10000
(1486048658.429331) vcan0 33B#0000000000000000
(1486048658.429369) vcan0 091#7FC17E8FE3C9F000
(1486048658.429396) vcan0 092#6FB56F88739B24C9
(1486048658.430332) vcan0 085#7BDA8000E8007C46
(1486048658.430374) vcan0 167#727FE2100019ED00
(1486048658.430398) vcan0 202#04372000600005BC
(1486048658.431327) vcan0 076#3E14C0800FFF0000
(1486048658.431366) vcan0 077#05CA07E17FF801F3
(1486048658.431395) vcan0 07D#0000F1E00920B83C
(1486048658.431419) vcan0 204#C0007D0234000000
(1486048658.432237) vcan0 213#FFFF00040001FF40
(1486048658.432269) vcan0 214#000000000000F1E0
(1486048658.432295) vcan0 078#0569800000000000
(1486048658.432320) vcan0 216#4F2BE23A00000000
(1486048658.433353) vcan0 217#04FC04F004E404E4
(1486048658.433388) vcan0 415#05C9C82C07E307E3
(1486048658.433414) vcan0 41D#8000600000000000
(1486048658.433438) vcan0 42F#7D04002E65FC0235
(1486048658.434340) vcan0 4B0#01008000E00090DF
(1486048658.436335) vcan0 3CA#FE4CBD9D00000000
(1486048658.438986) vcan0 091#7FC27E8BE5CAF000
(1486048658.440074) vcan0 092#6FB36F8E738B2FCA
(1486048658.440113) vcan0 082#6B0814008A804000
(1486048658.440141) vcan0 047#2000000000000000
(1486048658.441079) vcan0 085#7BDA8000E7107C46
(1486048658.441118) vcan0 165#20C0000000000000
(1486048658.441142) vcan0 167#727FE2100019EE00
(1486048658.441167) vcan0 200#00007FE37FE30000
(1486048658.441188) vcan0 217#04FC04E804EC04DC
(1486048658.441993) vcan0 202#04342800600005BE
(1486048658.442028) vcan0 204#C0007D0234000000
(1486048658.442055) vcan0 230#200600008C000000
(1486048658.443474) vcan0 242#05B32016CE000001
(1486048658.446607) vcan0 3A8#010026A400000000
(1486048658.447694) vcan0 186#1404015401F70400
(1486048658.447735) vcan0 187#DA1408C800900300
(1486048658.448691) vcan0 04A#0200000000000000
(1486048658.449698) vcan0 04B#00C0D8D8D8D8C000
(1486048658.449734) vcan0 04C#105FFFC000000000
(1486048658.449757) vcan0 091#7FC37E8AE4CBF000
(1486048658.449784) vcan0 085#7BDA8000E7207C45
(1486048658.450830) vcan0 092#6FA86F9A737444CB
(1486048658.450870) vcan0 167#727FE2100019ED00
(1486048658.450897) vcan0 3CC#1000000000000000
(1486048658.450920) vcan0 076#3E17C0800FFF0000
(1486048658.451825) vcan0 077#05C907DC7FF80DF5
(1486048658.451865) vcan0 07D#0000F0F00920683F
(1486048658.451893) vcan0 202#04313000600005C0
(1486048658.451917) vcan0 204#C0007D0234000000
(1486048658.452720) vcan0 213#FFFF00040001FF40
(1486048658.452753) vcan0 214#000000000000F0F0
(1486048658.452779) vcan0 216#5530E64000000000
(1486048658.452801) vcan0 078#0068000000000000
(1486048658.452825) vcan0 217#04F404E004EC04DC
(1486048658.453708) vcan0 415#05CBCC2907E307E3
(1486048658.453742) vcan0 41D#8000600000000000
(1486048658.453767) vcan0 4B0#01008000F00090DE
(1486048658.454712) vcan0 42C#8C20000008C00000
(1486048658.458988) vcan0 091#7FBB7E8DE8CCF000
(1486048658.460073) vcan0 092#6F936FA1735C69CC
(1486048658.460115) vcan0 047#2000000000000000
(1486048658.460138) vcan0 082#6E08140C8A804000
