(1486053532.778833) vcan0 217#0E480E500E400E48
(1486053532.784514) vcan0 3CC#3000000000000000
(1486053532.785426) vcan0 047#2000000000000000
(1486053532.785493) vcan0 165#10C3460000000000
(1486053532.786417) vcan0 178#000001FE0E7ACA7B
(1486053532.787498) vcan0 186#1396025900850400
(1486053532.788499) vcan0 230#400600009B000000
(1486053532.788535) vcan0 261#0000000000000000
(1486053532.789501) vcan0 076#3E7FC0800FFF0000
(1486053532.790527) vcan0 213#FFFF00040001F040
(1486053532.790571) vcan0 216#A587E88700000000
(1486053532.790610) vcan0 217#0E440E400E480E44
(1486053532.791516) vcan0 41D#8000600000000000
(1486053532.793508) vcan0 3A8#0100271000000000
(1486053532.795656) vcan0 3CA#FE93D91100000000
(1486053532.796696) vcan0 3CD#0000000000000000
(1486053532.796741) vcan0 3D8#0000000080456030
(1486053532.796787) vcan0 422#000000973802FE02
(1486053532.797642) vcan0 423#8820000000000000
(1486053532.799016) vcan0 217#0E400E440E4C0E4C
(1486053532.800527) vcan0 42C#8C20000008C00000
(1486053532.805407) vcan0 047#2000000000000000
(1486053532.805462) vcan0 165#10C3460000000000
(1486053532.806423) vcan0 230#400600009B000000
(1486053532.807523) vcan0 186#1397025900850400
(1486053532.809022) vcan0 076#3E80C0800FFF0000
(1486053532.810061) vcan0 213#FFFF00040001F140
(1486053532.811122) vcan0 216#B495F69500000000
(1486053532.811190) vcan0 217#0E3C0E480E4C0E48
(1486053532.811255) vcan0 41D#8000600000000000
(1486053532.813053) vcan0 3A8#0100271000000000
(1486053532.814180) vcan0 3CC#3000000000000000
(1486053532.817650) vcan0 3A6#0E401A045F700000
(1486053532.818871) vcan0 217#0E340E380E440E40
(1486053532.825403) vcan0 047#2000000000000000
(1486053532.825457) vcan0 165#10C3460000000000
(1486053532.825498) vcan0 3CA#FE93D91100000000
(1486053532.826566) vcan0 230#400600009B000000
(1486053532.827526) vcan0 186#1391025900850400
(1486053532.829109) vcan0 076#3E80C0800FFF0000
(1486053532.830168) vcan0 213#FFFF00040001F140
(1486053532.831145) vcan0 216#C2A506A400000000
(1486053532.831207) vcan0 217#0E380E400E440E48
(1486053532.831244) vcan0 33B#0000000000000000
(1486053532.832000) vcan0 04A#0200000000000000
(1486053532.832028) vcan0 04B#00C0D8D8D8D8C000
(1486053532.832049) vcan0 04C#105FFFC000000000
(1486053532.833038) vcan0 41D#8000600000000000
(1486053532.833071) vcan0 455#A000000000000000
(1486053532.834150) vcan0 3A8#0100271000000000
(1486053532.836230) vcan0 261#0000000000000000
(1486053532.838773) vcan0 217#0E340E3C0E400E44
(1486053532.844500) vcan0 3CC#3000000000000000
(1486053532.845399) vcan0 047#2000000000000000
(1486053532.845432) vcan0 165#10C3460000000000
(1486053532.846443) vcan0 230#400600009B000000
(1486053532.847486) vcan0 186#138D025800850400
(1486053532.849111) vcan0 076#3E80C0800FFF0000
(1486053532.850144) vcan0 213#FFFF00040001F140
(1486053532.851114) vcan0 216#D2B314B300000000
(1486053532.851172) vcan0 217#0E380E3C0E440E44
(1486053532.851222) vcan0 41D#8000600000000000
(1486053532.853230) vcan0 3A8#0100271000000000
(1486053532.854238) vcan0 42C#8C20000008C00000
(1486053532.856279) vcan0 3CA#FE93D91100000000
(1486053532.858859) vcan0 217#0E3C0E440E440E3C
(1486053532.865486) vcan0 047#2000000000000000
(1486053532.865543) vcan0 165#10C3460000000000
(1486053532.866541) vcan0 186#138D025800850400
(1486053532.867424) vcan0 18A#0020180214000000
(1486053532.868550) vcan0 230#400600009B000000
(1486053532.869650) vcan0 076#3E80C0800FFF0000
(1486053532.870534) vcan0 081#0000000000000000
(1486053532.870586) vcan0 083#0020000000000000
(1486053532.870638) vcan0 213#FFFF00040001F140
(1486053532.871521) vcan0 216#E0C122C200000000
(1486053532.871572) vcan0 217#0E3C0E400E480E3C
(1486053532.871613) vcan0 2A1#FFFFFFFF00000000
(1486053532.872540) vcan0 3E6#0001040880000000
(1486053532.873541) vcan0 41D#8000600000000000
(1486053532.873570) vcan0 3A8#0100271000000000
(1486053532.874538) vcan0 3CC#3000000000000000
(1486053532.874567) vcan0 5B3#B300FFFFFFFFFFFF
(1486053532.878768) vcan0 217#0E380E3C0E3C0E34
(1486053532.885395) vcan0 047#2000000000000000
(1486053532.885427) vcan0 165#10C3460000000000
(1486053532.885453) vcan0 3CA#FE93790D00000000
(1486053532.886388) vcan0 186#1387025800850400
(1486053532.886437) vcan0 178#000001FA0E7BCA7B
(1486053532.888389) vcan0 230#400600009B000000
(1486053532.888421) vcan0 261#0000000000000000
(1486053532.889648) vcan0 076#3E80C0800FFF0000
(1486053532.890656) vcan0 213#FFFF00040001F140
(1486053532.890702) vcan0 216#EED031D000000000
(1486053532.891511) vcan0 217#0E300E340E340E38
(1486053532.891552) vcan0 33B#0000000000000000
(1486053532.892524) vcan0 41D#8000600000000000
(1486053532.893634) vcan0 3A8#0100271000000000
(1486053532.896627) vcan0 422#000000973802FE02
(1486053532.896664) vcan0 423#8820000000000000
(1486053532.899029) vcan0 217#0E2C0E340E2C0E24
(1486053532.900389) vcan0 42C#8C20000008C00000
(1486053532.904643) vcan0 3CC#3000000000000000
(1486053532.905531) vcan0 047#2000000000000000
(1486053532.905566) vcan0 165#10C3460000000000
(1486053532.906516) vcan0 186#1387025800850400
(1486053532.907604) vcan0 230#400600009B000000
(1486053532.909105) vcan0 076#3E80C0800FFF0000
(1486053532.910176) vcan0 213#FFFF00040001F040
(1486053532.911135) vcan0 216#FDDE3FDE00000000
(1486053532.911197) vcan0 217#0E2C0E300E180E24
(1486053532.911247) vcan0 41D#8000600000000000
(1486053532.913103) vcan0 3A8#0100271000000000
(1486053532.916258) vcan0 3CA#FE93790D00000000
(1486053532.918876) vcan0 217#0E240E300E240E24
(1486053532.925426) vcan0 047#2000000000000000
(1486053532.925483) vcan0 165#10C3460000000000
(1486053532.926415) vcan0 186#1387025800850400
(1486053532.927507) vcan0 230#400600009B000000
(1486053532.929015) vcan0 076#3E83C0800FFF0000
(1486053532.930060) vcan0 213#FFFF00040001F040
(1486053532.931132) vcan0 216#0BEC4DED00000000
(1486053532.931193) vcan0 217#0E2C0E340E2C0E30
(1486053532.931232) vcan0 3A7#0E401A045F700000
(1486053532.931258) vcan0 04A#0200000000000000
(1486053532.932128) vcan0 04B#00C0D8D8D8D8C000
(1486053532.932172) vcan0 04C#105FFFC000000000
(1486053532.933013) vcan0 41D#8000600000000000
(1486053532.933038) vcan0 455#A000000000000000
(1486053532.934195) vcan0 3A8#0100271000000000
(1486053532.934375) vcan0 3CC#3000000000000000
(1486053532.936230) vcan0 261#0000000000000000
(1486053532.938980) vcan0 217#0E240E300E300E2C
(1486053532.945481) vcan0 047#2000000000000000
(1486053532.945520) vcan0 165#10C3460000000000
(1486053532.946507) vcan0 186#1386025800850400
(1486053532.947510) vcan0 3CA#FE93790D00000000
(1486053532.947542) vcan0 230#400600009B000000
(1486053532.949109) vcan0 076#3E84C0800FFF0000
(1486053532.950144) vcan0 213#FFFF00040001EF40
(1486053532.951112) vcan0 216#1BFC5DFB00000000
(1486053532.951169) vcan0 217#0E280E300E280E30
(1486053532.951208) vcan0 33B#0000000000000000
(1486053532.952241) vcan0 41D#8000600000000000
(1486053532.953242) vcan0 3B3#4048020F10050002
(1486053532.953302) vcan0 3A8#0100271300000000
(1486053532.954235) vcan0 42C#8C20000008C00000
(1486053532.959107) vcan0 217#0E280E2C0E240E2C
(1486053532.964499) vcan0 3CC#3000000000000000
(1486053532.965486) vcan0 047#2000000000000000
(1486053532.965543) vcan0 165#10C3460000000000
(1486053532.966502) vcan0 186#1386025800850400
(1486053532.966544) vcan0 18A#0020180214000000
(1486053532.968481) vcan0 230#400600009B000000
(1486053532.969612) vcan0 076#3E83C0800FFF0000
(1486053532.970632) vcan0 083#0020000000000000
(1486053532.970666) vcan0 213#FFFF00040001EF40
(1486053532.970700) vcan0 216#290A6B0B00000000
(1486053532.971623) vcan0 217#0E240E240E200E28
(1486053532.971682) vcan0 2A1#FFFFFFFF00000000
(1486053532.972639) vcan0 41D#8000600000000000
(1486053532.973608) vcan0 3A8#0100271300000000
(1486053532.975753) vcan0 3CA#FE93090B00000000
(1486053532.978856) vcan0 217#0E240E200E180E20
(1486053532.985483) vcan0 188#4000000000000000
(1486053532.985522) vcan0 047#2000000000000000
(1486053532.985547) vcan0 186#1386025800850400
(1486053532.985571) vcan0 165#10C3460000000000
(1486053532.986514) vcan0 178#000001F20E7ACA7B
(1486053532.987430) vcan0 230#400600009B000000
(1486053532.988611) vcan0 261#0000000000000000
(1486053532.989608) vcan0 076#3E84C0800FFF0000
(1486053532.990633) vcan0 213#FFFF00040001EF40
(1486053532.990676) vcan0 216#37197A1900000000
(1486053532.990725) vcan0 217#0E1C0E200E1C0E20
(1486053532.991629) vcan0 41D#8000600000000000
(1486053532.993618) vcan0 3A8#0100271300000000
(1486053532.994606) vcan0 3CC#3000000000000000
(1486053532.996625) vcan0 422#000000973802FE02
(1486053532.996656) vcan0 423#8820000000000000
(1486053532.999106) vcan0 217#0E180E1C0E200E1C
(1486053533.000488) vcan0 42C#8C20000008C00000
(1486053533.005612) vcan0 047#2000000000000000
(1486053533.005649) vcan0 165#10C3460000000000
(1486053533.005673) vcan0 186#1383025800850400
(1486053533.006638) vcan0 3CA#FE93090B00000000
(1486053533.007534) vcan0 230#400600009B000000
(1486053533.009020) vcan0 076#3E84C0800FFF0000
(1486053533.010044) vcan0 213#FFFF00040001EF40
(1486053533.011113) vcan0 216#4627882700000000
(1486053533.011170) vcan0 217#0E140E180E2C0E24
(1486053533.011209) vcan0 33B#0000000000000000
(1486053533.012237) vcan0 41D#8000600000000000
(1486053533.013230) vcan0 3A8#0100271300000000
(1486053533.018479) vcan0 3A6#0E401A045F700000
(1486053533.019482) vcan0 217#0E180E180E2C0E28
(1486053533.024497) vcan0 3CC#3000000000000000
(1486053533.025485) vcan0 047#2000000000000000
(1486053533.025522) vcan0 186#1381025800850400
(1486053533.025569) vcan0 165#10C3460000000000
(1486053533.027479) vcan0 230#400600009B000000
(1486053533.029108) vcan0 076#3E86C0800FFF0000
(1486053533.030146) vcan0 213#FFFF00040001EF40
(1486053533.031113) vcan0 216#5435963600000000
(1486053533.031170) vcan0 217#0E100E140E200E10
(1486053533.031220) vcan0 41D#8000600000000000
(1486053533.032109) vcan0 04A#0200000000000000
(1486053533.032147) vcan0 04B#00C0D8D8D8D8C000
(1486053533.032171) vcan0 04C#105FFFC000000000
(1486053533.033036) vcan0 455#A000000000000000
(1486053533.034018) vcan0 3A8#0100271300000000
(1486053533.036167) vcan0 261#0000000000000000
(1486053533.036195) vcan0 3CA#FE93090B00000000
(1486053533.038268) vcan0 265#2001010410000000
(1486053533.038313) vcan0 453#3257364570646166
(1486053533.039231) vcan0 217#0E180E1C0E240E18
(1486053533.045595) vcan0 186#1381025800850400
(1486053533.045692) vcan0 047#2000000000000000
(1486053533.045753) vcan0 165#10C3460000000000
(1486053533.047899) vcan0 230#400600009B000000
(1486053533.049118) vcan0 076#3E86C0800FFF0000
(1486053533.050186) vcan0 213#FFFF00040001EF40
(1486053533.051265) vcan0 216#6244A54400000000
(1486053533.051449) vcan0 217#0E180E1C0E240E10
(1486053533.052266) vcan0 41D#8000600000000000
(1486053533.053253) vcan0 42C#8C20000008C00000
(1486053533.053362) vcan0 3A8#0100271600000000
(1486053533.054422) vcan0 3CC#3000000000000000
(1486053533.059003) vcan0 217#0E180E1C0E240E18
(1486053533.064678) vcan0 186#137C025800850400
(1486053533.065691) vcan0 047#2000000000000000
(1486053533.066636) vcan0 165#10C3460000000000
(1486053533.066775) vcan0 18A#0020180214000000
(1486053533.066834) vcan0 3CA#FE92490400000000
(1486053533.067533) vcan0 230#400600009B000000
(1486053533.069755) vcan0 076#3E86C0800FFF0000
(1486053533.070798) vcan0 083#0020000000000000
(1486053533.070886) vcan0 213#FFFF00040001F040
(1486053533.070995) vcan0 216#7152B35200000000
(1486053533.071756) vcan0 217#0E100E1C0E180E14
(1486053533.071885) vcan0 2A1#FFFFFFFF00000000
(1486053533.071940) vcan0 33B#0000000000000000
(1486053533.073750) vcan0 41D#8000600000000000
(1486053533.073911) vcan0 3A8#0100271600000000
(1486053533.078854) vcan0 217#0E0C0E140E100E0C
(1486053533.084411) vcan0 3CC#3000000000000000
(1486053533.084464) vcan0 186#1379025800850400
(1486053533.085365) vcan0 047#2000000000000000
(1486053533.085407) vcan0 165#10C3460000000000
(1486053533.086395) vcan0 178#000001EE0E7ACA7B
(1486053533.087442) vcan0 230#400600009B000000
(1486053533.088511) vcan0 261#0000000000000000
(1486053533.089577) vcan0 076#3E87C0800FFF0000
(1486053533.090610) vcan0 213#FFFF00040001EF40
(1486053533.090732) vcan0 216#7F60C16100000000
(1486053533.090818) vcan0 217#0E080E100E080E08
(1486053533.091606) vcan0 41D#8000600000000000
(1486053533.093593) vcan0 3A8#0100271600000000
(1486053533.095861) vcan0 3CA#FE92490400000000
(1486053533.097047) vcan0 422#000000973802FE02
(1486053533.097100) vcan0 423#8820000000000000
(1486053533.099108) vcan0 217#0E080E0C0E040E0C
(1486053533.101032) vcan0 42C#8C20000008C00000
(1486053533.104562) vcan0 186#1377025800850400
(1486053533.105537) vcan0 047#2000000000000000
(1486053533.105597) vcan0 165#10C3460000000000
(1486053533.106492) vcan0 230#400600009B000000
(1486053533.109188) vcan0 076#3E87C0800FFF0000
(1486053533.110219) vcan0 213#FFFF00040001EF40
(1486053533.111169) vcan0 216#8F6FD16F00000000
(1486053533.111252) vcan0 217#0E080E080E000E0C
(1486053533.111328) vcan0 41D#8000600000000000
(1486053533.113154) vcan0 3A8#0100271600000000
(1486053533.114314) vcan0 3CC#3000000000000000
(1486053533.118915) vcan0 217#0E000E040E040E0C
(1486053533.124566) vcan0 186#1377025800850400
(1486053533.125659) vcan0 047#2000000000000000
(1486053533.125718) vcan0 165#10C3460000000000
(1486053533.126682) vcan0 3CA#FE92490400000000
(1486053533.127662) vcan0 230#400600009B000000
(1486053533.129158) vcan0 076#3E87C0800FFF0000
(1486053533.130215) vcan0 213#FFFF00040001EE40
(1486053533.131166) vcan0 216#9D7DDF7D00000000
(1486053533.131249) vcan0 217#0E040E000E040E08
(1486053533.131307) vcan0 33B#0000000000000000
(1486053533.131345) vcan0 3A7#0E401A045F700000
(1486053533.132195) vcan0 04A#0200000000000000
(1486053533.132244) vcan0 04B#00C0D8D8D8D8C000
(1486053533.132279) vcan0 04C#105FFFC000000000
(1486053533.133205) vcan0 41D#8000600000000000
(1486053533.133250) vcan0 455#A000000000000000
(1486053533.134292) vcan0 3A8#0100271600000000
(1486053533.135183) vcan0 456#8000000000000000
(1486053533.136202) vcan0 261#0000000000000000
(1486053533.138870) vcan0 217#0DFC0E000E040E08
(1486053533.141280) vcan0 350#0000000000000000
(1486053533.142332) vcan0 3E0#0000000080000000
(1486053533.144565) vcan0 186#1376025800850400
(1486053533.144659) vcan0 3CC#3000000000000000
(1486053533.145433) vcan0 047#2000000000000000
(1486053533.145482) vcan0 165#10C3460000000000
(1486053533.146708) vcan0 230#400600009B000000
(1486053533.149158) vcan0 076#3E87C0800FFF0000
(1486053533.150107) vcan0 213#FFFF00040001EE40
(1486053533.151173) vcan0 216#AB8BEE8C00000000
(1486053533.151256) vcan0 217#0E040E040DFC0E00
(1486053533.151333) vcan0 41D#8000600000000000
(1486053533.153314) vcan0 42C#8C20000008C00000
(1486053533.153360) vcan0 3A8#0100271600000000
(1486053533.156295) vcan0 3CA#FE92090E00000000
(1486053533.159166) vcan0 217#0E040E000DF80DFC
(1486053533.164568) vcan0 186#1375025700850400
(1486053533.164663) vcan0 18A#0020180214000000
(1486053533.165547) vcan0 3E5#0000000080000000
(1486053533.165603) vcan0 047#2000000000000000
(1486053533.166547) vcan0 165#10C3460000000000
(1486053533.167582) vcan0 230#400600009B000000
(1486053533.169157) vcan0 076#3E87C0800FFF0000
(1486053533.170206) vcan0 083#0020000000000000
(1486053533.170253) vcan0 213#FFFF00040001EE40
(1486053533.171083) vcan0 216#BA9AFC9A00000000
(1486053533.171156) vcan0 217#0DFC0E040DF80DF8
(1486053533.171213) vcan0 2A1#FFFFFFFF00000000
(1486053533.173054) vcan0 41D#8000600000000000
(1486053533.173120) vcan0 3A8#0100271600000000
(1486053533.174188) vcan0 3CC#3000000000000000
(1486053533.178913) vcan0 217#0DF00DFC0DF80DF8
(1486053533.183545) vcan0 186#1378025700850400
(1486053533.185533) vcan0 047#2000000000000000
(1486053533.185592) vcan0 165#10C3460000000000
(1486053533.185635) vcan0 3CA#FE92090E00000000
(1486053533.186566) vcan0 178#000001F70E7BCA7B
(1486053533.187602) vcan0 230#400600009B000000
(1486053533.188538) vcan0 261#0000000000000000
(1486053533.189562) vcan0 076#3E87C0800FFF0000
(1486053533.190696) vcan0 213#FFFF00040001ED40
(1486053533.190791) vcan0 216#C8A80AA800000000
(1486053533.191675) vcan0 217#0DE40DF40DF80DF4
(1486053533.191758) vcan0 33B#0000000000000000
(1486053533.191817) vcan0 41D#8000600000000000
(1486053533.193664) vcan0 3A8#0100271600000000
(1486053533.196813) vcan0 422#000000973802FE02
(1486053533.196860) vcan0 423#8820000000000000
(1486053533.198916) vcan0 217#0DE80DEC0DFC0DF4
(1486053533.200539) vcan0 42C#8C20000008C00000
(1486053533.203536) vcan0 186#1376025700850400
(1486053533.204579) vcan0 3CC#3000000000000000
(1486053533.205535) vcan0 047#2000000000000000
(1486053533.205595) vcan0 165#10C3460000000000
(1486053533.206708) vcan0 230#400600009B000000
(1486053533.209156) vcan0 076#3E87C0800FFF0000
(1486053533.210214) vcan0 213#FFFF00040001EC40
(1486053533.211169) vcan0 216#D6B618B700000000
(1486053533.211252) vcan0 217#0DF80DFC0DF80DF0
(1486053533.211328) vcan0 41D#8000600000000000
(1486053533.213280) vcan0 3A8#0100271600000000
(1486053533.216292) vcan0 3CA#FE92090E00000000
(1486053533.218657) vcan0 3A6#0E401A045F700000
(1486053533.219659) vcan0 217#0DF40DF40DF80DF4
(1486053533.223030) vcan0 186#1376025700850400
(1486053533.225155) vcan0 047#2000000000000000
(1486053533.225217) vcan0 165#10C3460000000000
(1486053533.227154) vcan0 230#400600009B000000
(1486053533.229160) vcan0 076#3E89C0800FFF0000
(1486053533.230212) vcan0 213#FFFF00040001EB40
(1486053533.231168) vcan0 216#E5C427C500000000
(1486053533.231251) vcan0 217#0DF80DF00DF00DF4
(1486053533.231326) vcan0 04A#0200000000000000
(1486053533.232172) vcan0 04B#00C0D8D8D8D8C000
(1486053533.232226) vcan0 04C#105FFFC000000000
(1486053533.233166) vcan0 41D#8000600000000000
(1486053533.233221) vcan0 455#A000000000000000
(1486053533.234290) vcan0 3A8#0100271600000000
(1486053533.234414) vcan0 3CC#3000000000000000
(1486053533.236313) vcan0 261#0000000000000000
(1486053533.238914) vcan0 217#0DE40DE40DE80DEC
(1486053533.243045) vcan0 186#1372025700850400
(1486053533.245030) vcan0 047#2000000000000000
(1486053533.245091) vcan0 165#10C3460000000000
(1486053533.246198) vcan0 3CA#FE91391600000000
(1486053533.247190) vcan0 230#400600009B000000
(1486053533.249156) vcan0 076#3E89C0800FFF0000
(1486053533.250219) vcan0 213#FFFF00040001EB40
(1486053533.251295) vcan0 216#F3D335D300000000
(1486053533.251378) vcan0 217#0DE40DE00DE00DE8
(1486053533.251438) vcan0 33B#0000000000000000
(1486053533.252293) vcan0 41D#8000600000000000
(1486053533.253184) vcan0 42C#8C20000008C00000
(1486053533.253232) vcan0 3A8#0100271900000000
(1486053533.258911) vcan0 217#0DDC0DE00DDC0DE8
(1486053533.263415) vcan0 186#1370025700850400
(1486053533.263516) vcan0 18A#0020180214000000
(1486053533.264452) vcan0 3CC#3000000000000000
(1486053533.265559) vcan0 047#2000000000000000
(1486053533.266568) vcan0 165#10C3460000000000
(1486053533.266615) vcan0 168#0000000000000000
(1486053533.267602) vcan0 230#400600009B000000
(1486053533.269157) vcan0 076#3E89C0800FFF0000
(1486053533.270151) vcan0 083#0020000000000000
(1486053533.270200) vcan0 213#FFFF00040001EA40
(1486053533.271226) vcan0 216#01E143E200000000
(1486053533.271304) vcan0 217#0DD80DDC0DD40DE4
(1486053533.271363) vcan0 2A1#FFFFFFFF00000000
(1486053533.273165) vcan0 41D#8000600000000000
(1486053533.273252) vcan0 3A8#0100271900000000
(1486053533.276326) vcan0 3CA#FE91391600000000
(1486053533.278911) vcan0 217#0DD40DDC0DD80DDC
(1486053533.283364) vcan0 186#136E025700850400
(1486053533.285352) vcan0 047#2000000000000000
(1486053533.285391) vcan0 165#10C3460000000000
(1486053533.286569) vcan0 178#000002010E7ACA7B
(1486053533.287578) vcan0 230#400600009B000000
(1486053533.287623) vcan0 261#0000000000000000
(1486053533.289160) vcan0 076#3E8DC0800FFF0000
(1486053533.290209) vcan0 213#FFFF00040001EA40
(1486053533.291061) vcan0 216#0EEF52F000000000
(1486053533.291145) vcan0 217#0DD40DD40DD00DD8
(1486053533.291256) vcan0 41D#8000600000000000
(1486053533.293156) vcan0 3A8#0100271900000000
(1486053533.294152) vcan0 3CC#3000000000000000
(1486053533.296159) vcan0 422#000000973802FE02
(1486053533.296188) vcan0 423#8820000000000000
(1486053533.298762) vcan0 217#0DCC0DD40DD40DD4
(1486053533.300385) vcan0 42C#8C20000008C00000
(1486053533.302499) vcan0 186#1367025700850400
(1486053533.305602) vcan0 047#2000000000000000
(1486053533.305641) vcan0 165#10C3460000000000
(1486053533.305675) vcan0 3CA#FE91391600000000
(1486053533.306559) vcan0 230#400600009B000000
(1486053533.309101) vcan0 076#3E8DC0800FFF0000
(1486053533.310144) vcan0 213#FFFF00040001E940
(1486053533.311236) vcan0 216#1DFE5FFE00000000
(1486053533.311293) vcan0 217#0DC40DCC0DD40DD8
(1486053533.311331) vcan0 33B#0000000000000000
(1486053533.312142) vcan0 41D#8000600000000000
(1486053533.313158) vcan0 3A8#0100271C00000000
(1486053533.318853) vcan0 217#0DC80DC80DD80DD8
(1486053533.323353) vcan0 186#1367025700850400
(1486053533.324507) vcan0 3CC#3000000000000000
(1486053533.325477) vcan0 047#2000000000000000
(1486053533.325518) vcan0 165#10C3460000000000
(1486053533.326514) vcan0 230#400600009B000000
(1486053533.329101) vcan0 076#3E8DC0800FFF0000
(1486053533.330054) vcan0 213#FFFF00040001E840
(1486053533.331106) vcan0 216#2B0C6D0C00000000
(1486053533.331173) vcan0 217#0DC40DC40DD00DD8
(1486053533.331213) vcan0 3A7#0E401A045F700000
(1486053533.331239) vcan0 04A#0200000000000000
(1486053533.332016) vcan0 04B#00C0D8D8D8D8C000
(1486053533.332048) vcan0 04C#105FFFC000000000
(1486053533.333018) vcan0 3E2#0000000080000000
(1486053533.333060) vcan0 41D#8000600000000000
(1486053533.334230) vcan0 3A8#0100271C00000000
(1486053533.334314) vcan0 455#A000000000000000
(1486053533.336252) vcan0 3CA#FE8FE91D00000000
(1486053533.336317) vcan0 261#0000000000000000
(1486053533.338745) vcan0 217#0DC80DC40DD00DD8
(1486053533.340482) vcan0 3EB#C804100A04200000
(1486053533.342499) vcan0 186#135F025700850400
(1486053533.345535) vcan0 047#2000000000000000
(1486053533.345569) vcan0 165#10C3460000000000
(1486053533.346632) vcan0 230#400600009B000000
(1486053533.349102) vcan0 076#3E8EC0800FFF0000
(1486053533.350145) vcan0 213#FFFF00040001E940
(1486053533.351111) vcan0 216#391A7B1B00000000
(1486053533.351167) vcan0 217#0DC80DCC0DD00DD0
(1486053533.351217) vcan0 41D#8000600000000000
(1486053533.353224) vcan0 3A8#0100271C00000000
(1486053533.354249) vcan0 3CC#3000000000000000
(1486053533.355234) vcan0 42C#8C20000008C00000
(1486053533.358855) vcan0 217#0DC00DD00DCC0DCC
(1486053533.362346) vcan0 186#1359025700850400
(1486053533.363350) vcan0 18A#0020180214000000
(1486053533.365482) vcan0 047#2000000000000000
(1486053533.365539) vcan0 165#10C3460000000000
(1486053533.366503) vcan0 3CA#FE8FE91D00000000
(1486053533.367508) vcan0 230#400600009B000000
(1486053533.369102) vcan0 076#3E91C0800FFF0000
(1486053533.370058) vcan0 083#0020000000000000
(1486053533.370086) vcan0 213#FFFF00040001E840
(1486053533.371257) vcan0 216#47298A2900000000
(1486053533.371312) vcan0 217#0DBC0DCC0DCC0DC4
(1486053533.371351) vcan0 2A1#FFFFFFFF00000000
(1486053533.372148) vcan0 33B#0000000000000000
(1486053533.373160) vcan0 3EB#C804100A04200000
(1486053533.373188) vcan0 41D#8000600000000000
(1486053533.374132) vcan0 3A8#0100271D00000000
(1486053533.378756) vcan0 217#0DBC0DC40DC00DBC
(1486053533.382373) vcan0 186#1353025700850400
(1486053533.384494) vcan0 3CC#3000000000000000
(1486053533.385474) vcan0 047#2000000000000000
(1486053533.385515) vcan0 165#10C3460000000000
(1486053533.386498) vcan0 178#0000020B0E7ACA7B
(1486053533.387508) vcan0 230#400600009B000000
(1486053533.387538) vcan0 261#0000000000000000
(1486053533.389099) vcan0 076#3E91C0800FFF0000
(1486053533.390135) vcan0 213#FFFF00040001E740
(1486053533.391233) vcan0 216#5637983700000000
(1486053533.391290) vcan0 217#0DB80DC00DC00DB4
(1486053533.391339) vcan0 41D#8000600000000000
(1486053533.393135) vcan0 3A8#0100272000000000
(1486053533.396163) vcan0 3CA#FE8E892200000000
(1486053533.396231) vcan0 422#000000973802FE02
(1486053533.397145) vcan0 423#8820000000000000
(1486053533.399018) vcan0 217#0DB80DB80DB80DAC
(1486053533.400634) vcan0 42C#8C20000008C00000
(1486053533.402662) vcan0 186#134B025600850400
(1486053533.404758) vcan0 047#2000000000000000
(1486053533.405883) vcan0 165#10C3460000000000
(1486053533.406870) vcan0 230#400600009B000000
(1486053533.409100) vcan0 076#3E91C0800FFF0000
(1486053533.410136) vcan0 213#FFFF00040001E640
(1486053533.411106) vcan0 216#6444A64600000000
(1486053533.411163) vcan0 217#0DB40DB40DB40DB0
(1486053533.411213) vcan0 41D#8000600000000000
(1486053533.413134) vcan0 3A8#0100272000000000
(1486053533.414251) vcan0 3CC#3000000000000000
(1486053533.417727) vcan0 3A6#0E401A045F700000
(1486053533.418852) vcan0 217#0DB00DB40DAC0DB0
(1486053533.421999) vcan0 186#134B025600850400
(1486053533.425477) vcan0 047#2000000000000000
(1486053533.425516) vcan0 165#10C3460000000000
(1486053533.425552) vcan0 3CA#FE8E892200000000
(1486053533.426526) vcan0 230#400600009B000000
(1486053533.429100) vcan0 076#3E91C0800FFF0000
(1486053533.430135) vcan0 213#FFFF00040001E540
(1486053533.431105) vcan0 216#7252B55300000000
(1486053533.431162) vcan0 217#0DAC0DB00DB00DB4
(1486053533.431201) vcan0 33B#0000000000000000
(1486053533.431227) vcan0 04A#0200000000000000
(1486053533.432107) vcan0 04B#00C0D8D8D8D8C000
(1486053533.432143) vcan0 04C#105FFFC000000000
(1486053533.433024) vcan0 41D#8000600000000000
(1486053533.433052) vcan0 455#A000000000000000
(1486053533.434148) vcan0 3A8#0100272000000000
(1486053533.436156) vcan0 261#0000000000000000
(1486053533.438761) vcan0 217#0DA40DAC0DA80DB0
(1486053533.441227) vcan0 186#1343025600850400
(1486053533.444494) vcan0 3CC#3000000000000000
(1486053533.445477) vcan0 047#2000000000000000
(1486053533.445514) vcan0 165#10C3460000000000
(1486053533.446507) vcan0 230#400600009B000000
(1486053533.449010) vcan0 076#3E91C0800FFF0000
(1486053533.450142) vcan0 213#FFFF00040001E540
(1486053533.451104) vcan0 216#7F61C16100000000
(1486053533.451161) vcan0 217#0DA40DB00DA00DB4
(1486053533.451212) vcan0 41D#8000600000000000
(1486053533.452183) vcan0 3B3#4048020F10050002
(1486053533.453148) vcan0 3C3#60C0000000004000
(1486053533.453182) vcan0 42C#8C20000008C00000
(1486053533.453208) vcan0 3A8#0100272000000000
(1486053533.456165) vcan0 3CA#FE8E892200000000
(1486053533.459108) vcan0 217#0D9C0DA80D900DA4
(1486053533.461101) vcan0 186#1341025600850400
(1486053533.462143) vcan0 18A#0020180214000000
(1486053533.465478) vcan0 047#2000000000000000
(1486053533.465535) vcan0 165#10C3460000000000
(1486053533.467601) vcan0 230#400600009B000000
(1486053533.469100) vcan0 076#3E91C0800FFF0000
(1486053533.470132) vcan0 083#0020000000000000
(1486053533.470164) vcan0 213#FFFF00040001E540
(1486053533.471127) vcan0 216#8E6FD06F00000000
(1486053533.471182) vcan0 217#0D980DA40DA40DAC
(1486053533.471220) vcan0 2A1#FFFFFFFF00000000
(1486053533.473145) vcan0 41D#8000600000000000
(1486053533.473198) vcan0 3A8#0100272000000000
(1486053533.474158) vcan0 3CC#3000000000000000
(1486053533.478763) vcan0 217#0D980DA00DA80DB8
(1486053533.481242) vcan0 186#133D025600850400
(1486053533.485474) vcan0 047#2000000000000000
(1486053533.485515) vcan0 165#10C3460000000000
(1486053533.485540) vcan0 3CA#FE8E892200000000
(1486053533.486496) vcan0 178#0000020E0E7ACA7B
(1486053533.487517) vcan0 230#400600009B000000
(1486053533.488474) vcan0 261#0000000000000000
(1486053533.489622) vcan0 076#3E91C0800FFF0000
(1486053533.490629) vcan0 213#FFFF00040001E640
(1486053533.490704) vcan0 216#9C7CDE7E00000000
(1486053533.490751) vcan0 217#0D980D9C0DAC0DB4
(1486053533.491495) vcan0 33B#0000000000000000
(1486053533.491534) vcan0 41D#8000600000000000
(1486053533.493500) vcan0 3A8#0100272000000000
(1486053533.494499) vcan0 59E#9E00FFFFFFFFFFFF
(1486053533.496604) vcan0 422#000000973802FE02
(1486053533.496641) vcan0 423#8820000000000000
(1486053533.496676) vcan0 43A#0000020000000000
(1486053533.499020) vcan0 217#0D980DA00DA40DAC
(1486053533.500475) vcan0 42C#8C20000008C00000
(1486053533.501479) vcan0 186#1334025600850400
(1486053533.504625) vcan0 3CC#3000000000000000
(1486053533.505601) vcan0 047#2000000000000000
(1486053533.505640) vcan0 165#10C3460000000000
(1486053533.506632) vcan0 230#400600009B000000
(1486053533.509105) vcan0 076#3E90C0800FFF0000
(1486053533.510133) vcan0 213#FFFF00040001E740
(1486053533.511107) vcan0 216#AA8AEC8A00000000
(1486053533.511165) vcan0 217#0D9C0DA00DA00DA4
(1486053533.511215) vcan0 41D#8000600000000000
(1486053533.513139) vcan0 3A8#0100272000000000
(1486053533.516183) vcan0 3CA#FE8D192600000000
(1486053533.518850) vcan0 217#0DA00D9C0D980D98
(1486053533.520598) vcan0 186#1334025600850400
(1486053533.525478) vcan0 047#2000000000000000
(1486053533.525515) vcan0 165#10C3460000000000
(1486053533.526526) vcan0 230#400600009B000000
(1486053533.529102) vcan0 076#3E91C0800FFF0000
(1486053533.530138) vcan0 213#FFFF00040001E740
(1486053533.531106) vcan0 216#B798FB9900000000
(1486053533.531162) vcan0 217#0D9C0D980D940D90
(1486053533.531201) vcan0 3A7#0E401A045F700000
(1486053533.532145) vcan0 41D#8000600000000000
(1486053533.532177) vcan0 04A#0200000000000000
(1486053533.532201) vcan0 04B#00C0D8D8D8D8C000
(1486053533.532223) vcan0 04C#105FFFC000000000
(1486053533.533163) vcan0 455#A000000000000000
(1486053533.534137) vcan0 3A8#0100271F00000000
(1486053533.534232) vcan0 3CC#3000000000000000
(1486053533.536150) vcan0 261#0000000000000000
(1486053533.538734) vcan0 217#0D9C0D940D900D90
(1486053533.540476) vcan0 186#132B025600850400
(1486053533.545587) vcan0 047#2000000000000000
(1486053533.545687) vcan0 165#10C3460000000000
(1486053533.546604) vcan0 3CA#FE8D192600000000
(1486053533.547636) vcan0 230#400600009B000000
(1486053533.549221) vcan0 076#3E91C0800FFF0000
(1486053533.550422) vcan0 213#FFFF00040001E740
(1486053533.551231) vcan0 216#C5A708A700000000
(1486053533.551345) vcan0 217#0D900D940D900D90
(1486053533.551431) vcan0 33B#0000000000000000
(1486053533.552227) vcan0 41D#8000600000000000
(1486053533.553290) vcan0 42C#8C20000008C00000
(1486053533.553352) vcan0 3A8#0100272000000000
(1486053533.559102) vcan0 217#0D900D940D980D90
(1486053533.560354) vcan0 186#1325025600850400
(1486053533.561505) vcan0 18A#0020180214000000
(1486053533.562538) vcan0 454#3646200372204242
(1486053533.564481) vcan0 3CC#3000000000000000
(1486053533.565474) vcan0 047#2000000000000000
(1486053533.565593) vcan0 165#10C3460000000000
(1486053533.567469) vcan0 230#400600009B000000
(1486053533.569088) vcan0 076#3E91C0800FFF0000
(1486053533.570159) vcan0 083#0020000000000000
(1486053533.570224) vcan0 213#FFFF00040001E740
(1486053533.571259) vcan0 216#D4B516B500000000
(1486053533.571367) vcan0 217#0D8C0D980D980D90
(1486053533.571452) vcan0 2A1#FFFFFFFF00000000
(1486053533.573349) vcan0 41D#8000600000000000
(1486053533.573455) vcan0 3A8#0100272000000000
(1486053533.576256) vcan0 3CA#FE8A991200000000
(1486053533.578846) vcan0 217#0D880DA00D900D88
(1486053533.580343) vcan0 186#1321025600850400
(1486053533.585585) vcan0 047#2000000000000000
(1486053533.585684) vcan0 165#10C3460000000000
(1486053533.586639) vcan0 178#000001FB0E7ACA7B
(1486053533.587668) vcan0 230#400600009B000000
(1486053533.587737) vcan0 261#0000000000000000
(1486053533.589103) vcan0 076#3E93C0800FFF0000
(1486053533.590154) vcan0 213#FFFF00040001E740
(1486053533.591101) vcan0 216#E2C224C200000000
(1486053533.591210) vcan0 217#0D900D940D8C0D7C
(1486053533.591322) vcan0 41D#8000600000000000
(1486053533.593212) vcan0 3A8#0100272000000000
(1486053533.594260) vcan0 3CC#3000000000000000
(1486053533.596423) vcan0 422#000000973802FE02
(1486053533.596490) vcan0 423#8820000000000000
(1486053533.597387) vcan0 431#057B00CB09800002
(1486053533.599228) vcan0 217#0D780D8C0D800D74
(1486053533.600232) vcan0 186#1325025500850400
(1486053533.602289) vcan0 42C#8C20000008C00000
(1486053533.605586) vcan0 047#2000000000000000
(1486053533.605688) vcan0 165#10C3460000000000
(1486053533.605771) vcan0 3CA#FE8A991200000000
(1486053533.606696) vcan0 230#400600009B000000
(1486053533.609088) vcan0 076#3E93C0800FFF0000
(1486053533.610299) vcan0 213#FFFF00040001E740
(1486053533.611361) vcan0 216#EFD031D100000000
(1486053533.611485) vcan0 217#0D7C0D880D7C0D74
(1486053533.611573) vcan0 33B#0000000000000000
(1486053533.612357) vcan0 41D#8000600000000000
(1486053533.613224) vcan0 3A8#0100272200000000
(1486053533.618465) vcan0 3A6#0E401A045F700000
(1486053533.619721) vcan0 217#0D700D740D7C0D74
(1486053533.620707) vcan0 186#1325025500850400
(1486053533.624635) vcan0 3CC#3000000000000000
(1486053533.625472) vcan0 047#2000000000000000
(1486053533.625544) vcan0 165#10C3460000000000
(1486053533.626559) vcan0 230#400600009B000000
(1486053533.629095) vcan0 076#3E93C0800FFF0000
(1486053533.630298) vcan0 213#FFFF00040001E740
(1486053533.631230) vcan0 216#FDDD3FDF00000000
(1486053533.631354) vcan0 217#0D740D780D780D7C
(1486053533.631466) vcan0 41D#8000600000000000
(1486053533.632210) vcan0 455#A000000000000000
(1486053533.632307) vcan0 04A#0200000000000000
(1486053533.632369) vcan0 04B#00C0D8D8D8D8C000
(1486053533.632421) vcan0 04C#105FFFC000000000
(1486053533.634255) vcan0 3A8#0100272200000000
(1486053533.636285) vcan0 261#0000000000000000
(1486053533.636347) vcan0 3CA#FE8A991200000000
(1486053533.639222) vcan0 217#0D740D700D740D80
(1486053533.640223) vcan0 186#1327025500850400
(1486053533.645542) vcan0 047#2000000000000000
(1486053533.645659) vcan0 165#10C3460000000000
(1486053533.646691) vcan0 230#400600009B000000
(1486053533.649222) vcan0 076#3E95C0800FFF0000
(1486053533.650419) vcan0 213#FFFF00040001E740
(1486053533.651356) vcan0 216#0CEB4EEC00000000
(1486053533.651479) vcan0 217#0D740D740D740D84
(1486053533.652353) vcan0 41D#8000600000000000
(1486053533.653338) vcan0 42C#8C20000008C00000
(1486053533.653435) vcan0 3A8#0100272200000000
(1486053533.654265) vcan0 3CC#3000000000000000
(1486053533.658977) vcan0 217#0D6C0D6C0D700D7C
(1486053533.660095) vcan0 596#9600FFFFFFFFFFFF
(1486053533.660177) vcan0 186#1329025500850400
(1486053533.661126) vcan0 18A#0020180214000000
(1486053533.665656) vcan0 047#2000000000000000
(1486053533.665794) vcan0 165#10C3460000000000
(1486053533.666648) vcan0 3CA#FE89991400000000
(1486053533.667534) vcan0 230#400600009B000000
(1486053533.669595) vcan0 076#3E96C0800FFF0000
(1486053533.670633) vcan0 083#0020000000000000
(1486053533.670699) vcan0 213#FFFF00040001E740
(1486053533.671605) vcan0 216#19FA5BFA00000000
(1486053533.671716) vcan0 217#0D640D640D700D74
(1486053533.671802) vcan0 2A1#FFFFFFFF00000000
(1486053533.671858) vcan0 33B#0000000000000000
(1486053533.673598) vcan0 41D#8000600000000000
(1486053533.673669) vcan0 41E#0000000000000000
(1486053533.673724) vcan0 3A8#0100272500000000
(1486053533.678975) vcan0 217#0D600D640D6C0D68
(1486053533.680101) vcan0 186#132A025500850400
(1486053533.684419) vcan0 3CC#3000000000000000
(1486053533.685392) vcan0 047#2000000000000000
(1486053533.685453) vcan0 165#10C3460000000000
(1486053533.686505) vcan0 178#000001FD0E7ACA7B
(1486053533.687522) vcan0 230#400600009B000000
(1486053533.687585) vcan0 261#0000000000000000
(1486053533.689082) vcan0 076#3E96C0800FFF0000
(1486053533.690154) vcan0 213#FFFF00040001E640
(1486053533.691168) vcan0 216#2707690800000000
(1486053533.691262) vcan0 217#0D600D600D6C0D68
(1486053533.691366) vcan0 41D#8000600000000000
(1486053533.693244) vcan0 3A8#0100272500000000
(1486053533.696235) vcan0 3CA#FE89991400000000
(1486053533.696319) vcan0 422#000000973802FE02
(1486053533.697158) vcan0 423#8820000000000000
(1486053533.699102) vcan0 217#0D600D680D680D60
(1486053533.700030) vcan0 186#132A025500850400
(1486053533.701247) vcan0 42C#8C20000008C00000
(1486053533.705473) vcan0 047#2000000000000000
(1486053533.705601) vcan0 165#10C3460000000000
(1486053533.706656) vcan0 230#400600009B000000
(1486053533.709191) vcan0 076#3E96C0800FFF0000
(1486053533.710295) vcan0 213#FFFF00040001E740
(1486053533.711346) vcan0 216#3415771500000000
(1486053533.711478) vcan0 217#0D600D640D680D60
(1486053533.711567) vcan0 41D#8000600000000000
(1486053533.713242) vcan0 3A8#0100272500000000
(1486053533.714264) vcan0 3CC#3000000000000000
(1486053533.718941) vcan0 217#0D600D640D640D5C
(1486053533.720059) vcan0 186#132A025500850400
(1486053533.725561) vcan0 047#2000000000000000
(1486053533.725659) vcan0 165#10C3460000000000
(1486053533.726489) vcan0 3CA#FE89991400000000
(1486053533.727559) vcan0 230#400600009B000000
(1486053533.729181) vcan0 076#3E96C0800FFF0000
(1486053533.730256) vcan0 213#FFFF00040001E640
(1486053533.731196) vcan0 216#4222842400000000
(1486053533.731295) vcan0 217#0D540D5C0D600D5C
(1486053533.731363) vcan0 33B#0000000000000000
(1486053533.731424) vcan0 3A7#0E401A045F700000
(1486053533.732345) vcan0 04A#0200000000000000
(1486053533.732429) vcan0 04B#00C0D8D8D8D8C000
(1486053533.732493) vcan0 04C#105FFFC000000000
(1486053533.733208) vcan0 41D#8000600000000000
(1486053533.733272) vcan0 455#A000000000000000
(1486053533.734138) vcan0 3A8#0100272500000000
(1486053533.736140) vcan0 261#0000000000000000
(1486053533.738894) vcan0 186#132B025500850400
(1486053533.740124) vcan0 217#0D500D540D580D5C
(1486053533.744557) vcan0 3CC#3000000000000000
(1486053533.745445) vcan0 047#2000000000000000
(1486053533.745552) vcan0 165#10C3460000000000
(1486053533.746646) vcan0 230#400600009B000000
(1486053533.749179) vcan0 076#3E96C0800FFF0000
(1486053533.750290) vcan0 213#FFFF00040001E540
(1486053533.751219) vcan0 216#5030923100000000
(1486053533.751350) vcan0 217#0D500D500D540D54
(1486053533.751441) vcan0 41D#8000600000000000
(1486053533.753377) vcan0 42C#8C20000008C00000
(1486053533.753476) vcan0 3A8#0100272500000000
(1486053533.756289) vcan0 3CA#FE88A90B00000000
(1486053533.759068) vcan0 186#132B025500850400
(1486053533.760125) vcan0 18A#0020180214000000
(1486053533.760244) vcan0 217#0D500D540D500D50
(1486053533.765586) vcan0 047#2000000000000000
(1486053533.765767) vcan0 165#10C3460000000000
(1486053533.767482) vcan0 230#400600009B000000
(1486053533.769067) vcan0 076#3E96C0800FFF0000
(1486053533.770400) vcan0 083#0020000000000000
(1486053533.770517) vcan0 213#FFFF00040001E540
(1486053533.771255) vcan0 216#5D3E9F3F00000000
(1486053533.771337) vcan0 217#0D540D500D480D50
(1486053533.771403) vcan0 2A1#FFFFFFFF00000000
(1486053533.773154) vcan0 41D#8000600000000000
(1486053533.773236) vcan0 3A8#0100272500000000
(1486053533.774181) vcan0 3CC#3000000000000000
(1486053533.778932) vcan0 186#132B025500850400
(1486053533.780010) vcan0 217#0D4C0D540D440D50
(1486053533.785480) vcan0 047#2000000000000000
(1486053533.785600) vcan0 165#10C3460000000000
(1486053533.785700) vcan0 3CA#FE88A90C00000000
(1486053533.786487) vcan0 178#000001FD0E7ACA7B
(1486053533.787826) vcan0 230#400600009B000000
(1486053533.788677) vcan0 261#0000000000000000
(1486053533.789755) vcan0 076#3E95C0800FFF0000
(1486053533.790810) vcan0 213#FFFF00040001E540
(1486053533.790993) vcan0 216#6C4BAE4C00000000
(1486053533.791098) vcan0 217#0D4C0D500D440D48
(1486053533.791623) vcan0 33B#0000000000000000
(1486053533.791746) vcan0 41D#8000600000000000
(1486053533.793612) vcan0 3A8#0100272500000000
(1486053533.795821) vcan0 3CD#0000000000000000
(1486053533.796718) vcan0 3D8#0000000080456030
(1486053533.796820) vcan0 422#000000973802FE02
(1486053533.796900) vcan0 423#8820000000000000
(1486053533.798590) vcan0 186#132B025500850400
(1486053533.799799) vcan0 217#0D440D540D440D48
(1486053533.800741) vcan0 42C#8C20000008C00000
(1486053533.804655) vcan0 3CC#3000000000000000
(1486053533.805573) vcan0 047#2000000000000000
(1486053533.805695) vcan0 165#10C3460000000000
(1486053533.806564) vcan0 230#400600009B000000
(1486053533.809097) vcan0 076#3E93C0800FFF0000
(1486053533.810316) vcan0 213#FFFF00040001E440
(1486053533.811246) vcan0 216#785ABB5A00000000
(1486053533.811340) vcan0 217#0D440D500D400D3C
(1486053533.811438) vcan0 41D#8000600000000000
(1486053533.813151) vcan0 3A8#0100272500000000
(1486053533.816284) vcan0 3CA#FE88A90C00000000
(1486053533.818215) vcan0 186#132B025500850400
(1486053533.819402) vcan0 3A6#0E401A045F700000
(1486053533.819531) vcan0 217#0D400D440D3C0D38
(1486053533.825565) vcan0 047#2000000000000000
(1486053533.825661) vcan0 165#10C3460000000000
(1486053533.826661) vcan0 230#400600009B000000
(1486053533.829087) vcan0 076#3E93C0800FFF0000
(1486053533.830282) vcan0 213#FFFF00040001E440
(1486053533.831108) vcan0 216#8767C96700000000
(1486053533.831197) vcan0 217#0D380D3C0D340D3C
(1486053533.831284) vcan0 04A#0200000000000000
(1486053533.832037) vcan0 04B#00C0D8D8D8D8C000
(1486053533.832099) vcan0 04C#105FFFC000000000
(1486053533.833027) vcan0 41D#8000600000000000
(1486053533.833089) vcan0 455#A000000000000000
(1486053533.834118) vcan0 3A8#0100272200000000
(1486053533.834264) vcan0 3CC#3000000000000000
(1486053533.836169) vcan0 261#0000000000000000
(1486053533.838065) vcan0 186#1328025400850400
(1486053533.840748) vcan0 217#0D300D300D380D38
(1486053533.845416) vcan0 047#2000000000000000
(1486053533.845515) vcan0 165#10C3460000000000
(1486053533.845637) vcan0 3CA#FE8718F600000000
(1486053533.847382) vcan0 230#400600009B000000
(1486053533.848964) vcan0 076#3E93C0800FFF0000
(1486053533.850026) vcan0 213#FFFF00040001E340
(1486053533.851034) vcan0 216#9475D67500000000
(1486053533.851081) vcan0 217#0D280D2C0D340D40
(1486053533.851118) vcan0 33B#0000000000000000
(1486053533.852033) vcan0 41D#8000600000000000
(1486053533.853157) vcan0 42C#8C20000008C00000
(1486053533.855161) vcan0 3A8#0100272200000000
(1486053533.858027) vcan0 186#1323025400850400
(1486053533.859277) vcan0 18A#0020180214000000
(1486053533.859317) vcan0 217#0D240D280D340D48
(1486053533.864516) vcan0 3CC#3000000000000000
(1486053533.865402) vcan0 047#2000000000000000
(1486053533.865465) vcan0 165#10C3460000000000
(1486053533.867522) vcan0 230#400600009B000000
(1486053533.869029) vcan0 076#3E95C0800FFF0000
(1486053533.870057) vcan0 081#0000000000000000
(1486053533.870096) vcan0 083#0020000000000000
(1486053533.871138) vcan0 213#FFFF00040001E540
(1486053533.871207) vcan0 216#A282E48200000000
(1486053533.871256) vcan0 217#0D280D2C0D380D3C
(1486053533.872161) vcan0 2A1#FFFFFFFF00000000
(1486053533.872225) vcan0 3E6#0001040880000000
(1486053533.873200) vcan0 3A8#0100272200000000
(1486053533.874128) vcan0 41D#8000600000000000
(1486053533.874188) vcan0 5B3#B300FFFFFFFFFFFF
(1486053533.876168) vcan0 3CA#FE8718F600000000
(1486053533.877891) vcan0 186#1320025400850400
(1486053533.879984) vcan0 217#0D280D300D300D40
(1486053533.885383) vcan0 047#2000000000000000
(1486053533.885421) vcan0 165#10C3460000000000
(1486053533.886392) vcan0 178#000001FB0E7BCA7B
(1486053533.887531) vcan0 230#400600009B000000
(1486053533.887562) vcan0 261#0000000000000000
(1486053533.888997) vcan0 076#3E96C0800FFF0000
(1486053533.890030) vcan0 213#FFFF00040001E540
(1486053533.890965) vcan0 216#AF8FF19100000000
(1486053533.891000) vcan0 217#0D240D300D280D34
(1486053533.891029) vcan0 3A8#0100272500000000
(1486053533.892115) vcan0 41D#8000600000000000
(1486053533.894482) vcan0 3CC#3000000000000000
(1486053533.896391) vcan0 422#000000973802FE02
(1486053533.896427) vcan0 423#8820000000000000
(1486053533.897765) vcan0 186#131B025400850400
(1486053533.899860) vcan0 217#0D240D280D280D2C
(1486053533.900766) vcan0 42C#8C20000008C00000
(1486053533.905477) vcan0 047#2000000000000000
(1486053533.905518) vcan0 165#10C3460000000000
(1486053533.906486) vcan0 3CA#FE8718F600000000
(1486053533.907351) vcan0 230#400600009B000000
(1486053533.909113) vcan0 076#3E95C0800FFF0000
(1486053533.910142) vcan0 213#FFFF00040001E540
(1486053533.911234) vcan0 216#BC9DFF9D00000000
(1486053533.911281) vcan0 217#0D240D200D2C0D28
(1486053533.911329) vcan0 33B#0000000000000000
(1486053533.911355) vcan0 3A8#0100272500000000
(1486053533.912179) vcan0 41D#8000600000000000
(1486053533.917275) vcan0 186#131B025400850400
(1486053533.919345) vcan0 217#0D200D200D300D24
(1486053533.924489) vcan0 3CC#3000000000000000
(1486053533.925385) vcan0 047#2000000000000000
(1486053533.925418) vcan0 165#10C3460000000000
(1486053533.926504) vcan0 230#400600009B000000
(1486053533.929098) vcan0 076#3E93C0800FFF0000
(1486053533.930132) vcan0 213#FFFF00040001E640
(1486053533.931103) vcan0 216#CAAA0CAC00000000
(1486053533.931147) vcan0 217#0D180D200D300D24
(1486053533.931193) vcan0 3A7#0E401A045F700000
(1486053533.931218) vcan0 04A#0200000000000000
(1486053533.932101) vcan0 04B#00C0D8D8D8D8C000
(1486053533.932136) vcan0 04C#105FFFC000000000
(1486053533.933245) vcan0 41D#8000600000000000
(1486053533.933277) vcan0 455#A000000000000000
(1486053533.933301) vcan0 3A8#0100272500000000
(1486053533.936245) vcan0 3CA#FE85C8E400000000
(1486053533.936303) vcan0 261#0000000000000000
(1486053533.938224) vcan0 186#1317025400850400
(1486053533.939108) vcan0 217#0D140D1C0D2C0D20
(1486053533.945470) vcan0 047#2000000000000000
(1486053533.945510) vcan0 165#10C3460000000000
(1486053533.946513) vcan0 230#400600009B000000
(1486053533.949094) vcan0 076#3E93C0800FFF0000
(1486053533.950132) vcan0 213#FFFF00040001E640
(1486053533.951012) vcan0 216#D7B819B900000000
(1486053533.951050) vcan0 217#0D140D200D200D1C
(1486053533.951114) vcan0 41D#8000600000000000
(1486053533.953225) vcan0 3A8#0100272200000000
(1486053533.953307) vcan0 3B3#4048020F10050002
(1486053533.954234) vcan0 42C#8C20000008C00000
(1486053533.954283) vcan0 3CC#3000000000000000
(1486053533.957347) vcan0 186#1312025400850400
(1486053533.958272) vcan0 18A#0020180214000000
(1486053533.959353) vcan0 217#0D1C0D180D140D14
(1486053533.965474) vcan0 047#2000000000000000
(1486053533.965533) vcan0 3CA#FE85C8E400000000
(1486053533.966485) vcan0 165#10C3460000000000
(1486053533.967503) vcan0 230#400600009B000000
(1486053533.969009) vcan0 076#3E95C0800FFF0000
(1486053533.970128) vcan0 083#0020000000000000
(1486053533.970162) vcan0 213#FFFF00040001E540
(1486053533.971251) vcan0 216#E5C527C500000000
(1486053533.971289) vcan0 217#0D180D1C0D100D10
(1486053533.971339) vcan0 2A1#FFFFFFFF00000000
(1486053533.972142) vcan0 33B#0000000000000000
(1486053533.973153) vcan0 3A8#0100272200000000
(1486053533.973221) vcan0 41D#8000600000000000
(1486053533.977222) vcan0 186#1314025400850400
(1486053533.979131) vcan0 217#0D180D180D0C0D14
(1486053533.984487) vcan0 3CC#3000000000000000
(1486053533.984518) vcan0 188#4000000000000000
(1486053533.985472) vcan0 047#2000000000000000
(1486053533.985511) vcan0 165#10C3460000000000
(1486053533.986493) vcan0 178#000001FF0E7ACA7B
(1486053533.987509) vcan0 230#400600009B000000
(1486053533.987539) vcan0 261#0000000000000000
(1486053533.989006) vcan0 076#3E93C0800FFF0000
(1486053533.990130) vcan0 213#FFFF00040001E540
(1486053533.991103) vcan0 216#F2D234D400000000
(1486053533.991160) vcan0 217#0D100D140D0C0D14
(1486053533.991211) vcan0 41D#8000600000000000
(1486053533.993136) vcan0 3A8#0100272500000000
(1486053533.996230) vcan0 422#000000973802FE02
(1486053533.996277) vcan0 3CA#FE85C8E400000000
(1486053533.996313) vcan0 423#8820000000000000
(1486053533.998225) vcan0 186#1316025400850400
(1486053533.999226) vcan0 217#0D080D100D0C0D18
(1486053534.000413) vcan0 42C#8C20000008C00000
(1486053534.005396) vcan0 047#2000000000000000
(1486053534.005430) vcan0 165#10C3460000000000
(1486053534.006500) vcan0 230#400600009B000000
(1486053534.009099) vcan0 076#3E93C0800FFF0000
(1486053534.010048) vcan0 213#FFFF00040001E540
(1486053534.011104) vcan0 216#FFE043E100000000
(1486053534.011161) vcan0 217#0D040D100D040D14
(1486053534.011212) vcan0 41D#8000600000000000
(1486053534.012262) vcan0 3A8#0100272200000000
(1486053534.014467) vcan0 3CC#3000000000000000
(1486053534.016593) vcan0 186#1316025400850400
(1486053534.018596) vcan0 3A6#0E401A045F700000
(1486053534.019510) vcan0 217#0CFC0D100D000D08
(1486053534.025476) vcan0 047#2000000000000000
(1486053534.025516) vcan0 165#10C3460000000000
(1486053534.026480) vcan0 3CA#FE8458C400000000
(1486053534.026569) vcan0 230#400600009B000000
(1486053534.029093) vcan0 076#3E93C0800FFF0000
(1486053534.030129) vcan0 213#FFFF00040001E540
(1486053534.031102) vcan0 216#0DED4FEE00000000
(1486053534.031159) vcan0 217#0CFC0D080CF80D00
(1486053534.031199) vcan0 33B#0000000000000000
(1486053534.032222) vcan0 41D#8000600000000000
(1486053534.032260) vcan0 04A#0200000000000000
(1486053534.032285) vcan0 04B#00C0D8D8D8D8C000
(1486053534.032309) vcan0 04C#105FFFC000000000
(1486053534.033263) vcan0 3A8#0100272200000000
(1486053534.034227) vcan0 455#A000000000000000
(1486053534.036183) vcan0 261#0000000000000000
(1486053534.037228) vcan0 186#131B025300850400
(1486053534.037298) vcan0 265#2001010410000000
(1486053534.037326) vcan0 453#3257364570646166
(1486053534.039017) vcan0 217#0D000D080CF80CF8
(1486053534.044411) vcan0 3CC#3000000000000000
(1486053534.045378) vcan0 047#2000000000000000
(1486053534.045411) vcan0 165#10C3460000000000
(1486053534.046971) vcan0 230#400600009B000000
(1486053534.049023) vcan0 076#3E93C0800FFF0000
(1486053534.050231) vcan0 213#FFFF00040001E440
(1486053534.051220) vcan0 216#1AFA5CFC00000000
(1486053534.051374) vcan0 217#0D040CFC0CF80CF8
(1486053534.051556) vcan0 41D#8000600000000000
(1486053534.052266) vcan0 3A8#0100272200000000
(1486053534.053135) vcan0 42C#8C20000008C00000
(1486053534.056164) vcan0 3CA#FE8458C400000000
(1486053534.057136) vcan0 186#131D025300850400
(1486053534.058125) vcan0 18A#0020180214000000
(1486053534.059127) vcan0 217#0CF40CF80CEC0CF8
(1486053534.065397) vcan0 047#2000000000000000
(1486053534.066386) vcan0 165#10C3460000000000
(1486053534.067472) vcan0 230#400600009B000000
(1486053534.069094) vcan0 076#3E93C0800FFF0000
(1486053534.070041) vcan0 083#0020000000000000
(1486053534.070070) vcan0 213#FFFF00040001E340
(1486053534.071244) vcan0 216#27086B0900000000
(1486053534.071297) vcan0 217#0CF40CF40CF00CFC
(1486053534.071337) vcan0 2A1#FFFFFFFF00000000
(1486053534.073225) vcan0 41D#8000600000000000
(1486053534.073283) vcan0 3A8#0100272200000000
(1486053534.074238) vcan0 3CC#3000000000000000
(1486053534.077117) vcan0 186#131C025300850400
(1486053534.078887) vcan0 217#0CE40CE80CF00D04
(1486053534.085359) vcan0 047#2000000000000000
(1486053534.085392) vcan0 165#10C3460000000000
(1486053534.085418) vcan0 3CA#FE8458C400000000
(1486053534.086539) vcan0 178#000001FB0E7ACA7B
(1486053534.087576) vcan0 230#400600009B000000
(1486053534.088634) vcan0 261#0000000000000000
(1486053534.089568) vcan0 076#3E93C0800FFF0000
(1486053534.090672) vcan0 213#FFFF00040001E440
(1486053534.090972) vcan0 216#3515781600000000
(1486053534.091647) vcan0 217#0CEC0CEC0CF80D04
(1486053534.091723) vcan0 33B#0000000000000000
(1486053534.091765) vcan0 3A8#0100272200000000
(1486053534.092543) vcan0 41D#8000600000000000
(1486053534.095795) vcan0 422#000000973802FE02
(1486053534.095853) vcan0 423#8820000000000000
(1486053534.096803) vcan0 186#131B025300850400
(1486053534.099010) vcan0 217#0CE80CE80D000CFC
(1486053534.101024) vcan0 42C#8C20000008C00000
(1486053534.104542) vcan0 3CC#3000000000000000
(1486053534.105511) vcan0 047#2000000000000000
(1486053534.105568) vcan0 165#10C3460000000000
(1486053534.106588) vcan0 230#400600009B000000
(1486053534.109144) vcan0 076#3E93C0800FFF0000
(1486053534.110082) vcan0 213#FFFF00040001E540
(1486053534.111145) vcan0 216#4222842400000000
(1486053534.111223) vcan0 217#0CE40CEC0D040CF4
(1486053534.111294) vcan0 41D#8000600000000000
(1486053534.113163) vcan0 3A8#0100272200000000
(1486053534.116278) vcan0 3CA#FE8368BA00000000
(1486053534.116387) vcan0 186#131B025300850400
(1486053534.119042) vcan0 217#0CE40CEC0CFC0CE8
(1486053534.125521) vcan0 047#2000000000000000
(1486053534.125575) vcan0 165#10C3460000000000
(1486053534.126556) vcan0 230#400600009B000000
(1486053534.129041) vcan0 076#3E93C0800FFF0000
(1486053534.130186) vcan0 213#FFFF00040001E640
(1486053534.131151) vcan0 216#4F2F913100000000
(1486053534.131229) vcan0 217#0CE00CE80CF00CE4
(1486053534.131284) vcan0 3A7#0E401A045F700000
(1486053534.131320) vcan0 04A#0200000000000000
(1486053534.132270) vcan0 04B#00C0D8D8D8D8C000
(1486053534.132320) vcan0 04C#105FFFC000000000
(1486053534.133289) vcan0 41D#8000600000000000
(1486053534.133333) vcan0 455#A000000000000000
(1486053534.133365) vcan0 3A8#0100272200000000
(1486053534.134202) vcan0 3CC#3000000000000000
(1486053534.135167) vcan0 456#8000000000000000
(1486053534.136187) vcan0 261#0000000000000000
(1486053534.136242) vcan0 186#131B025300850400
(1486053534.139237) vcan0 217#0CDC0CEC0CE40CDC
(1486053534.142027) vcan0 350#0000000000000000
(1486053534.143010) vcan0 3E0#0000000080000000
(1486053534.145009) vcan0 047#2000000000000000
(1486053534.146018) vcan0 165#10C3460000000000
(1486053534.146087) vcan0 3CA#FE8368BA00000000
(1486053534.147054) vcan0 230#400600009B000000
(1486053534.149146) vcan0 076#3E91C0800FFF0000
(1486053534.150186) vcan0 213#FFFF00040001E640
(1486053534.151273) vcan0 216#5C3DA03E00000000
(1486053534.151351) vcan0 217#0CDC0CE40CD80CDC
(1486053534.151405) vcan0 33B#0000000000000000
(1486053534.152165) vcan0 41D#8000600000000000
(1486053534.153169) vcan0 3A8#0100272200000000
(1486053534.153295) vcan0 42C#8C20000008C00000
(1486053534.156198) vcan0 186#1314025300850400
(1486053534.157156) vcan0 18A#0020180214000000
(1486053534.157200) vcan0 3E5#0000000080000000
(1486053534.159034) vcan0 217#0CD40CE00CD40CDC
(1486053534.164542) vcan0 3CC#3000000000000000
(1486053534.165516) vcan0 047#2000000000000000
(1486053534.165597) vcan0 165#10C3460000000000
(1486053534.167408) vcan0 230#400600009B000000
(1486053534.169032) vcan0 076#3E93C0800FFF0000
(1486053534.170181) vcan0 083#0020000000000000
(1486053534.170225) vcan0 213#FFFF00040001E540
(1486053534.171061) vcan0 216#6A4AAD4B00000000
(1486053534.171124) vcan0 217#0CD00CD80CD40CDC
(1486053534.171179) vcan0 2A1#FFFFFFFF00000000
(1486053534.173167) vcan0 41D#8000600000000000
(1486053534.173212) vcan0 3A8#0100272000000000
(1486053534.176170) vcan0 3CA#FE8288AC00000000
(1486053534.176238) vcan0 186#1313025300850400
(1486053534.179042) vcan0 217#0CD00CD40CD00CE0
(1486053534.185511) vcan0 047#2000000000000000
(1486053534.185567) vcan0 165#10C3460000000000
(1486053534.186545) vcan0 178#000001FD0E7ACA7B
(1486053534.187560) vcan0 230#400600009B000000
(1486053534.187602) vcan0 261#0000000000000000
(1486053534.189134) vcan0 076#3E93C0800FFF0000
(1486053534.190182) vcan0 213#FFFF00040001E540
(1486053534.191150) vcan0 216#7757B95900000000
(1486053534.191227) vcan0 217#0CCC0CD00CD00CD4
(1486053534.191297) vcan0 41D#8000600000000000
(1486053534.193163) vcan0 3A8#0100272200000000
(1486053534.194180) vcan0 3CC#3000000000000000
(1486053534.196188) vcan0 186#1313025300850400
(1486053534.197164) vcan0 422#000000973802FE02
(1486053534.197209) vcan0 423#8820000000000000
(1486053534.199041) vcan0 217#0CC80CD00CCC0CD4
(1486053534.200636) vcan0 42C#8C20000008C00000
(1486053534.205511) vcan0 047#2000000000000000
(1486053534.205567) vcan0 165#10C3460000000000
(1486053534.205623) vcan0 3CA#FE8288AC00000000
(1486053534.206573) vcan0 230#400600009B000000
(1486053534.209143) vcan0 076#3E93C0800FFF0000
(1486053534.210184) vcan0 213#FFFF00040001E440
(1486053534.211146) vcan0 216#8464C66600000000
(1486053534.211224) vcan0 217#0CC80CD40CC40CD0
(1486053534.211280) vcan0 33B#0000000000000000
(1486053534.212269) vcan0 41D#8000600000000000
(1486053534.212350) vcan0 3A8#0100272200000000
(1486053534.216275) vcan0 186#1315025300850400
(1486053534.218263) vcan0 3A6#0E401A045F700000
(1486053534.219264) vcan0 217#0CC80CD00CB80CCC
(1486053534.224537) vcan0 3CC#3000000000000000
(1486053534.225520) vcan0 047#2000000000000000
(1486053534.225575) vcan0 165#10C3460000000000
(1486053534.226557) vcan0 230#400600009B000000
(1486053534.229136) vcan0 076#3E93C0800FFF0000
(1486053534.230188) vcan0 213#FFFF00040001E440
(1486053534.231149) vcan0 216#9171D37300000000
(1486053534.231226) vcan0 217#0CBC0CC80CB80CC8
(1486053534.231296) vcan0 04A#0200000000000000
(1486053534.232039) vcan0 04B#00C0D8D8D8D8C000
(1486053534.232082) vcan0 04C#105FFFC000000000
(1486053534.233167) vcan0 41D#8000600000000000
(1486053534.233210) vcan0 455#A000000000000000
(1486053534.234167) vcan0 3A8#0100272200000000
(1486053534.235183) vcan0 186#131A025200850400
(1486053534.237158) vcan0 261#0000000000000000
(1486053534.237203) vcan0 3CA#FE8288AC00000000
(1486053534.239033) vcan0 217#0CC00CC00CBC0CC0
(1486053534.245510) vcan0 047#2000000000000000
(1486053534.245564) vcan0 165#10C3460000000000
(1486053534.246574) vcan0 230#400600009B000000
(1486053534.249145) vcan0 076#3E91C0800FFF0000
(1486053534.250310) vcan0 213#FFFF00040001E440
(1486053534.251271) vcan0 216#9E7EE28000000000
(1486053534.251349) vcan0 217#0CBC0CB80CB80CC0
(1486053534.251423) vcan0 41D#8000600000000000
(1486053534.252213) vcan0 3A8#0100272200000000
(1486053534.253160) vcan0 42C#8C20000008C00000
(1486053534.254178) vcan0 3CC#3000000000000000
(1486053534.255166) vcan0 186#131A025200850400
(1486053534.256189) vcan0 18A#0020180214000000
(1486053534.259033) vcan0 217#0CBC0CB40CC00CBC
(1486053534.265518) vcan0 047#2000000000000000
(1486053534.265596) vcan0 165#10C3460000000000
(1486053534.266540) vcan0 168#0000000000000000
(1486053534.267494) vcan0 230#400600009B000000
(1486053534.267558) vcan0 3CA#FE8288AC00000000
(1486053534.269576) vcan0 076#3E91C0800FFF0000
(1486053534.270584) vcan0 083#0020000000000000
(1486053534.270669) vcan0 213#FFFF00040001E340
(1486053534.273263) vcan0 216#AB8CEE8D00000000
(1486053534.273389) vcan0 217#0CB40CB40CBC0CB8
(1486053534.273735) vcan0 2A1#FFFFFFFF00000000
(1486053534.273871) vcan0 33B#0000000000000000
(1486053534.274185) vcan0 3A8#0100272000000000
(1486053534.274426) vcan0 41D#8000600000000000
(1486053534.274622) vcan0 186#131A025200850400
(1486053534.278965) vcan0 217#0CB40CB80CB80CB4
(1486053534.284455) vcan0 3CC#3000000000000000
(1486053534.285370) vcan0 047#2000000000000000
(1486053534.285440) vcan0 165#10C3460000000000
(1486053534.286442) vcan0 178#000001FC0E7ACA7B
(1486053534.287598) vcan0 230#400600009B000000
(1486053534.287678) vcan0 261#0000000000000000
(1486053534.289023) vcan0 076#3E91C0800FFF0000
(1486053534.290076) vcan0 213#FFFF00040001E340
(1486053534.291110) vcan0 216#B999FB9900000000
(1486053534.291208) vcan0 217#0CB00CB40CB40CAC
(1486053534.291315) vcan0 41D#8000600000000000
(1486053534.292241) vcan0 3A8#0100272000000000
(1486053534.294379) vcan0 186#131A025200850400
(1486053534.295461) vcan0 3CA#FE81A89600000000
(1486053534.296387) vcan0 422#000000973802FE02
(1486053534.296452) vcan0 423#8820000000000000
(1486053534.299030) vcan0 217#0CA40CAC0CB00CB8
(1486053534.301922) vcan0 42C#8C20000008C00000
(1486053534.305438) vcan0 047#2000000000000000
(1486053534.305490) vcan0 165#10C3460000000000
(1486053534.306578) vcan0 230#400600009B000000
(1486053534.309113) vcan0 076#3E91C0800FFF0000
(1486053534.310044) vcan0 213#FFFF00040001E240
(1486053534.311133) vcan0 216#C6A608A600000000
(1486053534.311195) vcan0 217#0CA80CAC0CA40CA8
(1486053534.311255) vcan0 41D#8000600000000000
(1486053534.313077) vcan0 3A8#0100272000000000
(1486053534.314185) vcan0 3CC#3000000000000000
(1486053534.315164) vcan0 186#1317025200850400
(1486053534.319000) vcan0 217#0CA40CB00CAC0CB8
(1486053534.325481) vcan0 047#2000000000000000
(1486053534.325525) vcan0 165#10C3460000000000
(1486053534.325565) vcan0 3CA#FE81A89600000000
(1486053534.326562) vcan0 230#400600009B000000
(1486053534.329104) vcan0 076#3E91C0800FFF0000
(1486053534.330182) vcan0 213#FFFF00040001E340
(1486053534.331153) vcan0 216#D3B315B300000000
(1486053534.331206) vcan0 217#0CAC0CAC0CB00CB4
(1486053534.331250) vcan0 33B#0000000000000000
(1486053534.331279) vcan0 04A#0200000000000000
(1486053534.332147) vcan0 04B#00C0D8D8D8D8C000
(1486053534.332185) vcan0 04C#105FFFC000000000
(1486053534.333252) vcan0 3A7#0E401A045F700000
(1486053534.333302) vcan0 3E2#0000000080000000
(1486053534.333345) vcan0 3A8#0100272000000000
(1486053534.334249) vcan0 41D#8000600000000000
(1486053534.334306) vcan0 455#A000000000000000
(1486053534.335246) vcan0 186#1314025200850400
(1486053534.336297) vcan0 261#0000000000000000
(1486053534.339117) vcan0 217#0CA00CA40CB00CAC
(1486053534.340617) vcan0 3EB#C804100B00200000
(1486053534.344513) vcan0 3CC#3000000000000000
(1486053534.345472) vcan0 047#2000000000000000
(1486053534.345514) vcan0 165#10C3460000000000
(1486053534.346549) vcan0 230#400600009B000000
(1486053534.349103) vcan0 076#3E91C0800FFF0000
(1486053534.350287) vcan0 213#FFFF00040001E440
(1486053534.351251) vcan0 216#E0C022C000000000
(1486053534.351318) vcan0 217#0C940CA00CA40CA0
(1486053534.351371) vcan0 41D#8000600000000000
(1486053534.353201) vcan0 3A8#0100272000000000
(1486053534.354289) vcan0 186#1310025200850400
(1486053534.355242) vcan0 18A#0020180214000000
(1486053534.356285) vcan0 3CA#FE81988300000000
(1486053534.356340) vcan0 42C#8C20000008C00000
(1486053534.359118) vcan0 217#0C900CA00C9C0CA0
(1486053534.365520) vcan0 047#2000000000000000
(1486053534.366497) vcan0 165#10C3460000000000
(1486053534.367529) vcan0 230#400600009B000000
(1486053534.369094) vcan0 076#3E91C0800FFF0000
(1486053534.370074) vcan0 213#FFFF00040001E340
(1486053534.370124) vcan0 083#0020000000000000
(1486053534.371272) vcan0 216#EDCD2FCD00000000
(1486053534.371329) vcan0 217#0C8C0CA00C900C94
(1486053534.371371) vcan0 2A1#FFFFFFFF00000000
(1486053534.373253) vcan0 41D#8000600000000000
(1486053534.373297) vcan0 3A8#0100272000000000
(1486053534.373363) vcan0 3EB#C804100B00200000
(1486053534.374267) vcan0 3CC#3000000000000000
(1486053534.374304) vcan0 186#1310025200850400
(1486053534.378988) vcan0 217#0C940C9C0C940C94
(1486053534.385470) vcan0 047#2000000000000000
(1486053534.385512) vcan0 3CA#FE81988300000000
(1486053534.386496) vcan0 165#10C3460000000000
(1486053534.386553) vcan0 178#000001FD0E7BCA7B
(1486053534.388470) vcan0 230#400600009B000000
(1486053534.388511) vcan0 261#0000000000000000
(1486053534.389520) vcan0 076#3E91C0800FFF0000
(1486053534.390647) vcan0 213#FFFF00040001E340
(1486053534.390697) vcan0 216#FAD93CDB00000000
(1486053534.391624) vcan0 217#0C900C9C0C940C88
(1486053534.391687) vcan0 33B#0000000000000000
(1486053534.391730) vcan0 41D#8000600000000000
(1486053534.392663) vcan0 3A8#0100272000000000
(1486053534.394623) vcan0 186#130D025200850400
(1486053534.395560) vcan0 422#000000973800FE02
(1486053534.396491) vcan0 423#8820000000000000
(1486053534.399124) vcan0 217#0C900C980C900C90
(1486053534.400845) vcan0 42C#8C20000008C00000
(1486053534.404515) vcan0 3CC#3000000000000000
(1486053534.405496) vcan0 047#2000000000000000
(1486053534.405542) vcan0 165#20C3460000000000
(1486053534.406725) vcan0 230#400600009B000000
(1486053534.408999) vcan0 076#3E91C0800FFF0000
(1486053534.410166) vcan0 213#FFFF00040001E240
(1486053534.411247) vcan0 216#06E649E800000000
(1486053534.411312) vcan0 217#0C900C900C8C0C8C
(1486053534.411365) vcan0 41D#8000600000000000
(1486053534.412189) vcan0 3A8#0100272000000000
(1486053534.413261) vcan0 186#1308025100850400
(1486053534.416370) vcan0 3CA#FE81988400000000
(1486053534.418597) vcan0 3A6#0E401A045F700000
(1486053534.419616) vcan0 217#0C880C880C880C90
(1486053534.425470) vcan0 047#2000000000000000
(1486053534.425513) vcan0 165#20C3460000000000
(1486053534.426549) vcan0 230#400600009B000000
(1486053534.429117) vcan0 076#3E90C0800FFF0000
(1486053534.430163) vcan0 213#FFFF00040001E240
(1486053534.431125) vcan0 216#13F356F500000000
(1486053534.431192) vcan0 217#0C840C840C880C90
(1486053534.431245) vcan0 41D#8000600000000000
(1486053534.432232) vcan0 455#A000000000000000
(1486053534.432275) vcan0 04A#0200000000000000
(1486053534.432302) vcan0 04B#00C0D8D8D8D8C000
(1486053534.432327) vcan0 04C#105FFFC000000000
(1486053534.433194) vcan0 3A8#0100272000000000
(1486053534.434197) vcan0 3C3#60C1000000004000
(1486053534.434280) vcan0 186#1308025100850400
(1486053534.435219) vcan0 3CC#3000000000000000
(1486053534.436286) vcan0 261#0000000000000000
(1486053534.439117) vcan0 217#0C800C800C880C90
(1486053534.445470) vcan0 047#2000000000000000
(1486053534.445512) vcan0 165#20C3460000000000
(1486053534.445538) vcan0 3CA#FE81988400000000
(1486053534.447491) vcan0 230#400600009B000000
(1486053534.449102) vcan0 076#3E90C0800FFF0000
(1486053534.450164) vcan0 213#FFFF00040001E340
(1486053534.451123) vcan0 216#2000620000000000
(1486053534.451189) vcan0 217#0C800C800C840C88
(1486053534.451230) vcan0 33B#0000000000000000
(1486053534.452158) vcan0 41D#8000600000000000
(1486053534.452217) vcan0 3A8#0100271F00000000
(1486053534.453144) vcan0 3B3#4048020F10050002
(1486053534.453192) vcan0 42C#8C20000008C00000
(1486053534.454150) vcan0 186#1308025100850400
(1486053534.454208) vcan0 18A#0020180214000000
(1486053534.459118) vcan0 217#0C840C7C0C840C80
(1486053534.460596) vcan0 3C3#60C1000000004000
(1486053534.464510) vcan0 3CC#3000000000000000
(1486053534.465521) vcan0 047#2000000000000000
(1486053534.466501) vcan0 165#20C3460000000000
(1486053534.467519) vcan0 230#400600009B000000
(1486053534.469241) vcan0 076#3E91C0800FFF0000
(1486053534.470289) vcan0 213#FFFF00040001E340
(1486053534.470323) vcan0 083#0020000000000000
(1486053534.471268) vcan0 216#2D0D6F0D00000000
(1486053534.471324) vcan0 217#0C7C0C7C0C800C78
(1486053534.471366) vcan0 2A1#FFFFFFFF00000000
(1486053534.473147) vcan0 41D#8000600000000000
(1486053534.473195) vcan0 3A8#0100271F00000000
(1486053534.473273) vcan0 186#1308025100850400
(1486053534.476376) vcan0 3CA#FE81687800000000
(1486053534.479119) vcan0 217#0C780C7C0C800C78
(1486053534.485372) vcan0 047#2000000000000000
(1486053534.485408) vcan0 165#20C3460000000000
(1486053534.486390) vcan0 178#000001FC0E7ACA7B
(1486053534.487420) vcan0 230#400600009B000000
(1486053534.487451) vcan0 261#0000000000000000
(1486053534.489013) vcan0 076#3E8EC0800FFF0000
(1486053534.490176) vcan0 213#FFFF00040001E340
(1486053534.491149) vcan0 216#3A1A7C1A00000000
(1486053534.491209) vcan0 217#0C780C780C780C78
(1486053534.491283) vcan0 41D#8000600000000000
(1486053534.492302) vcan0 3A8#0100272000000000
(1486053534.493134) vcan0 186#1308025100850400
(1486053534.494284) vcan0 3CC#3000000000000000
(1486053534.494370) vcan0 59E#9E00FFFFFFFFFFFF
(1486053534.495283) vcan0 422#000000973802FE02
(1486053534.496226) vcan0 423#8820000000000000
(1486053534.497195) vcan0 43A#0000020000000000
(1486053534.499105) vcan0 217#0C780C800C780C78
(1486053534.500611) vcan0 42C#8C20000008C00000
(1486053534.505577) vcan0 047#2000000000000000
(1486053534.505678) vcan0 165#20C3460000000000
(1486053534.506640) vcan0 3CA#FE81687800000000
(1486053534.506819) vcan0 230#400600009B000000
(1486053534.509167) vcan0 076#3E88C0800FFF0000
(1486053534.510149) vcan0 213#FFFF00040001E340
(1486053534.511201) vcan0 216#4727892700000000
(1486053534.511308) vcan0 217#0C700C780C780C78
(1486053534.511395) vcan0 33B#0000000000000000
(1486053534.511450) vcan0 3A8#0100271D00000000
(1486053534.512234) vcan0 41D#8000600000000000
(1486053534.513203) vcan0 186#1305025100850400
(1486053534.519023) vcan0 217#0C740C780C700C70
(1486053534.524612) vcan0 3CC#3000000000000000
(1486053534.525547) vcan0 047#2000000000000000
(1486053534.525622) vcan0 165#20C3460000000000
(1486053534.526685) vcan0 230#400600009B000000
(1486053534.529202) vcan0 076#3E85C0800FFF0000
(1486053534.530277) vcan0 213#FFFF00040001E340
(1486053534.531209) vcan0 216#5432963400000000
(1486053534.531348) vcan0 217#0C700C6C0C6C0C6C
(1486053534.531431) vcan0 3A7#0E401A045F700000
(1486053534.532242) vcan0 41D#8000600000000000
(1486053534.532307) vcan0 04A#0200000000000000
(1486053534.532355) vcan0 04B#00C0D8D8D8D8C000
(1486053534.532398) vcan0 04C#105FFFC000000000
(1486053534.533404) vcan0 186#1303025100850400
(1486053534.534226) vcan0 3A8#0100271700000000
(1486053534.534380) vcan0 455#A000000000000000
(1486053534.536256) vcan0 261#0000000000000000
(1486053534.536310) vcan0 3CA#FE82586500000000
(1486053534.539038) vcan0 217#0C640C640C6C0C68
(1486053534.545492) vcan0 047#2000000000000000
(1486053534.545558) vcan0 165#20C3460000000000
(1486053534.547546) vcan0 230#400600009B000000
(1486053534.549212) vcan0 076#3E84C0800FFF0000
(1486053534.550403) vcan0 213#FFFF00040001E440
(1486053534.551339) vcan0 216#5F3FA34100000000
(1486053534.551475) vcan0 217#0C680C6C0C640C64
(1486053534.551581) vcan0 41D#8000600000000000
(1486053534.553344) vcan0 3A8#0100271400000000
(1486053534.553560) vcan0 186#1304025100850400
(1486053534.553665) vcan0 18A#0020180214000000
(1486053534.554213) vcan0 42C#8C20000008C00000
(1486053534.554294) vcan0 3CC#3000000000000000
(1486053534.559208) vcan0 217#0C5C0C600C600C5C
(1486053534.562461) vcan0 454#3646200372204242
(1486053534.565602) vcan0 047#2000000000000000
(1486053534.566587) vcan0 165#20C3460000000000
(1486053534.566688) vcan0 3CA#FE82586500000000
(1486053534.567677) vcan0 230#400600009B000000
(1486053534.569584) vcan0 076#3E85C0800FFF0000
(1486053534.570620) vcan0 213#FFFF00040001E440
(1486053534.570676) vcan0 083#0020000000000000
(1486053534.571582) vcan0 216#6C4CB04E00000000
(1486053534.571680) vcan0 217#0C600C680C600C5C
(1486053534.571764) vcan0 2A1#FFFFFFFF00000000
(1486053534.571811) vcan0 33B#0000000000000000
(1486053534.572608) vcan0 186#1304025100850400
(1486053534.573606) vcan0 3A8#0100271300000000
(1486053534.573763) vcan0 41D#8000600000000000
(1486053534.579077) vcan0 217#0C580C600C580C54
(1486053534.584652) vcan0 3CC#3000000000000000
(1486053534.585476) vcan0 047#2000000000000000
(1486053534.585551) vcan0 165#20C3460000000000
(1486053534.586518) vcan0 178#000001FD0E7ACA7B
(1486053534.587695) vcan0 230#400600009B000000
(1486053534.587786) vcan0 261#0000000000000000
(1486053534.589724) vcan0 076#3E86C0800FFF0000
(1486053534.590326) vcan0 213#FFFF00040001E340
(1486053534.591213) vcan0 216#7959BB5B00000000
(1486053534.591359) vcan0 217#0C580C5C0C500C54
(1486053534.591528) vcan0 41D#8000600000000000
(1486053534.593218) vcan0 3A8#0100271400000000
(1486053534.593376) vcan0 186#1306025100850400
(1486053534.595237) vcan0 422#000000973802FE02
(1486053534.596221) vcan0 423#8820000000000000
(1486053534.596288) vcan0 3CA#FE82586500000000
(1486053534.597258) vcan0 431#057B00CB09800002
(1486053534.599201) vcan0 217#0C500C500C500C50
(1486053534.601442) vcan0 42C#8C20000008C00000
(1486053534.605475) vcan0 047#2000000000000000
(1486053534.605543) vcan0 165#20C3460000000000
(1486053534.606633) vcan0 230#400600009B000000
(1486053534.609202) vcan0 076#3E87C0800FFF0000
(1486053534.610393) vcan0 213#FFFF00040001E240
(1486053534.611335) vcan0 216#8666C86800000000
(1486053534.611423) vcan0 217#0C500C500C540C50
(1486053534.611542) vcan0 41D#8000600000000000
(1486053534.612406) vcan0 3A8#0100271600000000
(1486053534.613202) vcan0 186#1306025100850400
(1486053534.614238) vcan0 3CC#3000000000000000
(1486053534.618190) vcan0 3A6#0E401A045F700000
(1486053534.619198) vcan0 217#0C4C0C480C580C54
(1486053534.625563) vcan0 047#2000000000000000
(1486053534.625646) vcan0 165#20C3460000000000
(1486053534.626463) vcan0 3CA#FE82586500000000
(1486053534.626588) vcan0 230#400600009B000000
(1486053534.629313) vcan0 076#3E87C0800FFF0000
(1486053534.630394) vcan0 213#FFFF00040001E340
(1486053534.631333) vcan0 216#9373D57400000000
(1486053534.631418) vcan0 217#0C440C440C540C48
(1486053534.631507) vcan0 33B#0000000000000000
(1486053534.632327) vcan0 41D#8000600000000000
(1486053534.632408) vcan0 04A#0200000000000000
(1486053534.632462) vcan0 04B#00C0D8D8D8D8C000
(1486053534.632508) vcan0 04C#105FFFC000000000
(1486053534.633391) vcan0 186#1307025000850400
(1486053534.634242) vcan0 3A8#0100271600000000
(1486053534.634368) vcan0 455#A000000000000000
(1486053534.636252) vcan0 261#0000000000000000
(1486053534.639080) vcan0 217#0C3C0C4C0C4C0C44
(1486053534.644605) vcan0 3CC#3000000000000000
(1486053534.645564) vcan0 047#2000000000000000
(1486053534.645646) vcan0 165#20C3460000000000
(1486053534.646695) vcan0 230#400600009B000000
(1486053534.649199) vcan0 076#3E88C0800FFF0000
(1486053534.650261) vcan0 213#FFFF00040001E340
(1486053534.651330) vcan0 216#A07EE28000000000
(1486053534.651412) vcan0 217#0C340C480C400C40
(1486053534.651525) vcan0 41D#8000600000000000
(1486053534.652406) vcan0 186#130A025000850400
(1486053534.653240) vcan0 18A#0020180214000000
(1486053534.653297) vcan0 3A8#0100271600000000
(1486053534.653423) vcan0 42C#8C20000008C00000
(1486053534.656235) vcan0 3CA#FE83286000000000
(1486053534.659205) vcan0 217#0C3C0C440C380C40
(1486053534.660187) vcan0 596#9600FFFFFFFFFFFF
(1486053534.665588) vcan0 047#2000000000000000
(1486053534.666587) vcan0 165#20C3460000000000
(1486053534.667573) vcan0 230#400600009B000000
(1486053534.669708) vcan0 076#3E88C0800FFF0000
(1486053534.670741) vcan0 213#FFFF00040001E340
(1486053534.670802) vcan0 083#0020000000000000
(1486053534.671594) vcan0 216#AB8BEF8D00000000
(1486053534.671701) vcan0 217#0C380C3C0C340C44
(1486053534.671799) vcan0 2A1#FFFFFFFF00000000
(1486053534.672583) vcan0 186#130A025000850400
(1486053534.672689) vcan0 3A8#0100271700000000
(1486053534.673631) vcan0 41D#8000600000000000
(1486053534.674579) vcan0 3CC#3000000000000000
(1486053534.674641) vcan0 41E#0000000000000000
(1486053534.679074) vcan0 217#0C340C3C0C380C40
(1486053534.685402) vcan0 047#2000000000000000
(1486053534.685473) vcan0 3CA#FE83286000000000
(1486053534.686393) vcan0 165#20C3460000000000
(1486053534.686476) vcan0 178#000001FC0E7BCA7B
(1486053534.688448) vcan0 230#400600009B000000
(1486053534.688521) vcan0 261#0000000000000000
(1486053534.689616) vcan0 076#3E88C0800FFF0000
(1486053534.690620) vcan0 213#FFFF00040001E340
(1486053534.690709) vcan0 216#B898FA9A00000000
(1486053534.691537) vcan0 217#0C340C380C380C40
(1486053534.691631) vcan0 33B#0000000000000000
(1486053534.691713) vcan0 41D#8000600000000000
(1486053534.692620) vcan0 186#1309025000850400
(1486053534.692771) vcan0 3A8#0100271700000000
(1486053534.694685) vcan0 422#000000973802FE02
(1486053534.695519) vcan0 423#8820000000000000
(1486053534.699048) vcan0 217#0C340C340C3C0C40
(1486053534.700689) vcan0 42C#8C20000008C00000
(1486053534.704632) vcan0 3CC#3000000000000000
(1486053534.705466) vcan0 047#2000000000000000
(1486053534.705533) vcan0 165#20C3460000000000
(1486053534.706544) vcan0 230#400600009B000000
(1486053534.709091) vcan0 076#3E86C0800FFF0000
(1486053534.710134) vcan0 213#FFFF00040001E340
(1486053534.711168) vcan0 216#C5A507A700000000
(1486053534.711253) vcan0 217#0C340C340C3C0C38
(1486053534.711342) vcan0 41D#8000600000000000
(1486053534.712600) vcan0 186#1306025000850400
(1486053534.713241) vcan0 3A8#0100271700000000
(1486053534.716166) vcan0 3CA#FE83D85800000000
(1486053534.719142) vcan0 217#0C340C300C340C34
(1486053534.725514) vcan0 047#2000000000000000
(1486053534.725595) vcan0 165#20C3460000000000
(1486053534.726588) vcan0 230#400600009B000000
(1486053534.729142) vcan0 076#3E86C0800FFF0000
(1486053534.730315) vcan0 213#FFFF00040001E340
(1486053534.731276) vcan0 216#D2B014B200000000
(1486053534.731358) vcan0 217#0C2C0C2C0C2C0C2C
(1486053534.731417) vcan0 3A7#0E401A045F700000
(1486053534.731468) vcan0 04A#0200000000000000
(1486053534.732211) vcan0 04B#00C0D8D8D8D8C000
(1486053534.732284) vcan0 04C#105FFFC000000000
(1486053534.733277) vcan0 186#1306025000850400
(1486053534.733386) vcan0 41D#8000600000000000
(1486053534.734281) vcan0 3A8#0100271600000000
(1486053534.734435) vcan0 3CC#3000000000000000
(1486053534.734489) vcan0 455#A000000000000000
(1486053534.736149) vcan0 261#0000000000000000
(1486053534.739172) vcan0 217#0C280C280C280C28
(1486053534.745517) vcan0 047#2000000000000000
(1486053534.745599) vcan0 165#20C3460000000000
(1486053534.746434) vcan0 3CA#FE83D85800000000
(1486053534.747378) vcan0 230#400600009B000000
(1486053534.749169) vcan0 076#3E84C0800FFF0000
(1486053534.750353) vcan0 213#FFFF00040001E340
(1486053534.751302) vcan0 216#DDBD21BF00000000
(1486053534.751401) vcan0 217#0C200C240C200C24
(1486053534.751457) vcan0 33B#0000000000000000
(1486053534.752300) vcan0 186#1307025000850400
(1486053534.753189) vcan0 18A#0020180214000000
(1486053534.753271) vcan0 3A8#0100271600000000
(1486053534.753391) vcan0 41D#8000600000000000
(1486053534.754134) vcan0 42C#8C20000008C00000
(1486053534.759052) vcan0 217#0C180C200C1C0C1C
(1486053534.764576) vcan0 3CC#3000000000000000
(1486053534.765552) vcan0 047#2000000000000000
(1486053534.766393) vcan0 165#20C3460000000000
(1486053534.767412) vcan0 230#400600009B000000
(1486053534.769292) vcan0 076#3E83C0800FFF0000
(1486053534.770354) vcan0 213#FFFF00040001E340
(1486053534.770427) vcan0 083#0020000000000000
(1486053534.771331) vcan0 216#EACA2CCC00000000
(1486053534.771417) vcan0 217#0C180C1C0C140C18
(1486053534.771474) vcan0 186#1307025000850400
(1486053534.772376) vcan0 2A1#FFFFFFFF00000000
(1486053534.773208) vcan0 3A8#0100271300000000
(1486053534.773345) vcan0 41D#8000600000000000
(1486053534.776140) vcan0 3CA#FE83D85800000000
(1486053534.779166) vcan0 217#0C140C140C0C0C14
(1486053534.785433) vcan0 047#2000000000000000
(1486053534.785505) vcan0 165#20C3460000000000
(1486053534.786437) vcan0 178#000001FD0E7ACA7B
(1486053534.787424) vcan0 230#400600009B000000
(1486053534.787479) vcan0 261#0000000000000000
(1486053534.789148) vcan0 076#3E83C0800FFF0000
(1486053534.790319) vcan0 213#FFFF00040001E240
(1486053534.791273) vcan0 216#F7D539D700000000
(1486053534.791355) vcan0 217#0C0C0C140C100C28
(1486053534.791414) vcan0 186#1307025000850400
(1486053534.793278) vcan0 41D#8000600000000000
(1486053534.793372) vcan0 3A8#0100271300000000
(1486053534.794297) vcan0 3CC#3000000000000000
(1486053534.795297) vcan0 422#000000973802FE02
(1486053534.796172) vcan0 423#8820000000000000
(1486053534.796270) vcan0 3CD#0000000000000000
(1486053534.796323) vcan0 3D8#0000000080456030
(1486053534.799144) vcan0 217#0C040C140C140C28
(1486053534.800515) vcan0 42C#8C20000008C00000
(1486053534.805514) vcan0 047#2000000000000000
(1486053534.805596) vcan0 165#20C3460000000000
(1486053534.806425) vcan0 3CA#FE83D85800000000
(1486053534.807388) vcan0 230#400600009B000000
(1486053534.809273) vcan0 076#3E83C0800FFF0000
(1486053534.810319) vcan0 213#FFFF00040001E340
(1486053534.811275) vcan0 216#02E246E400000000
(1486053534.811357) vcan0 186#1307024F00850400
(1486053534.811433) vcan0 217#0C040C0C0C100C24
(1486053534.812273) vcan0 33B#0000000000000000
(1486053534.813273) vcan0 3A8#0100271300000000
(1486053534.813402) vcan0 41D#8000600000000000
(1486053534.818766) vcan0 3A6#0E401A045F700000
(1486053534.819771) vcan0 217#0C000C0C0C0C0C1C
(1486053534.824580) vcan0 3CC#3000000000000000
(1486053534.825544) vcan0 047#2000000000000000
(1486053534.825645) vcan0 165#20C3460000000000
(1486053534.826629) vcan0 230#400600009B000000
(1486053534.829176) vcan0 076#3E84C0800FFF0000
(1486053534.830356) vcan0 213#FFFF00040001E440
(1486053534.831309) vcan0 216#0FEF52F100000000
(1486053534.831407) vcan0 217#0C000C040C080C14
(1486053534.831475) vcan0 186#1308024F00850400
(1486053534.831537) vcan0 04A#0200000000000000
(1486053534.832180) vcan0 04B#00C0D8D8D8D8C000
(1486053534.832259) vcan0 04C#105FFFC000000000
(1486053534.833238) vcan0 41D#8000600000000000
(1486053534.833313) vcan0 455#A000000000000000
(1486053534.834238) vcan0 3A8#0100271300000000
(1486053534.836369) vcan0 261#0000000000000000
(1486053534.836450) vcan0 3CA#FE85084C00000000
(1486053534.839185) vcan0 217#0C000C100C000C10
(1486053534.845541) vcan0 047#2000000000000000
(1486053534.845646) vcan0 165#20C3460000000000
(1486053534.846562) vcan0 230#400600009B000000
(1486053534.849087) vcan0 076#3E84C0800FFF0000
(1486053534.850185) vcan0 213#FFFF00040001E440
(1486053534.851134) vcan0 216#1CFB5EFC00000000
(1486053534.851202) vcan0 186#1308024F00850400
(1486053534.852135) vcan0 18A#0020180214000000
(1486053534.852212) vcan0 217#0BFC0C080BFC0C04
(1486053534.852265) vcan0 3A8#0100271300000000
(1486053534.853152) vcan0 41D#8000600000000000
(1486053534.854266) vcan0 3CC#3000000000000000
(1486053534.854330) vcan0 42C#8C20000008C00000
(1486053534.858996) vcan0 217#0BFC0C040BFC0C08
(1486053534.865484) vcan0 047#2000000000000000
(1486053534.866467) vcan0 165#10C3460000000000
(1486053534.866535) vcan0 3CA#FE85084D00000000
(1486053534.867629) vcan0 230#400600009B000000
(1486053534.869595) vcan0 076#3E85C0800FFF0000
(1486053534.870517) vcan0 186#1308024F00850400
(1486053534.870570) vcan0 081#0000000000000000
(1486053534.871502) vcan0 083#0020000000000000
(1486053534.871548) vcan0 213#FFFF00040001E440
(1486053534.872500) vcan0 216#28086B0900000000
(1486053534.872548) vcan0 217#0BF80BF80BF80C00
(1486053534.872598) vcan0 2A1#FFFFFFFF00000000
(1486053534.873501) vcan0 33B#0000000000000000
(1486053534.873560) vcan0 3A8#0100271300000000
(1486053534.873666) vcan0 3E6#0001040880000000
(1486053534.874645) vcan0 41D#8000600000000000
(1486053534.875511) vcan0 5B3#B300FFFFFFFFFFFF
(1486053534.878974) vcan0 217#0BF40BF80BFC0C00
(1486053534.884337) vcan0 3CC#3000000000000000
(1486053534.885368) vcan0 047#2000000000000000
(1486053534.885413) vcan0 165#10C3460000000000
(1486053534.886395) vcan0 178#000001FC0E7ACA7B
(1486053534.887373) vcan0 230#400600009B000000
(1486053534.887408) vcan0 261#0000000000000000
(1486053534.889089) vcan0 076#3E85C0800FFF0000
(1486053534.890272) vcan0 186#1305024F00850400
(1486053534.891136) vcan0 213#FFFF00040001E440
(1486053534.891189) vcan0 216#3513771500000000
(1486053534.891225) vcan0 217#0BF80BF40BFC0BFC
(1486053534.892107) vcan0 41D#8000600000000000
(1486053534.893078) vcan0 3A8#0100271400000000
(1486053534.893150) vcan0 3C3#60C0000000004000
(1486053534.895149) vcan0 422#000000973802FE02
(1486053534.895191) vcan0 423#8820000000000000
(1486053534.896170) vcan0 3CA#FE83184200000000
(1486053534.899108) vcan0 217#0BF00BF80C000BF4
(1486053534.900495) vcan0 42C#8C20000008C00000
(1486053534.905461) vcan0 047#2000000000000000
(1486053534.905515) vcan0 165#10C3460000000000
(1486053534.906528) vcan0 230#400600009B000000
(1486053534.909177) vcan0 076#3E87C0800FFF0000
(1486053534.910178) vcan0 186#1306024F00850400
(1486053534.911116) vcan0 213#FFFF00040001E440
(1486053534.911180) vcan0 216#4020842200000000
(1486053534.912123) vcan0 217#0BEC0BF40C000BF0
(1486053534.912190) vcan0 41D#8000600000000000
(1486053534.913105) vcan0 3A8#0100271400000000
(1486053534.914140) vcan0 3CC#3000000000000000
(1486053534.918885) vcan0 217#0BE40BF40BFC0BEC
(1486053534.925464) vcan0 047#2000000000000000
(1486053534.925519) vcan0 165#10C3460000000000
(1486053534.925567) vcan0 3CA#FE83184200000000
(1486053534.926530) vcan0 230#400600009B000000
(1486053534.929228) vcan0 076#3E88C0800FFF0000
(1486053534.930269) vcan0 186#130A024F00850400
(1486053534.931235) vcan0 213#FFFF00040001E540
(1486053534.931309) vcan0 216#4D2D8F2F00000000
(1486053534.931345) vcan0 217#0BE80BF00BF40BE8
(1486053534.932109) vcan0 04A#0200000000000000
(1486053534.932146) vcan0 04B#00C0D8D8D8D8C000
(1486053534.932178) vcan0 04C#105FFFC000000000
(1486053534.933091) vcan0 33B#0000000000000000
(1486053534.933124) vcan0 3A7#0E401A045F700000
(1486053534.933154) vcan0 3A8#0100271600000000
(1486053534.934093) vcan0 41D#8000600000000000
(1486053534.934127) vcan0 455#A000000000000000
(1486053534.936112) vcan0 261#0000000000000000
(1486053534.938970) vcan0 217#0BE00BF00BEC0BE8
(1486053534.944498) vcan0 3CC#3000000000000000
(1486053534.945461) vcan0 047#2000000000000000
(1486053534.945516) vcan0 165#10C3460000000000
(1486053534.946533) vcan0 230#400600009B000000
(1486053534.949211) vcan0 076#3E88C0800FFF0000
(1486053534.950270) vcan0 186#130C024F00850400
(1486053534.951235) vcan0 18A#0020180214000000
(1486053534.951290) vcan0 213#FFFF00040001E540
(1486053534.952238) vcan0 216#58389C3A00000000
(1486053534.952312) vcan0 217#0BE80BF00BDC0BE8
(1486053534.953235) vcan0 3A8#0100271700000000
(1486053534.953346) vcan0 3B3#4048020F10050002
(1486053534.953393) vcan0 41D#8000600000000000
(1486053534.954235) vcan0 42C#8C20000008C00000
(1486053534.956255) vcan0 3CA#FE83184200000000
(1486053534.959241) vcan0 217#0BE40BF00BD80BE4
(1486053534.965485) vcan0 047#2000000000000000
(1486053534.966486) vcan0 165#10C3460000000000
(1486053534.967499) vcan0 230#400600009B000000
(1486053534.968833) vcan0 186#130C024F00850400
(1486053534.969905) vcan0 076#3E88C0800FFF0000
(1486053534.970864) vcan0 213#FFFF00040001E440
(1486053534.970926) vcan0 083#0020000000000000
(1486053534.970974) vcan0 216#6545A74700000000
(1486053534.971762) vcan0 217#0BE00BEC0BD40BE0
(1486053534.971807) vcan0 2A1#FFFFFFFF00000000
(1486053534.972881) vcan0 3A8#0100271700000000
(1486053534.972953) vcan0 41D#8000600000000000
(1486053534.973875) vcan0 3CC#3000000000000000
(1486053534.979001) vcan0 217#0BE40BF00BD40BE0
(1486053534.984499) vcan0 188#4000000000000000
(1486053534.985459) vcan0 047#2000000000000000
(1486053534.985513) vcan0 165#10C3460000000000
(1486053534.986484) vcan0 3CA#FE83184300000000
(1486053534.986557) vcan0 178#000001FE0E7ACA7B
(1486053534.987534) vcan0 230#400600009B000000
(1486053534.988370) vcan0 261#0000000000000000
(1486053534.989397) vcan0 186#130E024F00850400
(1486053534.989455) vcan0 076#3E88C0800FFF0000
(1486053534.990503) vcan0 213#FFFF00040001E340
(1486053534.990552) vcan0 216#7251B45200000000
(1486053534.991474) vcan0 217#0BD00BD80BD00BDC
(1486053534.991511) vcan0 33B#0000000000000000
(1486053534.992465) vcan0 41D#8000600000000000
(1486053534.992509) vcan0 3A8#0100271700000000
(1486053534.994481) vcan0 422#000000973802FE02
(1486053534.995476) vcan0 423#8820000000000000
(1486053534.998994) vcan0 217#0BD00BE80BD80BDC
(1486053535.000491) vcan0 42C#8C20000008C00000
(1486053535.004382) vcan0 3CC#3000000000000000
(1486053535.005368) vcan0 047#2000000000000000
(1486053535.005400) vcan0 165#10C3460000000000
(1486053535.006406) vcan0 230#400600009B000000
(1486053535.008744) vcan0 186#130F024F00850400
(1486053535.009760) vcan0 076#3E88C0800FFF0000
(1486053535.010746) vcan0 213#FFFF00040001E340
(1486053535.010788) vcan0 216#7E5DC05F00000000
(1486053535.010817) vcan0 217#0BD00BD00BD40BE0
(1486053535.011746) vcan0 3A8#0100271700000000
(1486053535.012743) vcan0 41D#8000600000000000
(1486053535.015890) vcan0 3CA#FE82384900000000
(1486053535.018624) vcan0 3A6#0E401A045F700000
(1486053535.019626) vcan0 217#0BD00BD80BD80BE0
(1486053535.025375) vcan0 047#2000000000000000
(1486053535.025407) vcan0 165#10C3460000000000
(1486053535.026406) vcan0 230#400600009B000000
(1486053535.028625) vcan0 186#1313024F00850400
(1486053535.029640) vcan0 076#3E88C0800FFF0000
(1486053535.030607) vcan0 213#FFFF00040001E540
(1486053535.030655) vcan0 216#8B69CD6B00000000
(1486053535.030686) vcan0 217#0BD80BDC0BD80BD8
(1486053535.031639) vcan0 04A#0200000000000000
(1486053535.031669) vcan0 04B#00C0D8D8D8D8C000
(1486053535.031691) vcan0 04C#105FFFC000000000
(1486053535.032651) vcan0 41D#8000600000000000
(1486053535.032679) vcan0 455#A000000000000000
(1486053535.033655) vcan0 3A8#0100271700000000
(1486053535.033722) vcan0 3CC#3000000000000000
(1486053535.035780) vcan0 261#0000000000000000
(1486053535.036741) vcan0 265#2001010410000000
(1486053535.036773) vcan0 453#3257364570646166
(1486053535.038993) vcan0 217#0BCC0BD40BD80BDC
(1486053535.045368) vcan0 047#2000000000000000
(1486053535.045400) vcan0 165#10C3460000000000
(1486053535.045434) vcan0 3CA#FE82384900000000
(1486053535.046647) vcan0 230#400600009B000000
(1486053535.048592) vcan0 186#1312024F00850400
(1486053535.049513) vcan0 18A#0020180214000000
(1486053535.049542) vcan0 076#3E89C0800FFF0000
(1486053535.050511) vcan0 213#FFFF00040001E540
(1486053535.050551) vcan0 216#9674D87800000000
(1486053535.051496) vcan0 217#0BCC0BD40BD40BD8
(1486053535.051532) vcan0 33B#0000000000000000
(1486053535.052474) vcan0 41D#8000600000000000
(1486053535.052498) vcan0 3A8#0100271700000000
(1486053535.053586) vcan0 42C#8C20000008C00000
(1486053535.058968) vcan0 217#0BC40BC80BD00BD0
(1486053535.064476) vcan0 3CC#3000000000000000
(1486053535.065465) vcan0 047#2000000000000000
(1486053535.066463) vcan0 165#10C3460000000000
(1486053535.067476) vcan0 230#400600009B000000
(1486053535.068458) vcan0 186#1312024F00850400
(1486053535.069467) vcan0 076#3E88C0800FFF0000
(1486053535.070390) vcan0 213#FFFF00040001E540
(1486053535.070428) vcan0 083#0020000000000000
(1486053535.071588) vcan0 216#A181E58300000000
(1486053535.071632) vcan0 217#0BC40BC80BCC0BCC
(1486053535.071679) vcan0 2A1#FFFFFFFF00000000
(1486053535.072644) vcan0 3A8#0100271900000000
(1486053535.073588) vcan0 41D#8000600000000000
(1486053535.075623) vcan0 3CA#FE81D85200000000
(1486053535.078959) vcan0 217#0BBC0BC40BD00BC8
(1486053535.085321) vcan0 047#2000000000000000
(1486053535.085351) vcan0 165#10C3460000000000
(1486053535.086383) vcan0 178#000001FC0E7ACA7B
(1486053535.087394) vcan0 230#400600009B000000
(1486053535.087421) vcan0 261#0000000000000000
(1486053535.088494) vcan0 186#130E024F00850400
(1486053535.089494) vcan0 076#3E89C0800FFF0000
(1486053535.090512) vcan0 213#FFFF00040001E640
(1486053535.090555) vcan0 216#AE8DF08F00000000
(1486053535.091493) vcan0 217#0BBC0BC00BD00BC0
(1486053535.091533) vcan0 3A8#0100271700000000
(1486053535.091617) vcan0 41D#8000600000000000
(1486053535.094495) vcan0 3CC#3000000000000000
(1486053535.094538) vcan0 422#000000973802FE02
(1486053535.094563) vcan0 423#8820000000000000
(1486053535.098992) vcan0 217#0BB80BC40BC80BC0
(1486053535.100923) vcan0 42C#8C20000008C00000
(1486053535.105465) vcan0 047#2000000000000000
(1486053535.105504) vcan0 165#10C3460000000000
(1486053535.106379) vcan0 3CA#FE81D85200000000
(1486053535.107332) vcan0 230#400600009B000000
(1486053535.108368) vcan0 186#130C024F00850400
(1486053535.109363) vcan0 076#3E8BC0800FFF0000
(1486053535.110491) vcan0 213#FFFF00040001E640
(1486053535.110532) vcan0 216#BA9AFD9B00000000
(1486053535.111489) vcan0 217#0BB80BB80BC40BB8
(1486053535.111544) vcan0 33B#0000000000000000
(1486053535.112526) vcan0 41D#8000600000000000
(1486053535.112577) vcan0 3A8#0100271900000000
(1486053535.118982) vcan0 217#0BB40BB80BC00BBC
(1486053535.124495) vcan0 3CC#3000000000000000
(1486053535.125466) vcan0 047#2000000000000000
(1486053535.125520) vcan0 165#10C3460000000000
(1486053535.126527) vcan0 230#400600009B000000
(1486053535.127851) vcan0 186#1311025000850400
(1486053535.129885) vcan0 076#3E8BC0800FFF0000
(1486053535.129960) vcan0 213#FFFF00040001E640
(1486053535.131003) vcan0 216#C7A509A700000000
(1486053535.131087) vcan0 217#0BB40BB00BB00BB0
(1486053535.131141) vcan0 3A7#0E401A045F700000
(1486053535.131853) vcan0 04A#0200000000000000
(1486053535.131890) vcan0 04B#00C0D8D8D8D8C000
(1486053535.131921) vcan0 04C#105FFFC000000000
(1486053535.132874) vcan0 41D#8000600000000000
(1486053535.132908) vcan0 455#A000000000000000
(1486053535.133833) vcan0 3A8#0100271A00000000
(1486053535.134814) vcan0 456#8000000000000000
(1486053535.135854) vcan0 3CA#FE81D85200000000
(1486053535.136847) vcan0 261#0000000000000000
(1486053535.138847) vcan0 217#0BB40BB80BB80BB0
(1486053535.141121) vcan0 350#0000000000000000
(1486053535.142269) vcan0 3E0#0000000080000000
(1486053535.145457) vcan0 047#2000000000000000
(1486053535.145511) vcan0 165#10C3460000000000
(1486053535.146530) vcan0 230#400600009B000000
(1486053535.147725) vcan0 186#1314025000850400
(1486053535.148728) vcan0 18A#0020180214000000
(1486053535.148775) vcan0 3E5#0000000080000000
(1486053535.149730) vcan0 076#3E8BC0800FFF0000
(1486053535.150761) vcan0 213#FFFF00040001E640
(1486053535.150817) vcan0 216#D2B014B400000000
(1486053535.150885) vcan0 217#0BB00BB40BB00BB0
(1486053535.151744) vcan0 41D#8000600000000000
(1486053535.152733) vcan0 3A8#0100271A00000000
(1486053535.153725) vcan0 42C#8C20000008C00000
(1486053535.153761) vcan0 3CC#3000000000000000
(1486053535.158993) vcan0 217#0BAC0BB00BAC0BB4
(1486053535.165461) vcan0 047#2000000000000000
(1486053535.166461) vcan0 165#10C3460000000000
(1486053535.166512) vcan0 3CA#FE81D85200000000
(1486053535.167499) vcan0 230#400600009B000000
(1486053535.168460) vcan0 186#1314025000850400
(1486053535.169460) vcan0 076#3E8BC0800FFF0000
(1486053535.170513) vcan0 213#FFFF00040001E640
(1486053535.170552) vcan0 083#0020000000000000
(1486053535.171497) vcan0 216#DEBD21BF00000000
(1486053535.171549) vcan0 217#0BA80BB40BA80BAC
(1486053535.171588) vcan0 2A1#FFFFFFFF00000000
(1486053535.172603) vcan0 33B#0000000000000000
(1486053535.172635) vcan0 3A8#0100271A00000000
(1486053535.173604) vcan0 41D#8000600000000000
(1486053535.178962) vcan0 217#0BA00BAC0BA40BA8
(1486053535.184474) vcan0 3CC#3000000000000000
(1486053535.185455) vcan0 047#2000000000000000
(1486053535.186463) vcan0 165#10C3460000000000
(1486053535.186510) vcan0 178#000001FE0E7ACA7B
(1486053535.187491) vcan0 186#1316025000850400
(1486053535.188383) vcan0 230#400600009B000000
(1486053535.188411) vcan0 261#0000000000000000
(1486053535.189367) vcan0 076#3E8AC0800FFF0000
(1486053535.190511) vcan0 213#FFFF00040001E540
(1486053535.190569) vcan0 216#EAC92DCB00000000
(1486053535.191495) vcan0 217#0B9C0BA80BA40BA0
(1486053535.191555) vcan0 41D#8000600000000000
(1486053535.192637) vcan0 3A8#0100271A00000000
(1486053535.194603) vcan0 422#000000973802FE02
(1486053535.195585) vcan0 423#8820000000000000
(1486053535.196602) vcan0 3CA#FE80885A00000000
(1486053535.198995) vcan0 217#0B9C0BA40BA40BA0
(1486053535.200364) vcan0 42C#8C20000008C00000
(1486053535.205464) vcan0 047#2000000000000000
(1486053535.205504) vcan0 165#10C3460000000000
(1486053535.206501) vcan0 230#400600009B000000
(1486053535.207458) vcan0 186#131A025000850400
(1486053535.209461) vcan0 076#3E89C0800FFF0000
(1486053535.210515) vcan0 213#FFFF00040001E540
(1486053535.210554) vcan0 216#F6D438D800000000
(1486053535.211496) vcan0 217#0B9C0BA40B9C0BA0
(1486053535.211556) vcan0 41D#8000600000000000
(1486053535.212500) vcan0 3A8#0100271900000000
(1486053535.214587) vcan0 3CC#3000000000000000
(1486053535.218208) vcan0 3A6#0E401A045F700000
(1486053535.219214) vcan0 217#0B980B9C0B900B98
(1486053535.225463) vcan0 047#2000000000000000
(1486053535.225503) vcan0 165#10C3460000000000
(1486053535.226464) vcan0 3CA#FE80885A00000000
(1486053535.226531) vcan0 230#400600009B000000
(1486053535.227481) vcan0 186#131D025000850400
(1486053535.229586) vcan0 076#3E88C0800FFF0000
(1486053535.230513) vcan0 213#FFFF00040001E540
(1486053535.230553) vcan0 216#01E145E300000000
(1486053535.231494) vcan0 217#0B980B9C0B8C0B94
(1486053535.231542) vcan0 33B#0000000000000000
(1486053535.231570) vcan0 04A#0200000000000000
(1486053535.231594) vcan0 04B#00C0D8D8D8D8C000
(1486053535.232504) vcan0 04C#105FFFC000000000
(1486053535.232566) vcan0 41D#8000600000000000
(1486053535.233477) vcan0 455#A000000000000000
(1486053535.233520) vcan0 3A8#0100271900000000
(1486053535.236579) vcan0 261#0000000000000000
(1486053535.238967) vcan0 217#0B8C0B980B880B8C
(1486053535.244475) vcan0 3CC#3000000000000000
(1486053535.245455) vcan0 047#2000000000000000
(1486053535.245495) vcan0 165#10C3460000000000
(1486053535.246500) vcan0 230#400600009B000000
(1486053535.247460) vcan0 186#131F025100850400
(1486053535.248460) vcan0 18A#0020180214000000
(1486053535.249461) vcan0 076#3E87C0800FFF0000
(1486053535.250514) vcan0 213#FFFF00040001E440
(1486053535.250571) vcan0 216#0EED50EE00000000
(1486053535.251495) vcan0 217#0B8C0B9C0B840B8C
(1486053535.251554) vcan0 41D#8000600000000000
(1486053535.252518) vcan0 3A8#0100271700000000
(1486053535.253584) vcan0 42C#8C20000008C00000
(1486053535.255619) vcan0 3CA#FE7F786300000000
(1486053535.259092) vcan0 217#0B900B940B880B8C
(1486053535.265475) vcan0 047#2000000000000000
(1486053535.266460) vcan0 168#0000000000000000
(1486053535.266499) vcan0 165#10C3460000000000
(1486053535.267477) vcan0 186#131F025100850400
(1486053535.268612) vcan0 230#400600009B000000
(1486053535.269582) vcan0 076#3E87C0800FFF0000
(1486053535.270516) vcan0 213#FFFF00040001E440
(1486053535.270556) vcan0 083#0020000000000000
(1486053535.271495) vcan0 216#1AF85CFB00000000
(1486053535.271548) vcan0 217#0B840B940B880B90
(1486053535.271587) vcan0 2A1#FFFFFFFF00000000
(1486053535.272547) vcan0 3A8#0100271600000000
(1486053535.273587) vcan0 41D#8000600000000000
(1486053535.274582) vcan0 3CC#3000000000000000
(1486053535.278960) vcan0 217#0B900B880B8C0B94
(1486053535.285359) vcan0 047#2000000000000000
(1486053535.285393) vcan0 3CA#FE7F786300000000
(1486053535.286351) vcan0 165#10C3460000000000
(1486053535.286394) vcan0 178#000001FC0E7ACA7B
(1486053535.287354) vcan0 186#1320025100850400
(1486053535.288346) vcan0 230#400600009B000000
(1486053535.288378) vcan0 261#0000000000000000
(1486053535.289491) vcan0 076#3E87C0800FFF0000
(1486053535.290491) vcan0 213#FFFF00040001E440
(1486053535.290531) vcan0 216#2505690700000000
(1486053535.291499) vcan0 217#0B840B880B900B94
(1486053535.291547) vcan0 33B#0000000000000000
(1486053535.291586) vcan0 41D#8000600000000000
(1486053535.292518) vcan0 3A8#0100271600000000
(1486053535.294602) vcan0 422#000000973802FE02
(1486053535.294634) vcan0 423#8820000000000000
(1486053535.299209) vcan0 217#0B840B800B880B88
(1486053535.300457) vcan0 42C#8C20000008C00000
(1486053535.304600) vcan0 3CC#3000000000000000
(1486053535.305589) vcan0 047#2000000000000000
(1486053535.305629) vcan0 165#10C3460000000000
(1486053535.306618) vcan0 230#400600009B000000
(1486053535.307529) vcan0 186#131E025100850400
(1486053535.309102) vcan0 076#3E86C0800FFF0000
(1486053535.310163) vcan0 213#FFFF00040001E440
(1486053535.311110) vcan0 216#3210741200000000
(1486053535.311147) vcan0 217#0B800B800B840B84
(1486053535.311181) vcan0 41D#8000600000000000
(1486053535.313108) vcan0 3A8#0100271600000000
(1486053535.316232) vcan0 3CA#FE7F786300000000
(1486053535.318867) vcan0 217#0B7C0B800B800B78
(1486053535.325463) vcan0 047#2000000000000000
(1486053535.325503) vcan0 165#10C3460000000000
(1486053535.326500) vcan0 230#400600009B000000
(1486053535.327583) vcan0 186#131D025100850400
(1486053535.329207) vcan0 076#3E88C0800FFF0000
(1486053535.330239) vcan0 213#FFFF00040001E440
(1486053535.331128) vcan0 216#3D1C801E00000000
(1486053535.331206) vcan0 217#0B800B800B840B7C
(1486053535.331262) vcan0 3A7#0E401A045F700000
(1486053535.331289) vcan0 3E2#0000000080000000
(1486053535.332123) vcan0 04A#0200000000000000
(1486053535.332155) vcan0 04B#00C0D8D8D8D8C000
(1486053535.332180) vcan0 04C#105FFFC000000000
(1486053535.333147) vcan0 41D#8000600000000000
(1486053535.333175) vcan0 3A8#0100271600000000
(1486053535.334126) vcan0 3CC#3000000000000000
(1486053535.334154) vcan0 455#A000000000000000
(1486053535.336258) vcan0 261#0000000000000000
(1486053535.338863) vcan0 217#0B740B800B880B80
(1486053535.340374) vcan0 3EB#C804100B01200000
(1486053535.345455) vcan0 047#2000000000000000
(1486053535.345495) vcan0 165#10C3460000000000
(1486053535.346462) vcan0 3CA#FE7F786300000000
(1486053535.347462) vcan0 186#1318025100850400
(1486053535.347554) vcan0 18A#0020180214000000
(1486053535.347582) vcan0 230#400600009B000000
(1486053535.349207) vcan0 076#3E89C0800FFF0000
(1486053535.350218) vcan0 213#FFFF00040001E540
(1486053535.351211) vcan0 216#49278B2B00000000
(1486053535.351293) vcan0 217#0B740B7C0B840B80
(1486053535.351347) vcan0 33B#0000000000000000
(1486053535.352146) vcan0 41D#8000600000000000
(1486053535.353130) vcan0 3A8#0100271700000000
(1486053535.355246) vcan0 42C#8C20000008C00000
(1486053535.359090) vcan0 217#0B780B7C0B800B80
(1486053535.364475) vcan0 3CC#3000000000000000
(1486053535.365458) vcan0 047#2000000000000000
(1486053535.366461) vcan0 165#10C3460000000000
(1486053535.366511) vcan0 186#1318025100850400
(1486053535.367406) vcan0 230#400600009B000000
(1486053535.369113) vcan0 076#3E89C0800FFF0000
(1486053535.370250) vcan0 213#FFFF00040001E540
(1486053535.371337) vcan0 083#0020000000000000
(1486053535.371419) vcan0 216#5434983600000000
(1486053535.371582) vcan0 217#0B700B740B780B7C
(1486053535.371705) vcan0 2A1#FFFFFFFF00000000
(1486053535.373335) vcan0 3A8#0100271900000000
(1486053535.373589) vcan0 3EB#C804100B01200000
(1486053535.373655) vcan0 41D#8000600000000000
(1486053535.376502) vcan0 3CA#FE7CB86E00000000
(1486053535.379082) vcan0 217#0B680B780B780B80
(1486053535.385562) vcan0 047#2000000000000000
(1486053535.385644) vcan0 165#10C3460000000000
(1486053535.386576) vcan0 186#1316025200850400
(1486053535.386758) vcan0 178#000001FD0E7ACA7B
(1486053535.387650) vcan0 230#400600009B000000
(1486053535.388561) vcan0 261#0000000000000000
(1486053535.389690) vcan0 076#3E89C0800FFF0000
(1486053535.390741) vcan0 213#FFFF00040001E740
(1486053535.390911) vcan0 216#6140A34200000000
(1486053535.391701) vcan0 217#0B680B740B700B7C
(1486053535.391880) vcan0 41D#8000600000000000
(1486053535.392769) vcan0 3A8#0100271900000000
(1486053535.394595) vcan0 3CC#3000000000000000
(1486053535.394684) vcan0 422#000000973802FE02
(1486053535.394734) vcan0 423#8820000000000000
(1486053535.399070) vcan0 217#0B6C0B780B6C0B78
(1486053535.400808) vcan0 42C#8C20000008C00000
(1486053535.405560) vcan0 047#2000000000000000
(1486053535.405641) vcan0 165#10C3460000000000
