(1486053611.087321) vcan0 047#2000000000000000
(1486053611.088239) vcan0 165#50C3460000000000
(1486053611.089233) vcan0 178#000002000E7ECA7D
(1486053611.090274) vcan0 230#400600009C000000
(1486053611.091164) vcan0 261#0000000000000000
(1486053611.092205) vcan0 186#143A01DC00570400
(1486053611.092304) vcan0 076#3E80C0800FFF0000
(1486053611.093374) vcan0 213#FFFF000400020040
(1486053611.093505) vcan0 216#6860876600000000
(1486053611.094297) vcan0 217#0E200E1C0E100E20
(1486053611.094367) vcan0 41D#8000600000000000
(1486053611.095313) vcan0 3A8#0100271000000000
(1486053611.095408) vcan0 3CA#FE7B783500000000
(1486053611.101213) vcan0 42C#8C20000008C00000
(1486053611.102231) vcan0 217#0E180E1C0E080E18
(1486053611.104184) vcan0 083#0020000000000000
(1486053611.105188) vcan0 2A1#FFFFFFFF00000000
(1486053611.105242) vcan0 33B#0000000000000000
(1486053611.107174) vcan0 047#2000000000000000
(1486053611.108211) vcan0 165#50C3460000000000
(1486053611.109225) vcan0 230#400600009C000000
(1486053611.112365) vcan0 186#143401DC00570400
(1486053611.112465) vcan0 076#3E80C0800FFF0000
(1486053611.113317) vcan0 213#FFFF000400020040
(1486053611.113378) vcan0 216#766E967400000000
(1486053611.114462) vcan0 217#0E180E200E140E10
(1486053611.114545) vcan0 3CC#3000000000000000
(1486053611.114610) vcan0 41D#8000600000000000
(1486053611.115324) vcan0 3A8#0100271000000000
(1486053611.121274) vcan0 217#0E180E200E140E0C
(1486053611.125435) vcan0 3CA#FE7B783500000000
(1486053611.127303) vcan0 047#2000000000000000
(1486053611.128306) vcan0 165#50C3460000000000
(1486053611.129395) vcan0 04A#0200000000000000
(1486053611.130224) vcan0 04B#00C0D8D8D8D8C000
(1486053611.130281) vcan0 04C#105FFFC000000000
(1486053611.131341) vcan0 230#400600009C000000
(1486053611.131412) vcan0 422#0000009A3802FE02
(1486053611.131459) vcan0 423#86A0000000000000
(1486053611.132241) vcan0 076#3E7FC0800FFF0000
(1486053611.133365) vcan0 186#142301DC00570400
(1486053611.133438) vcan0 18A#0020180C14000000
(1486053611.133483) vcan0 213#FFFF000400020040
(1486053611.134304) vcan0 216#847CA58200000000
(1486053611.134354) vcan0 217#0E180E1C0E100E08
(1486053611.135292) vcan0 41D#8000600000000000
(1486053611.135338) vcan0 455#A000000000000000
(1486053611.135380) vcan0 456#8000000000000000
(1486053611.135419) vcan0 3A8#0100271000000000
(1486053611.138314) vcan0 261#0000000000000000
(1486053611.141437) vcan0 217#0E140E1C0E140DFC
(1486053611.142494) vcan0 3CC#3000000000000000
(1486053611.147299) vcan0 047#2000000000000000
(1486053611.148346) vcan0 165#50C3460000000000
(1486053611.149379) vcan0 230#400600009C000000
(1486053611.151343) vcan0 186#141801DC00570400
(1486053611.152305) vcan0 076#3E80C0800FFF0000
(1486053611.153300) vcan0 213#FFFF00040001FF40
(1486053611.153363) vcan0 216#938CB49100000000
(1486053611.153408) vcan0 217#0E180E140E100DF8
(1486053611.154344) vcan0 3A7#0E401A045F700000
(1486053611.154431) vcan0 41D#8000600000000000
(1486053611.154477) vcan0 42C#8C20000008C00000
(1486053611.155301) vcan0 3A8#0100271000000000
(1486053611.156558) vcan0 3CA#FE7B783500000000
(1486053611.161552) vcan0 217#0E140E1C0E100E00
(1486053611.165048) vcan0 33B#0000000000000000
(1486053611.167302) vcan0 047#2000000000000000
(1486053611.168326) vcan0 165#50C3460000000000
(1486053611.170180) vcan0 230#400600009C000000
(1486053611.171203) vcan0 186#141801DC00570400
(1486053611.172206) vcan0 076#3E80C0800FFF0000
(1486053611.173317) vcan0 213#FFFF00040001FF40
(1486053611.173380) vcan0 216#A19AC29F00000000
(1486053611.173424) vcan0 217#0E100E180E100E0C
(1486053611.174436) vcan0 3CC#3000000000000000
(1486053611.174513) vcan0 41D#8000600000000000
(1486053611.175457) vcan0 3A8#0100271000000000
(1486053611.181216) vcan0 217#0E140E180E100E1C
(1486053611.185431) vcan0 3CA#FE7AF83300000000
(1486053611.187427) vcan0 047#2000000000000000
(1486053611.188425) vcan0 165#50C3460000000000
(1486053611.189455) vcan0 178#000002010E7ECA7D
(1486053611.190377) vcan0 230#400600009C000000
(1486053611.191330) vcan0 261#0000000000000000
(1486053611.191374) vcan0 186#141401DC00570400
(1486053611.192461) vcan0 076#3E80C0800FFF0000
(1486053611.193564) vcan0 213#FFFF00040001FF40
(1486053611.193629) vcan0 216#AFA9D0AF00000000
(1486053611.193688) vcan0 217#0E1C0E140E240E28
(1486053611.194565) vcan0 41D#8000600000000000
(1486053611.195575) vcan0 3A8#0100271000000000
(1486053611.200719) vcan0 42C#8C20000008C00000
(1486053611.201699) vcan0 217#0E180E180E300E2C
(1486053611.202732) vcan0 3CC#3000000000000000
(1486053611.204173) vcan0 083#0020000000000000
(1486053611.205174) vcan0 2A1#FFFFFFFF00000000
(1486053611.207305) vcan0 047#2000000000000000
(1486053611.208310) vcan0 165#50C3460000000000
(1486053611.209343) vcan0 230#400600009C000000
(1486053611.211201) vcan0 186#141201DC00570400
(1486053611.212319) vcan0 076#3E80C0800FFF0000
(1486053611.213322) vcan0 213#FFFF000400020040
(1486053611.213396) vcan0 216#BFB7DFBD00000000
(1486053611.213444) vcan0 217#0E1C0E240E380E3C
(1486053611.214491) vcan0 41D#8000600000000000
(1486053611.215426) vcan0 3A8#0100271000000000
(1486053611.215526) vcan0 3CA#FE7AF83300000000
(1486053611.221322) vcan0 217#0E200E2C0E240E34
(1486053611.224172) vcan0 33B#0000000000000000
(1486053611.227300) vcan0 047#2000000000000000
(1486053611.228332) vcan0 165#50C3460000000000
(1486053611.229352) vcan0 04A#0200000000000000
(1486053611.229401) vcan0 04B#00C0D8D8D8D8C000
(1486053611.229431) vcan0 04C#105FFFC000000000
(1486053611.230400) vcan0 422#0000009A3802FE02
(1486053611.231338) vcan0 230#400600009C000000
(1486053611.231392) vcan0 423#86A0000000000000
(1486053611.231431) vcan0 186#140D01DC00570400
(1486053611.232221) vcan0 18A#0020180D14000000
(1486053611.232281) vcan0 076#3E80C0800FFF0000
(1486053611.233241) vcan0 213#FFFF000400020340
(1486053611.233313) vcan0 216#CEC5EDCB00000000
(1486053611.233360) vcan0 217#0E200E300E200E30
(1486053611.234485) vcan0 3CC#3000000000000000
(1486053611.234550) vcan0 41D#8000600000000000
(1486053611.235480) vcan0 455#A000000000000000
(1486053611.235541) vcan0 3A8#0100271000000000
(1486053611.238375) vcan0 261#0000000000000000
(1486053611.241572) vcan0 217#0E200E2C0E080E0C
(1486053611.243548) vcan0 3A6#0E401A045F700000
(1486053611.245423) vcan0 3CA#FE7AF83300000000
(1486053611.247304) vcan0 047#2000000000000000
(1486053611.248324) vcan0 165#50C3460000000000
(1486053611.250329) vcan0 230#400600009C000000
(1486053611.251327) vcan0 186#140A01DC00570400
(1486053611.252230) vcan0 42C#8C20000008C00000
(1486053611.252276) vcan0 076#3E80C0800FFF0000
(1486053611.253363) vcan0 213#FFFF000400020240
(1486053611.253451) vcan0 216#DCD4FBDA00000000
(1486053611.254336) vcan0 217#0E240E240E000DFC
(1486053611.254430) vcan0 41D#8000600000000000
(1486053611.255425) vcan0 3A8#0100271000000000
(1486053611.261323) vcan0 217#0E1C0E200DF80DEC
(1486053611.263424) vcan0 3CC#3000000000000000
(1486053611.264486) vcan0 168#0000000000000000
(1486053611.267299) vcan0 047#2000000000000000
(1486053611.268360) vcan0 165#50C3460000000000
(1486053611.270354) vcan0 230#400600009C000000
(1486053611.270403) vcan0 186#140A01DC00570400
(1486053611.272487) vcan0 076#3E82C0800FFF0000
(1486053611.273470) vcan0 213#FFFF000400020040
(1486053611.273556) vcan0 216#EAE20AE800000000
(1486053611.273606) vcan0 217#0E200E1C0DFC0DF8
(1486053611.274506) vcan0 41D#8000600000000000
(1486053611.275423) vcan0 3A8#0100271000000000
(1486053611.276424) vcan0 3CA#FE7AF83300000000
(1486053611.281388) vcan0 217#0E1C0E240E0C0E18
(1486053611.283998) vcan0 33B#0000000000000000
(1486053611.287115) vcan0 047#2000000000000000
(1486053611.288322) vcan0 165#50C3460000000000
(1486053611.289357) vcan0 178#000002000E7ECA7D
(1486053611.290400) vcan0 186#140801DC00570400
(1486053611.291203) vcan0 230#400600009C000000
(1486053611.291239) vcan0 261#0000000000000000
(1486053611.292185) vcan0 076#3E80C0800FFF0000
(1486053611.293295) vcan0 213#FFFF00040001FF40
(1486053611.293389) vcan0 216#F8F018F600000000
(1486053611.293452) vcan0 217#0E180E240E180E2C
(1486053611.294335) vcan0 3CC#3000000000000000
(1486053611.294413) vcan0 41D#8000600000000000
(1486053611.295332) vcan0 3A8#0100271100000000
(1486053611.300800) vcan0 42C#8C20000008C00000
(1486053611.301859) vcan0 217#0E180E240E1C0E34
(1486053611.304173) vcan0 083#0020000000000000
(1486053611.305174) vcan0 2A1#FFFFFFFF00000000
(1486053611.306097) vcan0 3CA#FE7AC83200000000
(1486053611.307170) vcan0 047#2000000000000000
(1486053611.308325) vcan0 165#50C3460000000000
(1486053611.310362) vcan0 230#400600009C000000
(1486053611.310424) vcan0 186#141301DB00570400
(1486053611.312418) vcan0 076#3E7FC0800FFF0000
(1486053611.313368) vcan0 213#FFFF00040001FF40
(1486053611.313422) vcan0 216#0700280400000000
(1486053611.314342) vcan0 217#0E240E240E0C0E24
(1486053611.314418) vcan0 41D#8000600000000000
(1486053611.315304) vcan0 3A8#0100271000000000
(1486053611.321320) vcan0 217#0E1C0E240E040E1C
(1486053611.323302) vcan0 3CC#3000000000000000
(1486053611.327557) vcan0 047#2000000000000000
(1486053611.328584) vcan0 165#50C3460000000000
(1486053611.329702) vcan0 04A#0200000000000000
(1486053611.329757) vcan0 04B#00C0D8D8D8D8C000
(1486053611.329793) vcan0 04C#105FFFC000000000
(1486053611.330689) vcan0 186#141A01DB00560400
(1486053611.330752) vcan0 18A#0020180D14000000
(1486053611.331683) vcan0 422#0000009A3802FE02
(1486053611.331733) vcan0 230#400600009C000000
(1486053611.332670) vcan0 076#3E7FC0800FFF0000
(1486053611.332746) vcan0 213#FFFF00040001FF40
(1486053611.333691) vcan0 216#150E361300000000
(1486053611.333745) vcan0 217#0E200E200E080E0C
(1486053611.333784) vcan0 3E2#0000000080000000
(1486053611.334682) vcan0 41D#8000600000000000
(1486053611.334720) vcan0 423#86A0000000000000
(1486053611.335670) vcan0 455#A000000000000000
(1486053611.335713) vcan0 3A8#0100271000000000
(1486053611.335787) vcan0 3CA#FE7AC83200000000
(1486053611.338196) vcan0 261#0000000000000000
(1486053611.341538) vcan0 217#0E240E200E080E08
(1486053611.344149) vcan0 33B#0000000000000000
(1486053611.347401) vcan0 047#2000000000000000
(1486053611.348417) vcan0 165#50C3460000000000
(1486053611.349387) vcan0 230#400600009C000000
(1486053611.350439) vcan0 186#141C01DB00560400
(1486053611.352426) vcan0 076#3E7FC0800FFF0000
(1486053611.353421) vcan0 213#FFFF00040001FF40
(1486053611.353477) vcan0 216#251D442100000000
(1486053611.353521) vcan0 217#0E200E240E100E04
(1486053611.354318) vcan0 3A7#0E401A045F700000
(1486053611.354353) vcan0 3CC#3000000000000000
(1486053611.354392) vcan0 41D#8000600000000000
(1486053611.355442) vcan0 3EB#C804100000200000
(1486053611.355476) vcan0 3A8#0100271000000000
(1486053611.356423) vcan0 42C#8C20000008C00000
(1486053611.361438) vcan0 217#0E200E280E140E04
(1486053611.365302) vcan0 3CA#FE7AC83200000000
(1486053611.367264) vcan0 047#2000000000000000
(1486053611.368189) vcan0 165#50C3460000000000
(1486053611.370164) vcan0 186#141C01DB00560400
(1486053611.370213) vcan0 230#400600009C000000
(1486053611.372319) vcan0 076#3E7FC0800FFF0000
(1486053611.373312) vcan0 213#FFFF00040001FF40
(1486053611.373359) vcan0 216#332B532F00000000
(1486053611.373403) vcan0 217#0E2C0E3C0E200E0C
(1486053611.374343) vcan0 41D#8000600000000000
(1486053611.375389) vcan0 3A8#0100271000000000
(1486053611.381287) vcan0 217#0E140E200E180E14
(1486053611.383264) vcan0 3CC#3000000000000000
(1486053611.387264) vcan0 047#2000000000000000
(1486053611.388285) vcan0 165#50C3460000000000
(1486053611.389318) vcan0 178#000001FF0E7ECA7D
(1486053611.390297) vcan0 186#141701DB00560400
(1486053611.391434) vcan0 230#400600009C000000
(1486053611.391469) vcan0 261#0000000000000000
(1486053611.392445) vcan0 076#3E80C0800FFF0000
(1486053611.393421) vcan0 213#FFFF00040001FF40
(1486053611.393478) vcan0 216#4139613F00000000
(1486053611.393523) vcan0 217#0E1C0E280E140E18
(1486053611.394334) vcan0 41D#8000600000000000
(1486053611.395282) vcan0 3A8#0100271000000000
(1486053611.396273) vcan0 3CA#FE7AC83200000000
(1486053611.401266) vcan0 42C#8C20000008C00000
(1486053611.402301) vcan0 217#0E080E180E080E18
(1486053611.404265) vcan0 083#0020000000000000
(1486053611.405264) vcan0 2A1#FFFFFFFF00000000
(1486053611.405305) vcan0 33B#0000000000000000
(1486053611.407265) vcan0 047#2000000000000000
(1486053611.408298) vcan0 165#50C3460000000000
(1486053611.409325) vcan0 230#400600009C000000
(1486053611.410310) vcan0 186#141001DB00560400
(1486053611.411517) vcan0 076#3E80C0800FFF0000
(1486053611.412591) vcan0 213#FFFF00040001FE40
(1486053611.413691) vcan0 216#50486F4E00000000
(1486053611.413748) vcan0 217#0E080E140E080E18
(1486053611.413786) vcan0 3CC#3000000000000000
(1486053611.414581) vcan0 41D#8000600000000000
(1486053611.415639) vcan0 3A8#0100271000000000
(1486053611.421281) vcan0 217#0E100E180E040E18
(1486053611.425408) vcan0 3CA#FE8DC7CA00000000
(1486053611.427273) vcan0 047#2000000000000000
(1486053611.428290) vcan0 59E#9E00FFFFFFFFFFFF
(1486053611.428334) vcan0 165#50C3460000000000
(1486053611.429325) vcan0 422#0000009A3802FE02
(1486053611.429359) vcan0 04A#0200000000000000
(1486053611.430420) vcan0 04B#00C0D8D8D8D8C000
(1486053611.430465) vcan0 04C#105FFFC000000000
(1486053611.431398) vcan0 186#141001DB00560400
(1486053611.431451) vcan0 18A#0020180D14000000
(1486053611.432418) vcan0 230#400600009C000000
(1486053611.432465) vcan0 076#3E80C0800FFF0000
(1486053611.433418) vcan0 213#FFFF00040001FE40
(1486053611.433476) vcan0 216#5E567E5C00000000
(1486053611.433521) vcan0 217#0E140E0C0E080E14
(1486053611.434452) vcan0 41D#8000600000000000
(1486053611.434487) vcan0 423#86A0000000000000
(1486053611.435450) vcan0 43A#0000020000000000
(1486053611.435484) vcan0 3A8#0100271000000000
(1486053611.436411) vcan0 455#A000000000000000
(1486053611.438450) vcan0 261#0000000000000000
(1486053611.441532) vcan0 217#0E180E1C0E080E08
(1486053611.442576) vcan0 3A6#0E401A045F700000
(1486053611.443512) vcan0 3CC#3000000000000000
(1486053611.447396) vcan0 047#2000000000000000
(1486053611.448418) vcan0 165#50C3460000000000
(1486053611.449455) vcan0 186#140901DB00560400
(1486053611.450448) vcan0 230#400600009C000000
(1486053611.451386) vcan0 3B3#4048020F10050002
(1486053611.452428) vcan0 3C3#60C0000000004000
(1486053611.452472) vcan0 076#3E80C0800FFF0000
(1486053611.453419) vcan0 213#FFFF00040001FE40
(1486053611.453476) vcan0 216#6C648C6A00000000
(1486053611.453521) vcan0 217#0E140E200E0C0DF8
(1486053611.454437) vcan0 41D#8000600000000000
(1486053611.454474) vcan0 42C#8C20000008C00000
(1486053611.455388) vcan0 3A8#0100271000000000
(1486053611.455467) vcan0 3CA#FE8DC7CA00000000
(1486053611.461281) vcan0 217#0E180E200E080DF0
(1486053611.464516) vcan0 33B#0000000000000000
(1486053611.467265) vcan0 047#2000000000000000
(1486053611.468316) vcan0 165#10C3460000000000
(1486053611.469294) vcan0 186#140901DB00560400
(1486053611.470342) vcan0 230#400600009C000000
(1486053611.472419) vcan0 076#3E80C0800FFF0000
(1486053611.473419) vcan0 213#FFFF00040001FE40
(1486053611.473478) vcan0 216#7B739A7800000000
(1486053611.473523) vcan0 217#0E0C0E180E040DF8
(1486053611.474414) vcan0 3CC#3000000000000000
(1486053611.474480) vcan0 41D#8000600000000000
(1486053611.475421) vcan0 3A8#0100271000000000
(1486053611.481376) vcan0 217#0E0C0E100E040E00
(1486053611.485280) vcan0 3CA#FE8DC7CA00000000
(1486053611.487155) vcan0 047#2000000000000000
(1486053611.488164) vcan0 165#10C3460000000000
(1486053611.488200) vcan0 186#140701DB00560400
(1486053611.489194) vcan0 178#000001FE0E7ECA7D
(1486053611.491178) vcan0 230#400600009C000000
(1486053611.491210) vcan0 261#0000000000000000
(1486053611.492171) vcan0 076#3E80C0800FFF0000
(1486053611.493294) vcan0 213#FFFF00040001FC40
(1486053611.493503) vcan0 216#8981A98700000000
(1486053611.493556) vcan0 217#0E040E040E040E0C
(1486053611.494334) vcan0 41D#8000600000000000
(1486053611.495305) vcan0 3A8#0100271000000000
(1486053611.500702) vcan0 42C#8C20000008C00000
(1486053611.501682) vcan0 217#0E040E040E040E10
(1486053611.502823) vcan0 3CC#3000000000000000
(1486053611.504263) vcan0 083#0020000000000000
(1486053611.505263) vcan0 2A1#FFFFFFFF00000000
(1486053611.507178) vcan0 047#2000000000000000
(1486053611.508171) vcan0 165#10C3460000000000
(1486053611.508233) vcan0 186#140301DB00560400
(1486053611.510430) vcan0 230#400600009C000000
(1486053611.512397) vcan0 076#3E80C0800FFF0000
(1486053611.513401) vcan0 213#FFFF00040001FB40
(1486053611.513473) vcan0 216#9791B79500000000
(1486053611.513513) vcan0 217#0E100E080E080E10
(1486053611.514323) vcan0 41D#8000600000000000
(1486053611.515309) vcan0 3A8#0100271000000000
(1486053611.515381) vcan0 3CA#FE8CB7DC00000000
(1486053611.521265) vcan0 217#0E080E080E080E08
(1486053611.524267) vcan0 33B#0000000000000000
(1486053611.527273) vcan0 047#2000000000000000
(1486053611.528272) vcan0 165#10C3460000000000
(1486053611.528321) vcan0 186#140301DB00560400
(1486053611.529287) vcan0 04A#0200000000000000
(1486053611.529322) vcan0 04B#00C0D8D8D8D8C000
(1486053611.529344) vcan0 04C#105FFFC000000000
(1486053611.530300) vcan0 18A#0020180D14000000
(1486053611.531298) vcan0 230#400600009C000000
(1486053611.531330) vcan0 3E5#0000000080000000
(1486053611.532275) vcan0 422#0000009A3802FE02
(1486053611.532313) vcan0 076#3E80C0800FFF0000
(1486053611.533313) vcan0 213#FFFF00040001FB40
(1486053611.533358) vcan0 216#A79FC5A300000000
(1486053611.533406) vcan0 217#0E100E140E0C0E04
(1486053611.534313) vcan0 3CC#3000000000000000
(1486053611.534357) vcan0 41D#8000600000000000
(1486053611.534382) vcan0 423#86A0000000000000
(1486053611.535323) vcan0 431#057B00CB09800002
(1486053611.535354) vcan0 455#A000000000000000
(1486053611.535378) vcan0 3A8#0100271000000000
(1486053611.538309) vcan0 261#0000000000000000
(1486053611.541265) vcan0 217#0E040E100E0C0E08
(1486053611.545386) vcan0 3CA#FE8CB7DC00000000
(1486053611.547271) vcan0 047#2000000000000000
(1486053611.548273) vcan0 165#10C3460000000000
(1486053611.548323) vcan0 186#140001DB00560400
(1486053611.550423) vcan0 230#400600009C000000
(1486053611.552403) vcan0 076#3E82C0800FFF0000
(1486053611.553397) vcan0 213#FFFF00040001FC40
(1486053611.553468) vcan0 216#B5ADD4B200000000
(1486053611.553507) vcan0 217#0E040E0C0E0C0E0C
(1486053611.554316) vcan0 3A7#0E401A045F700000
(1486053611.554372) vcan0 41D#8000600000000000
(1486053611.555302) vcan0 42C#8C20000008C00000
(1486053611.555346) vcan0 3A8#0100271000000000
(1486053611.560389) vcan0 454#3646200372204242
(1486053611.561390) vcan0 217#0E080E080E000E0C
(1486053611.563387) vcan0 3CC#3000000000000000
(1486053611.567262) vcan0 047#2000000000000000
(1486053611.568271) vcan0 186#13FE01DB00560400
(1486053611.568341) vcan0 165#10C3460000000000
(1486053611.570212) vcan0 230#400600009C000000
(1486053611.572396) vcan0 076#3E80C0800FFF0000
(1486053611.573398) vcan0 213#FFFF00040001FC40
(1486053611.573448) vcan0 216#C4BCE2C000000000
(1486053611.573496) vcan0 217#0E080E0C0E040E08
(1486053611.574424) vcan0 41D#8000600000000000
(1486053611.575308) vcan0 3A8#0100271100000000
(1486053611.576388) vcan0 3CA#FE8CB7DC00000000
(1486053611.581268) vcan0 217#0E080E080DFC0DFC
(1486053611.584261) vcan0 33B#0000000000000000
(1486053611.587269) vcan0 186#13FD01DB00560400
(1486053611.588270) vcan0 047#2000000000000000
(1486053611.588320) vcan0 165#10C3460000000000
(1486053611.589307) vcan0 178#000002000E7ECA7D
(1486053611.590310) vcan0 230#400600009C000000
(1486053611.591261) vcan0 261#0000000000000000
(1486053611.592287) vcan0 076#3E80C0800FFF0000
(1486053611.593197) vcan0 213#FFFF00040001FA40
(1486053611.593261) vcan0 216#D2CAF0CE00000000
(1486053611.594305) vcan0 217#0E040E040DF40DF4
(1486053611.594355) vcan0 3CC#3000000000000000
(1486053611.594394) vcan0 41D#8000600000000000
(1486053611.595305) vcan0 3A8#0100271000000000
(1486053611.601514) vcan0 217#0DFC0DFC0DF40DEC
(1486053611.602523) vcan0 42C#8C20000008C00000
(1486053611.604389) vcan0 083#0020000000000000
(1486053611.605390) vcan0 2A1#FFFFFFFF00000000
(1486053611.606395) vcan0 3CA#FE8CB7DC00000000
(1486053611.607393) vcan0 186#13F301DB00560400
(1486053611.607452) vcan0 047#2000000000000000
(1486053611.608396) vcan0 165#10C3460000000000
(1486053611.610342) vcan0 230#400600009C000000
(1486053611.611423) vcan0 076#3E82C0800FFF0000
(1486053611.612558) vcan0 213#FFFF00040001F840
(1486053611.613666) vcan0 216#E0D8FEDD00000000
(1486053611.613721) vcan0 217#0DFC0E040DF40DF4
(1486053611.614644) vcan0 41D#8000600000000000
(1486053611.615548) vcan0 3A8#0100271000000000
(1486053611.621264) vcan0 217#0DF00E0C0DF40DFC
(1486053611.623187) vcan0 3CC#3000000000000000
(1486053611.626850) vcan0 186#13F301DB00560400
(1486053611.627908) vcan0 18A#0020180D14000000
(1486053611.627942) vcan0 047#2000000000000000
(1486053611.629039) vcan0 165#10C3460000000000
(1486053611.629082) vcan0 04A#0200000000000000
(1486053611.629106) vcan0 04B#00C0D8D8D8D8C000
(1486053611.629997) vcan0 04C#105FFFC000000000
(1486053611.631025) vcan0 422#0000009A3802FE02
(1486053611.631084) vcan0 230#400600009C000000
(1486053611.632019) vcan0 423#86A0000000000000
(1486053611.632069) vcan0 076#3E80C0800FFF0000
(1486053611.633048) vcan0 213#FFFF00040001F840
(1486053611.634007) vcan0 216#EFE70EEB00000000
(1486053611.634064) vcan0 217#0DF80E080E080E14
(1486053611.634125) vcan0 41D#8000600000000000
(1486053611.634926) vcan0 455#A000000000000000
(1486053611.635924) vcan0 3A8#0100271100000000
(1486053611.636011) vcan0 3CA#FE9057F200000000
(1486053611.638199) vcan0 261#0000000000000000
(1486053611.641517) vcan0 217#0DFC0E040E100E20
(1486053611.643511) vcan0 3A6#0E401A045F700000
(1486053611.644514) vcan0 33B#0000000000000000
(1486053611.647025) vcan0 186#13EC01DB00560400
(1486053611.648034) vcan0 047#2000000000000000
(1486053611.648067) vcan0 165#10C3460000000000
(1486053611.650048) vcan0 230#400600009C000000
(1486053611.651138) vcan0 42C#8C20000008C00000
(1486053611.652153) vcan0 076#3E82C0800FFF0000
(1486053611.653291) vcan0 213#FFFF00040001FA40
(1486053611.653358) vcan0 216#FDF51DF900000000
(1486053611.654178) vcan0 217#0DFC0E080E140E24
(1486053611.654219) vcan0 3CC#3000000000000000
(1486053611.654255) vcan0 41D#8000600000000000
(1486053611.655187) vcan0 3A8#0100271000000000
(1486053611.661178) vcan0 217#0DFC0E040E080E1C
(1486053611.662417) vcan0 596#9600FFFFFFFFFFFF
(1486053611.665385) vcan0 3CA#FE9057F200000000
(1486053611.666659) vcan0 186#13EB01DB00560400
(1486053611.667581) vcan0 047#2000000000000000
(1486053611.668670) vcan0 165#10C3460000000000
(1486053611.670660) vcan0 230#400600009C000000
(1486053611.671823) vcan0 076#3E80C0800FFF0000
(1486053611.673795) vcan0 213#FFFF00040001FD40
(1486053611.673953) vcan0 216#0B032B0800000000
(1486053611.674012) vcan0 217#0E000DFC0E000E10
(1486053611.674755) vcan0 41D#8000600000000000
(1486053611.674802) vcan0 41E#0000000000000000
(1486053611.675682) vcan0 3A8#0100271100000000
(1486053611.681417) vcan0 217#0DFC0E040DF00E00
(1486053611.683315) vcan0 3CC#3000000000000000
(1486053611.686404) vcan0 186#13EA01DB00560400
(1486053611.687432) vcan0 047#2000000000000000
(1486053611.688531) vcan0 165#10C3460000000000
(1486053611.688656) vcan0 178#000001FF0E7ECA7D
(1486053611.690451) vcan0 230#400600009C000000
(1486053611.690479) vcan0 261#0000000000000000
(1486053611.691389) vcan0 076#3E80C0800FFF0000
(1486053611.692452) vcan0 213#FFFF00040001FC40
(1486053611.693532) vcan0 216#1A12391600000000
(1486053611.693562) vcan0 217#0DF80E040DF00DF0
(1486053611.694539) vcan0 41D#8000600000000000
(1486053611.695555) vcan0 3A8#0100271000000000
(1486053611.695638) vcan0 3CA#FE9057F200000000
(1486053611.700670) vcan0 42C#8C20000008C00000
(1486053611.701785) vcan0 217#0DF40E040DF00DE8
(1486053611.704384) vcan0 083#0020000000000000
(1486053611.705388) vcan0 2A1#FFFFFFFF00000000
(1486053611.705428) vcan0 33B#0000000000000000
(1486053611.706287) vcan0 186#13DD01DB00560400
(1486053611.707295) vcan0 047#2000000000000000
(1486053611.708275) vcan0 165#10C3460000000000
(1486053611.710268) vcan0 230#400600009C000000
(1486053611.712443) vcan0 076#3E82C0800FFF0000
(1486053611.713436) vcan0 213#FFFF00040001FC40
(1486053611.713491) vcan0 216#2820472400000000
(1486053611.713530) vcan0 217#0DF00DFC0DF00DEC
(1486053611.713566) vcan0 3CC#3000000000000000
(1486053611.714419) vcan0 41D#8000600000000000
(1486053611.715398) vcan0 3A8#0100271000000000
(1486053611.721281) vcan0 217#0DF80DF80DFC0DF8
(1486053611.725385) vcan0 3CA#FE9057F200000000
(1486053611.726311) vcan0 186#13DD01DB00560400
(1486053611.727276) vcan0 18A#0020180D14000000
(1486053611.727313) vcan0 047#2000000000000000
(1486053611.728281) vcan0 165#10C3460000000000
(1486053611.728339) vcan0 422#0000009A3802FE02
(1486053611.729429) vcan0 04A#0200000000000000
(1486053611.729481) vcan0 04B#00C0D8D8D8D8C000
(1486053611.729517) vcan0 04C#105FFFC000000000
(1486053611.730465) vcan0 423#86A0000000000000
(1486053611.731410) vcan0 230#400600009C000000
(1486053611.731488) vcan0 455#A000000000000000
(1486053611.732448) vcan0 076#3E80C0800FFF0000
(1486053611.733416) vcan0 213#FFFF00040001FA40
(1486053611.733468) vcan0 216#362E563300000000
(1486053611.733505) vcan0 217#0DF40E000DFC0DFC
(1486053611.734421) vcan0 41D#8000600000000000
(1486053611.735399) vcan0 3A8#0100271100000000
(1486053611.738252) vcan0 261#0000000000000000
(1486053611.741279) vcan0 217#0DFC0DFC0E000E04
(1486053611.743385) vcan0 3CC#3000000000000000
(1486053611.746281) vcan0 186#13D501DB00560400
(1486053611.748313) vcan0 047#2000000000000000
(1486053611.748368) vcan0 165#10C3460000000000
(1486053611.749305) vcan0 230#400600009C000000
(1486053611.752289) vcan0 076#3E80C0800FFF0000
(1486053611.753410) vcan0 213#FFFF00040001FA40
(1486053611.753471) vcan0 216#453D644100000000
(1486053611.754396) vcan0 217#0DFC0E040DF40DFC
(1486053611.754466) vcan0 41D#8000600000000000
(1486053611.754503) vcan0 42C#8C20000008C00000
(1486053611.755389) vcan0 3A8#0100271000000000
(1486053611.756307) vcan0 3CA#FE91B7F600000000
(1486053611.761514) vcan0 217#0E040E000DE40DF4
(1486053611.763521) vcan0 3A7#0E401A045F700000
(1486053611.764508) vcan0 33B#0000000000000000
(1486053611.765761) vcan0 186#13D501DB00560400
(1486053611.767765) vcan0 047#2000000000000000
(1486053611.767831) vcan0 165#10C3460000000000
(1486053611.769953) vcan0 230#400600009C000000
(1486053611.771890) vcan0 076#3E80C0800FFF0000
(1486053611.772921) vcan0 213#FFFF00040001F940
(1486053611.773911) vcan0 216#534B724F00000000
(1486053611.773970) vcan0 217#0DFC0DFC0DE80DF4
(1486053611.774011) vcan0 3CC#3000000000000000
(1486053611.774907) vcan0 41D#8000600000000000
(1486053611.776010) vcan0 3A8#0100271000000000
(1486053611.781262) vcan0 217#0DF80DF40DE80DF0
(1486053611.785391) vcan0 3CA#FE91B7F600000000
(1486053611.786390) vcan0 186#13DF01DB00560400
(1486053611.787509) vcan0 047#2000000000000000
(1486053611.788540) vcan0 165#10C3460000000000
(1486053611.789516) vcan0 178#000001FE0E7ECA7D
(1486053611.790437) vcan0 230#400600009C000000
(1486053611.791376) vcan0 261#0000000000000000
(1486053611.792421) vcan0 076#3E80C0800FFF0000
(1486053611.793435) vcan0 213#FFFF00040001F940
(1486053611.793495) vcan0 216#6159815E00000000
(1486053611.793547) vcan0 217#0DF40E000DE80DEC
(1486053611.794426) vcan0 41D#8000600000000000
(1486053611.795410) vcan0 3A8#0100271000000000
(1486053611.795481) vcan0 3CD#0000000000000000
(1486053611.796499) vcan0 3D8#0000000080456030
(1486053611.800669) vcan0 42C#8C20000008C00000
(1486053611.801944) vcan0 217#0DE00DE80DE80DF0
(1486053611.802942) vcan0 3CC#3000000000000000
(1486053611.804306) vcan0 083#0020000000000000
(1486053611.805384) vcan0 2A1#FFFFFFFF00000000
(1486053611.806313) vcan0 186#13E301DB00560400
(1486053611.807294) vcan0 047#2000000000000000
(1486053611.808440) vcan0 165#10C3460000000000
(1486053611.809460) vcan0 230#400600009C000000
(1486053611.811420) vcan0 076#3E80C0800FFF0000
(1486053611.812714) vcan0 213#FFFF00040001F840
(1486053611.813691) vcan0 216#70678F6C00000000
(1486053611.813748) vcan0 217#0DE00DF80DE40DEC
(1486053611.814561) vcan0 41D#8000600000000000
(1486053611.815522) vcan0 3A8#0100271000000000
(1486053611.815597) vcan0 3CA#FE91B7F600000000
(1486053611.821308) vcan0 217#0DD80DE40DE80DE8
(1486053611.824384) vcan0 33B#0000000000000000
(1486053611.825383) vcan0 186#13E301DB00560400
(1486053611.826531) vcan0 18A#0020180D14000000
(1486053611.827509) vcan0 047#2000000000000000
(1486053611.828536) vcan0 165#10C3460000000000
(1486053611.829536) vcan0 422#0000009A3802FE02
(1486053611.829614) vcan0 04A#0200000000000000
(1486053611.829651) vcan0 04B#00C0D8D8D8D8C000
(1486053611.830413) vcan0 04C#105FFFC000000000
(1486053611.830469) vcan0 230#400600009C000000
(1486053611.831408) vcan0 423#86A0000000000000
(1486053611.831453) vcan0 455#A000000000000000
(1486053611.832385) vcan0 076#3E82C0800FFF0000
(1486053611.833402) vcan0 213#FFFF00040001F740
(1486053611.833450) vcan0 216#7E769D7A00000000
(1486053611.833484) vcan0 217#0DDC0DF00DEC0DE8
(1486053611.834382) vcan0 3CC#3000000000000000
(1486053611.834427) vcan0 41D#8000600000000000
(1486053611.835376) vcan0 3A8#0100271000000000
(1486053611.838447) vcan0 261#0000000000000000
(1486053611.841263) vcan0 217#0DE80DF40DEC0DE4
(1486053611.843386) vcan0 3A6#0E401A045F700000
(1486053611.845059) vcan0 186#13DE01DB00560400
(1486053611.846062) vcan0 3CA#FE9077F400000000
(1486053611.847266) vcan0 047#2000000000000000
(1486053611.848266) vcan0 165#10C3460000000000
(1486053611.849201) vcan0 230#400600009C000000
(1486053611.851512) vcan0 076#3E83C0800FFF0000
(1486053611.852552) vcan0 213#FFFF00040001F740
(1486053611.853660) vcan0 216#8C84AC8900000000
(1486053611.853714) vcan0 217#0DEC0DF40DEC0DDC
(1486053611.854640) vcan0 41D#8000600000000000
(1486053611.854693) vcan0 42C#8C20000008C00000
(1486053611.855548) vcan0 3A8#0100271100000000
(1486053611.861261) vcan0 217#0DF00DF00DE40DD8
(1486053611.863388) vcan0 3CC#3000000000000000
(1486053611.865388) vcan0 186#13DC01DB00560400
(1486053611.867262) vcan0 047#2000000000000000
(1486053611.868296) vcan0 165#10C3460000000000
(1486053611.870406) vcan0 230#400600009C000000
(1486053611.872397) vcan0 076#3E84C0800FFF0000
(1486053611.873392) vcan0 213#FFFF00040001F740
(1486053611.873457) vcan0 216#9B92BA9700000000
(1486053611.873499) vcan0 217#0DE40DEC0DE40DD8
(1486053611.874419) vcan0 41D#8000600000000000
(1486053611.875385) vcan0 3A8#0100271300000000
(1486053611.876384) vcan0 3CA#FE9077F400000000
(1486053611.881403) vcan0 217#0DE40DE00DEC0DE0
(1486053611.884508) vcan0 33B#0000000000000000
(1486053611.885535) vcan0 186#13D701DB00560400
(1486053611.887258) vcan0 047#2000000000000000
(1486053611.888302) vcan0 165#10C3460000000000
(1486053611.889294) vcan0 178#000001FC0E7ECA7D
(1486053611.890219) vcan0 230#400600009C000000
(1486053611.891146) vcan0 261#0000000000000000
(1486053611.892276) vcan0 076#3E83C0800FFF0000
(1486053611.893291) vcan0 213#FFFF00040001F740
(1486053611.893334) vcan0 216#A9A1C8A500000000
(1486053611.893365) vcan0 217#0DE40DDC0DE80DE4
(1486053611.894276) vcan0 3CC#3000000000000000
(1486053611.894315) vcan0 41D#8000600000000000
(1486053611.895270) vcan0 3A8#0100271300000000
(1486053611.900634) vcan0 42C#8C20000008C00000
(1486053611.901785) vcan0 217#0DDC0DE00DEC0DE4
(1486053611.904383) vcan0 5B3#B300FFFFFFFFFFFF
(1486053611.905408) vcan0 081#0000000000000000
(1486053611.905453) vcan0 083#0020000000000000
(1486053611.905477) vcan0 186#13D101DB00560400
(1486053611.906388) vcan0 2A1#FFFFFFFF00000000
(1486053611.906428) vcan0 3CA#FE9077F400000000
(1486053611.906453) vcan0 3E6#0001040880000000
(1486053611.907295) vcan0 047#2000000000000000
(1486053611.908475) vcan0 165#10C3460000000000
(1486053611.909454) vcan0 230#400600009C000000
(1486053611.912535) vcan0 076#3E83C0800FFF0000
(1486053611.912614) vcan0 213#FFFF00040001F740
(1486053611.913567) vcan0 216#B7AFD7B300000000
(1486053611.913612) vcan0 217#0DDC0DE00DF00DE8
(1486053611.914531) vcan0 41D#8000600000000000
(1486053611.915507) vcan0 3A8#0100271300000000
(1486053611.921273) vcan0 217#0DDC0DEC0DEC0DEC
(1486053611.923383) vcan0 3CC#3000000000000000
(1486053611.924508) vcan0 186#13D101DB00560400
(1486053611.925437) vcan0 18A#0020180D14000000
(1486053611.927315) vcan0 047#2000000000000000
(1486053611.928341) vcan0 165#10C3460000000000
(1486053611.928444) vcan0 422#0000009A3802FE02
(1486053611.929284) vcan0 04A#0200000000000000
(1486053611.930224) vcan0 04B#00C0D8D8D8D8C000
(1486053611.930275) vcan0 04C#105FFFC000000000
(1486053611.931469) vcan0 230#400600009C000000
(1486053611.931539) vcan0 423#86A0000000000000
(1486053611.931597) vcan0 455#A000000000000000
(1486053611.932362) vcan0 076#3E85C0800FFF0000
(1486053611.933357) vcan0 213#FFFF00040001F740
(1486053611.933426) vcan0 216#C6BDE5C200000000
(1486053611.933471) vcan0 217#0DD40DF00DE80DE0
(1486053611.934500) vcan0 41D#8000600000000000
(1486053611.935443) vcan0 3A8#0100271300000000
(1486053611.936436) vcan0 3CA#FE9077F400000000
(1486053611.938346) vcan0 261#0000000000000000
(1486053611.941338) vcan0 217#0DE40DEC0DE00DDC
(1486053611.944464) vcan0 186#13C901DB00560400
(1486053611.945464) vcan0 33B#0000000000000000
(1486053611.947321) vcan0 047#2000000000000000
(1486053611.948348) vcan0 165#10C3460000000000
(1486053611.949273) vcan0 230#400600009C000000
(1486053611.950377) vcan0 188#4000000000000000
(1486053611.952469) vcan0 3B3#4048020F10050002
(1486053611.952567) vcan0 076#3E85C0800FFF0000
(1486053611.953512) vcan0 213#FFFF00040001F640
(1486053611.953619) vcan0 216#D4CCF3D000000000
(1486053611.953675) vcan0 217#0DD80DE40DD80DDC
(1486053611.954317) vcan0 3CC#3000000000000000
(1486053611.954402) vcan0 41D#8000600000000000
(1486053611.955308) vcan0 42C#8C20000008C00000
(1486053611.955376) vcan0 3A8#0100271400000000
(1486053611.958394) vcan0 3A7#0E401A045F700000
(1486053611.961468) vcan0 217#0DDC0DE00DD00DE0
(1486053611.964467) vcan0 186#13C501DB00560400
(1486053611.965615) vcan0 3CA#FE9047F600000000
(1486053611.967217) vcan0 047#2000000000000000
(1486053611.968260) vcan0 165#10C3460000000000
(1486053611.970376) vcan0 230#400600009C000000
(1486053611.972484) vcan0 076#3E84C0800FFF0000
(1486053611.973474) vcan0 213#FFFF00040001F640
(1486053611.973602) vcan0 216#E2DA00DE00000000
(1486053611.973668) vcan0 217#0DDC0DDC0DC80DDC
(1486053611.974399) vcan0 41D#8000600000000000
(1486053611.975300) vcan0 3A8#0100271400000000
(1486053611.981335) vcan0 217#0DD80DDC0DC40DC8
(1486053611.983311) vcan0 3CC#3000000000000000
(1486053611.984464) vcan0 186#13C101DB00560400
(1486053611.987255) vcan0 047#2000000000000000
(1486053611.988318) vcan0 165#10C3460000000000
(1486053611.989353) vcan0 178#000001FE0E7ECA7D
(1486053611.990548) vcan0 230#400600009C000000
(1486053611.991431) vcan0 261#0000000000000000
(1486053611.992503) vcan0 076#3E82C0800FFF0000
(1486053611.993522) vcan0 213#FFFF00040001F540
(1486053611.993625) vcan0 216#F0E80FED00000000
(1486053611.993682) vcan0 217#0DDC0DDC0DC40DCC
(1486053611.994331) vcan0 41D#8000600000000000
(1486053611.995302) vcan0 3A8#0100271300000000
(1486053611.995410) vcan0 3CA#FE9047F600000000
(1486053612.000937) vcan0 265#2001010410000000
(1486053612.001980) vcan0 453#3257364570646166
(1486053612.002065) vcan0 42C#8C20000008C00000
(1486053612.002121) vcan0 217#0DD40DD80DC80DCC
(1486053612.003850) vcan0 186#13BF01DB00560400
(1486053612.004860) vcan0 083#0020000000000000
(1486053612.004925) vcan0 2A1#FFFFFFFF00000000
(1486053612.005791) vcan0 33B#0000000000000000
(1486053612.008517) vcan0 047#2000000000000000
(1486053612.008607) vcan0 165#10C3460000000000
(1486053612.010495) vcan0 230#400600009C000000
(1486053612.011636) vcan0 076#3E80C0800FFF0000
(1486053612.012712) vcan0 213#FFFF00040001F440
(1486053612.013671) vcan0 216#FFF51DFB00000000
(1486053612.013759) vcan0 217#0DD00DD80DCC0DD8
(1486053612.013881) vcan0 3CC#3000000000000000
(1486053612.014612) vcan0 41D#8000600000000000
(1486053612.015569) vcan0 3A8#0100271100000000
(1486053612.021269) vcan0 217#0DD00DDC0DD00DD8
(1486053612.024091) vcan0 186#13BF01DB00560400
(1486053612.025089) vcan0 18A#0020180D14000000
(1486053612.026093) vcan0 3CA#FE9047F600000000
(1486053612.027462) vcan0 047#2000000000000000
(1486053612.028537) vcan0 165#10C3460000000000
(1486053612.028668) vcan0 422#0000009A3802FE02
(1486053612.029382) vcan0 423#86A0000000000000
(1486053612.029480) vcan0 04A#0200000000000000
(1486053612.029544) vcan0 04B#00C0D8D8D8D8C000
(1486053612.030331) vcan0 04C#105FFFC000000000
(1486053612.031336) vcan0 230#400600009C000000
(1486053612.032339) vcan0 076#3E80C0800FFF0000
(1486053612.033635) vcan0 213#FFFF00040001F340
(1486053612.033790) vcan0 216#0D042B0900000000
(1486053612.033914) vcan0 217#0DD00DDC0DD80DE0
(1486053612.034629) vcan0 41D#8000600000000000
(1486053612.034707) vcan0 455#A000000000000000
(1486053612.035430) vcan0 3A8#0100271000000000
(1486053612.038259) vcan0 261#0000000000000000
(1486053612.041171) vcan0 217#0DD00DD80DDC0DD8
(1486053612.043444) vcan0 3CC#3000000000000000
(1486053612.043529) vcan0 3A6#0E401A045F700000
(1486053612.044312) vcan0 186#13BE01DB00560400
(1486053612.047298) vcan0 047#2000000000000000
(1486053612.048216) vcan0 165#10C3460000000000
(1486053612.049281) vcan0 230#400600009C000000
(1486053612.051523) vcan0 42C#8C20000008C00000
(1486053612.052348) vcan0 076#3E7EC0800FFF0000
(1486053612.053296) vcan0 213#FFFF00040001F540
(1486053612.053415) vcan0 216#1B12391800000000
(1486053612.053495) vcan0 217#0DC80DD80DF00DEC
(1486053612.054328) vcan0 41D#8000600000000000
(1486053612.055303) vcan0 3A8#0100271000000000
(1486053612.056288) vcan0 3CA#FE91D80600000000
(1486053612.061474) vcan0 217#0DC40DD40DE40DE0
(1486053612.063551) vcan0 186#13BA01DB00560400
(1486053612.064476) vcan0 33B#0000000000000000
(1486053612.067378) vcan0 047#2000000000000000
(1486053612.068424) vcan0 165#10C3460000000000
(1486053612.070285) vcan0 230#400600009C000000
(1486053612.072404) vcan0 076#3E80C0800FFF0000
(1486053612.073268) vcan0 213#FFFF00040001F640
(1486053612.073309) vcan0 216#2A20482600000000
(1486053612.073337) vcan0 217#0DD00DD40DDC0DE0
(1486053612.074266) vcan0 3CC#3000000000000000
(1486053612.074311) vcan0 41D#8000600000000000
(1486053612.075272) vcan0 3A8#0100270F00000000
(1486053612.080291) vcan0 350#0000000000000000
(1486053612.080324) vcan0 3E0#0000000080000000
(1486053612.081358) vcan0 217#0DD80DD00DC80DD0
(1486053612.083354) vcan0 186#13B801DB00560400
(1486053612.085498) vcan0 3CA#FE91D80600000000
(1486053612.087149) vcan0 047#2000000000000000
(1486053612.088290) vcan0 165#10C3460000000000
(1486053612.089279) vcan0 178#000001FF0E7ECA7D
(1486053612.090339) vcan0 230#400600009C000000
(1486053612.091271) vcan0 261#0000000000000000
(1486053612.092295) vcan0 076#3E7EC0800FFF0000
(1486053612.093288) vcan0 213#FFFF00040001F640
(1486053612.093326) vcan0 216#382E563300000000
(1486053612.093374) vcan0 217#0DDC0DD80DB40DC8
(1486053612.094317) vcan0 41D#8000600000000000
(1486053612.095292) vcan0 3A8#0100271000000000
(1486053612.101135) vcan0 42C#8C20000008C00000
(1486053612.102191) vcan0 217#0DD00DDC0DB00DC4
(1486053612.103175) vcan0 3CC#3000000000000000
(1486053612.103222) vcan0 186#13B001DB00560400
(1486053612.105258) vcan0 083#0020000000000000
(1486053612.105314) vcan0 2A1#FFFFFFFF00000000
(1486053612.107335) vcan0 047#2000000000000000
(1486053612.108307) vcan0 165#10C3460000000000
(1486053612.109312) vcan0 230#400600009C000000
(1486053612.112263) vcan0 076#3E80C0800FFF0000
(1486053612.113372) vcan0 213#FFFF00040001F540
(1486053612.113438) vcan0 216#453D644100000000
(1486053612.113477) vcan0 217#0DBC0DD40DB00DCC
(1486053612.114282) vcan0 41D#8000600000000000
(1486053612.115427) vcan0 3A8#0100270F00000000
(1486053612.115511) vcan0 3CA#FE91D80600000000
(1486053612.121513) vcan0 217#0DBC0DD00DBC0DCC
(1486053612.123510) vcan0 186#13B001DB00560400
(1486053612.123577) vcan0 18A#0020180D14000000
(1486053612.124421) vcan0 33B#0000000000000000
(1486053612.127379) vcan0 047#2000000000000000
(1486053612.128265) vcan0 165#10C3460000000000
(1486053612.128340) vcan0 422#0000009A3802FE02
(1486053612.129406) vcan0 04A#0200000000000000
(1486053612.129455) vcan0 04B#00C0D8D8D8D8C000
(1486053612.129491) vcan0 04C#105FFFC000000000
(1486053612.131384) vcan0 230#400600009C000000
(1486053612.131439) vcan0 423#86A0000000000000
(1486053612.131488) vcan0 455#A000000000000000
(1486053612.132392) vcan0 456#8000000000000000
(1486053612.132446) vcan0 076#3E7EC0800FFF0000
(1486053612.133322) vcan0 213#FFFF00040001F540
(1486053612.133377) vcan0 216#534B735000000000
(1486053612.133416) vcan0 217#0DC00DCC0DC80DCC
(1486053612.134391) vcan0 3CC#3000000000000000
(1486053612.134455) vcan0 41D#8000600000000000
(1486053612.135383) vcan0 3A8#0100271000000000
(1486053612.138288) vcan0 261#0000000000000000
(1486053612.141260) vcan0 217#0DC00DD40DC40DCC
(1486053612.143265) vcan0 186#13A701DB00560400
(1486053612.145269) vcan0 3CA#FE91D80600000000
(1486053612.147299) vcan0 047#2000000000000000
(1486053612.148402) vcan0 165#10C3460000000000
(1486053612.149418) vcan0 230#400600009C000000
(1486053612.152411) vcan0 076#3E80C0800FFF0000
(1486053612.153391) vcan0 213#FFFF00040001F540
(1486053612.153456) vcan0 216#6259815E00000000
(1486053612.153498) vcan0 217#0DC00DCC0DCC0DB8
(1486053612.154412) vcan0 41D#8000600000000000
(1486053612.154460) vcan0 42C#8C20000008C00000
(1486053612.155294) vcan0 3A8#0100270F00000000
(1486053612.157040) vcan0 3A7#0E401A045F700000
(1486053612.161299) vcan0 217#0DC00DCC0DC40DB0
(1486053612.163455) vcan0 3CC#3000000000000000
(1486053612.163512) vcan0 186#13A801DB00560400
(1486053612.167383) vcan0 047#2000000000000000
(1486053612.168311) vcan0 165#10C3460000000000
(1486053612.170403) vcan0 230#400600009C000000
(1486053612.172400) vcan0 076#3E80C0800FFF0000
(1486053612.173392) vcan0 213#FFFF00040001F540
(1486053612.173457) vcan0 216#70688E6C00000000
(1486053612.173500) vcan0 217#0DB80DC40DB80DA8
(1486053612.174418) vcan0 41D#8000600000000000
(1486053612.175383) vcan0 3A8#0100271000000000
(1486053612.176383) vcan0 3CA#FE93080400000000
(1486053612.181386) vcan0 217#0DBC0DC00DB80DB0
(1486053612.183364) vcan0 186#13AC01DB00560400
(1486053612.184633) vcan0 33B#0000000000000000
(1486053612.187383) vcan0 047#2000000000000000
(1486053612.188399) vcan0 165#10C3460000000000
(1486053612.189386) vcan0 178#000001FC0E7ECA7D
(1486053612.190428) vcan0 230#400600009C000000
(1486053612.191381) vcan0 261#0000000000000000
(1486053612.192387) vcan0 076#3E80C0800FFF0000
(1486053612.193401) vcan0 213#FFFF00040001F440
(1486053612.193471) vcan0 216#7E759C7A00000000
(1486053612.193510) vcan0 217#0DB80DC00DAC0DB0
(1486053612.194388) vcan0 3CC#3000000000000000
(1486053612.194454) vcan0 41D#8000600000000000
(1486053612.195379) vcan0 3A8#0100271000000000
(1486053612.200757) vcan0 42C#8C20000008C00000
(1486053612.201763) vcan0 217#0DC40DC40DB40DB8
(1486053612.202796) vcan0 186#13AB01DB00560400
(1486053612.204629) vcan0 083#0020000000000000
(1486053612.205640) vcan0 2A1#FFFFFFFF00000000
(1486053612.205696) vcan0 3CA#FE93080400000000
(1486053612.207345) vcan0 047#2000000000000000
(1486053612.208299) vcan0 165#10C3460000000000
(1486053612.211707) vcan0 230#400600009C000000
(1486053612.211902) vcan0 076#3E80C0800FFF0000
(1486053612.212805) vcan0 213#FFFF00040001F340
(1486053612.213700) vcan0 216#8D83AB8900000000
(1486053612.213853) vcan0 217#0DC40DCC0DB40DB8
(1486053612.214520) vcan0 41D#8000600000000000
(1486053612.215502) vcan0 3A8#0100271000000000
(1486053612.221282) vcan0 217#0DB40DC80DB80DB8
(1486053612.223278) vcan0 186#13AB01DB00560400
(1486053612.223318) vcan0 18A#0020180D14000000
(1486053612.223338) vcan0 3CC#3000000000000000
(1486053612.227177) vcan0 047#2000000000000000
(1486053612.228155) vcan0 165#50C3460000000000
(1486053612.228188) vcan0 422#0000009A3802FE02
(1486053612.228230) vcan0 423#86A0000000000000
(1486053612.229262) vcan0 04A#0200000000000000
(1486053612.229287) vcan0 04B#00C0D8D8D8D8C000
(1486053612.229310) vcan0 04C#105FFFC000000000
(1486053612.231398) vcan0 230#400600009C000000
(1486053612.231441) vcan0 455#A000000000000000
(1486053612.232304) vcan0 076#3E80C0800FFF0000
(1486053612.233263) vcan0 213#FFFF00040001F240
(1486053612.233310) vcan0 216#9B91B99600000000
(1486053612.233338) vcan0 217#0DC80DBC0DBC0DB8
(1486053612.234326) vcan0 41D#8000600000000000
(1486053612.235267) vcan0 3A8#0100271000000000
(1486053612.235339) vcan0 3CA#FE93080400000000
(1486053612.238190) vcan0 261#0000000000000000
(1486053612.241302) vcan0 217#0DA80DBC0DB80DB4
(1486053612.243272) vcan0 186#13AB01DC00560400
(1486053612.243324) vcan0 3A6#0E401A045F700000
(1486053612.244533) vcan0 33B#0000000000000000
(1486053612.247163) vcan0 047#2000000000000000
(1486053612.248315) vcan0 165#50C3460000000000
(1486053612.250386) vcan0 230#400600009C000000
(1486053612.251380) vcan0 42C#8C20000008C00000
(1486053612.252390) vcan0 076#3E80C0800FFF0000
(1486053612.253306) vcan0 213#FFFF00040001F240
(1486053612.253350) vcan0 216#A9A0C7A400000000
(1486053612.253382) vcan0 217#0DB40DAC0DB40DB0
(1486053612.254386) vcan0 3CC#3000000000000000
(1486053612.254436) vcan0 41D#8000600000000000
(1486053612.255322) vcan0 3A8#0100271000000000
(1486053612.261383) vcan0 217#0DB00DB40DB80DB4
(1486053612.263397) vcan0 186#13AA01DC00560400
(1486053612.264401) vcan0 168#0000000000000000
(1486053612.265380) vcan0 3CA#FE93080400000000
(1486053612.267264) vcan0 047#2000000000000000
(1486053612.268413) vcan0 165#50C3460000000000
(1486053612.270403) vcan0 230#400600009C000000
(1486053612.272314) vcan0 076#3E80C0800FFF0000
(1486053612.273303) vcan0 213#FFFF00040001F340
(1486053612.273355) vcan0 216#B6AED6B200000000
(1486053612.273384) vcan0 217#0DB80DAC0DB40DB0
(1486053612.274326) vcan0 41D#8000600000000000
(1486053612.275294) vcan0 3A8#0100271000000000
(1486053612.281384) vcan0 217#0DB80DB80DB00DB0
(1486053612.283230) vcan0 186#13AA01DC00560400
(1486053612.283268) vcan0 3CC#3000000000000000
(1486053612.288272) vcan0 047#2000000000000000
(1486053612.288305) vcan0 165#50C3460000000000
(1486053612.289291) vcan0 178#000001FC0E7ECA7D
(1486053612.290424) vcan0 230#400600009C000000
(1486053612.291378) vcan0 261#0000000000000000
(1486053612.292351) vcan0 076#3E7EC0800FFF0000
(1486053612.293293) vcan0 213#FFFF00040001F340
(1486053612.293335) vcan0 216#C4BCE2C100000000
(1486053612.293363) vcan0 217#0DB40DBC0DB00DB4
(1486053612.294316) vcan0 41D#8000600000000000
(1486053612.295294) vcan0 3A8#0100271000000000
(1486053612.295365) vcan0 3CA#FE9037FE00000000
(1486053612.300761) vcan0 42C#8C20000008C00000
(1486053612.301760) vcan0 217#0DA80DB40DB00DB8
(1486053612.301835) vcan0 186#13A401DC00560400
(1486053612.304538) vcan0 083#0020000000000000
(1486053612.305638) vcan0 2A1#FFFFFFFF00000000
(1486053612.305677) vcan0 33B#0000000000000000
(1486053612.308222) vcan0 047#2000000000000000
(1486053612.308281) vcan0 165#50C3460000000000
(1486053612.309273) vcan0 230#400600009C000000
(1486053612.312193) vcan0 076#3E80C0800FFF0000
(1486053612.313180) vcan0 213#FFFF00040001F340
(1486053612.313495) vcan0 216#D3C9F1CF00000000
(1486053612.313542) vcan0 217#0DA40DB00DB00DB4
(1486053612.314151) vcan0 3CC#3000000000000000
(1486053612.314224) vcan0 41D#8000600000000000
(1486053612.315290) vcan0 3A8#0100270F00000000
(1486053612.321255) vcan0 186#13A401DC00560400
(1486053612.322241) vcan0 18A#0020180D14000000
(1486053612.323165) vcan0 217#0D9C0DB00DA40DAC
(1486053612.325342) vcan0 3CA#FE9037FE00000000
(1486053612.328257) vcan0 422#0000009A3802FE02
(1486053612.328298) vcan0 423#86A0000000000000
(1486053612.328322) vcan0 047#2000000000000000
(1486053612.328346) vcan0 165#50C3460000000000
(1486053612.329303) vcan0 04A#0200000000000000
(1486053612.330265) vcan0 04B#00C0D8D8D8D8C000
(1486053612.330304) vcan0 04C#105FFFC000000000
(1486053612.331288) vcan0 230#400600009C000000
(1486053612.331320) vcan0 3E2#0000000080000000
(1486053612.332285) vcan0 076#3E80C0800FFF0000
(1486053612.333263) vcan0 213#FFFF00040001F240
(1486053612.333318) vcan0 216#E1D7FFDC00000000
(1486053612.333355) vcan0 217#0D980DAC0DA00DA4
(1486053612.334280) vcan0 41D#8000600000000000
(1486053612.334314) vcan0 455#A000000000000000
(1486053612.335384) vcan0 3A8#0100271000000000
(1486053612.338416) vcan0 261#0000000000000000
(1486053612.341084) vcan0 186#139D01DC00560400
(1486053612.342153) vcan0 217#0D980DAC0DA40DA4
(1486053612.343158) vcan0 3CC#3000000000000000
(1486053612.348137) vcan0 047#2000000000000000
(1486053612.348190) vcan0 165#50C3460000000000
(1486053612.349296) vcan0 230#400600009C000000
(1486053612.352261) vcan0 076#3E80C0800FFF0000
(1486053612.353265) vcan0 213#FFFF00040001F340
(1486053612.353335) vcan0 216#EFE60DEA00000000
(1486053612.353374) vcan0 217#0DA00DA40DB00DA0
(1486053612.354176) vcan0 3A7#0E401A045F700000
(1486053612.354233) vcan0 41D#8000600000000000
(1486053612.355295) vcan0 3A8#0100271000000000
(1486053612.356385) vcan0 3CA#FE9037FE00000000
(1486053612.356437) vcan0 3EB#C804100000200000
(1486053612.357383) vcan0 42C#8C20000008C00000
(1486053612.361257) vcan0 186#139B01DC00560400
(1486053612.362279) vcan0 217#0D940DAC0DB40DA8
(1486053612.364629) vcan0 33B#0000000000000000
(1486053612.368137) vcan0 047#2000000000000000
(1486053612.368202) vcan0 165#50C3460000000000
(1486053612.370073) vcan0 230#400600009C000000
(1486053612.372266) vcan0 076#3E80C0800FFF0000
(1486053612.373279) vcan0 213#FFFF00040001F340
(1486053612.373340) vcan0 216#FCF41CF800000000
(1486053612.374184) vcan0 217#0DA00DA00DB00DAC
(1486053612.374234) vcan0 3CC#3000000000000000
(1486053612.374292) vcan0 41D#8000600000000000
(1486053612.376169) vcan0 3A8#0100271000000000
(1486053612.381112) vcan0 186#139A01DC00560400
(1486053612.382065) vcan0 217#0DA80DA40DA40DB0
(1486053612.385381) vcan0 3CA#FE9037FE00000000
(1486053612.388253) vcan0 047#2000000000000000
(1486053612.388310) vcan0 165#50C3460000000000
(1486053612.389280) vcan0 178#0000020A0E7ECA7D
(1486053612.390295) vcan0 230#400600009C000000
(1486053612.391251) vcan0 261#0000000000000000
(1486053612.392277) vcan0 076#3E80C0800FFF0000
(1486053612.393284) vcan0 213#FFFF00040001F340
(1486053612.393345) vcan0 216#0B01290700000000
(1486053612.394159) vcan0 217#0DA40DA80D9C0DA0
(1486053612.394201) vcan0 41D#8000600000000000
(1486053612.395273) vcan0 3A8#0100271000000000
(1486053612.400546) vcan0 186#139901DD00560400
(1486053612.401554) vcan0 42C#8C20000008C00000
(1486053612.401584) vcan0 217#0DAC0DA40DA00DA4
(1486053612.402568) vcan0 3CC#3000000000000000
(1486053612.404537) vcan0 083#0020000000000000
(1486053612.405665) vcan0 2A1#FFFFFFFF00000000
(1486053612.408136) vcan0 047#2000000000000000
(1486053612.408174) vcan0 165#50C3460000000000
(1486053612.409288) vcan0 230#400600009C000000
(1486053612.411503) vcan0 076#3E80C0800FFF0000
(1486053612.412680) vcan0 213#FFFF00040001F340
(1486053612.413654) vcan0 216#190F371500000000
(1486053612.413696) vcan0 217#0D9C0DA80D9C0DA4
(1486053612.414632) vcan0 41D#8000600000000000
(1486053612.415655) vcan0 3A8#0100271000000000
(1486053612.415735) vcan0 3CA#FE91380300000000
(1486053612.420503) vcan0 186#139901DD00560400
(1486053612.421523) vcan0 18A#0020180D14000000
(1486053612.421557) vcan0 217#0DA80DAC0DA00DA0
(1486053612.424628) vcan0 33B#0000000000000000
(1486053612.426635) vcan0 59E#9E00FFFFFFFFFFFF
(1486053612.427648) vcan0 422#0000009A3802FE02
(1486053612.427682) vcan0 047#2000000000000000
(1486053612.428636) vcan0 423#86A0000000000000
(1486053612.428673) vcan0 165#50C3460000000000
(1486053612.429635) vcan0 04A#0200000000000000
(1486053612.429673) vcan0 04B#00C0D8D8D8D8C000
(1486053612.429697) vcan0 04C#105FFFC000000000
(1486053612.430673) vcan0 230#400600009C000000
(1486053612.431778) vcan0 43A#0000020000000000
(1486053612.431810) vcan0 455#A000000000000000
(1486053612.431844) vcan0 076#3E80C0800FFF0000
(1486053612.432796) vcan0 213#FFFF00040001F340
(1486053612.433777) vcan0 216#271E452200000000
(1486053612.433883) vcan0 217#0DA00DA80D940D9C
(1486053612.433932) vcan0 3CC#3000000000000000
(1486053612.434840) vcan0 41D#8000600000000000
(1486053612.435844) vcan0 3A8#0100271000000000
(1486053612.438382) vcan0 261#0000000000000000
(1486053612.440436) vcan0 186#139601DD00560400
(1486053612.442441) vcan0 217#0DA40DA00D940D94
(1486053612.443434) vcan0 3A6#0E401A045F700000
(1486053612.445430) vcan0 3CA#FE91380300000000
(1486053612.448189) vcan0 047#2000000000000000
(1486053612.448251) vcan0 165#50C3460000000000
(1486053612.449148) vcan0 230#400600009C000000
(1486053612.451256) vcan0 3B3#4048020F10050002
(1486053612.452258) vcan0 3C3#60C0000000004000
(1486053612.452297) vcan0 076#3E80C0800FFF0000
(1486053612.453185) vcan0 213#FFFF00040001F340
(1486053612.453226) vcan0 216#352C543000000000
(1486053612.454260) vcan0 217#0D9C0D9C0D940D88
(1486053612.454317) vcan0 41D#8000600000000000
(1486053612.454341) vcan0 42C#8C20000008C00000
(1486053612.455280) vcan0 3A8#0100271000000000
(1486053612.460396) vcan0 186#139601DD00560400
(1486053612.461376) vcan0 217#0D940D9C0D840D8C
(1486053612.462542) vcan0 3CC#3000000000000000
(1486053612.468135) vcan0 047#2000000000000000
(1486053612.468185) vcan0 165#50C3460000000000
(1486053612.469176) vcan0 230#400600009C000000
(1486053612.472158) vcan0 076#3E7EC0800FFF0000
(1486053612.473153) vcan0 213#FFFF00040001F240
(1486053612.473203) vcan0 216#4239603F00000000
(1486053612.474062) vcan0 217#0D900DA00D980D84
(1486053612.474121) vcan0 41D#8000600000000000
(1486053612.476169) vcan0 3A8#0100271000000000
(1486053612.476241) vcan0 3CA#FE91380300000000
(1486053612.480506) vcan0 186#139701DD00560400
(1486053612.481433) vcan0 217#0D940DA40D880D98
(1486053612.484753) vcan0 33B#0000000000000000
(1486053612.488125) vcan0 047#2000000000000000
(1486053612.488181) vcan0 165#50C3460000000000
(1486053612.489150) vcan0 178#000002150E7ECA7D
(1486053612.491022) vcan0 230#400600009C000000
(1486053612.491067) vcan0 261#0000000000000000
(1486053612.492134) vcan0 076#3E7EC0800FFF0000
(1486053612.493155) vcan0 213#FFFF00040001F240
(1486053612.493217) vcan0 216#51476F4D00000000
(1486053612.494179) vcan0 217#0D9C0DAC0D8C0DA8
(1486053612.494228) vcan0 3CC#3000000000000000
(1486053612.494275) vcan0 41D#8000600000000000
(1486053612.495165) vcan0 3A8#0100270F00000000
(1486053612.500377) vcan0 186#139701DD00560400
(1486053612.501399) vcan0 42C#8C20000008C00000
(1486053612.502393) vcan0 217#0DA40DA80D8C0DA0
(1486053612.504751) vcan0 083#0020000000000000
(1486053612.505668) vcan0 2A1#FFFFFFFF00000000
(1486053612.505702) vcan0 3CA#FE91380300000000
(1486053612.508039) vcan0 047#2000000000000000
(1486053612.508086) vcan0 165#50C3460000000000
(1486053612.510094) vcan0 230#400600009C000000
(1486053612.512200) vcan0 076#3E80C0800FFF0000
(1486053612.513146) vcan0 213#FFFF00040001F340
(1486053612.513207) vcan0 216#5F557D5A00000000
(1486053612.513253) vcan0 217#0DA00DA40D880D9C
(1486053612.514227) vcan0 41D#8000600000000000
(1486053612.515331) vcan0 3A8#0100270F00000000
(1486053612.520433) vcan0 186#139701DD00560400
(1486053612.520511) vcan0 18A#0020180D14000000
(1486053612.521429) vcan0 3E5#0000000080000000
(1486053612.522443) vcan0 217#0D9C0DA00D840D94
(1486053612.523430) vcan0 3CC#3000000000000000
(1486053612.528061) vcan0 422#0000009A3802FE02
(1486053612.528122) vcan0 423#86A0000000000000
(1486053612.528158) vcan0 047#2000000000000000
(1486053612.528196) vcan0 165#50C3460000000000
(1486053612.530193) vcan0 04A#0200000000000000
(1486053612.530250) vcan0 04B#00C0D8D8D8D8C000
(1486053612.530285) vcan0 04C#105FFFC000000000
(1486053612.531212) vcan0 230#400600009C000000
(1486053612.531277) vcan0 431#057B00CB09800002
(1486053612.532093) vcan0 455#A000000000000000
(1486053612.532144) vcan0 076#3E80C0800FFF0000
(1486053612.533114) vcan0 213#FFFF00040001F540
(1486053612.533184) vcan0 216#6D648B6800000000
(1486053612.534093) vcan0 217#0D900D9C0D8C0D90
(1486053612.534165) vcan0 41D#8000600000000000
(1486053612.535077) vcan0 3A8#0100271000000000
(1486053612.536210) vcan0 3CA#FE9417F900000000
(1486053612.538242) vcan0 261#0000000000000000
(1486053612.540431) vcan0 186#139701DD00560400
(1486053612.541559) vcan0 217#0D940D940D900D84
(1486053612.544705) vcan0 33B#0000000000000000
(1486053612.548065) vcan0 047#2000000000000000
(1486053612.548122) vcan0 165#50C3460000000000
(1486053612.549127) vcan0 230#400600009C000000
(1486053612.552343) vcan0 076#3E80C0800FFF0000
(1486053612.553342) vcan0 213#FFFF00040001F640
(1486053612.553416) vcan0 216#7A71987600000000
(1486053612.554221) vcan0 217#0D8C0D980D980D8C
(1486053612.554276) vcan0 3CC#3000000000000000
(1486053612.554328) vcan0 41D#8000600000000000
(1486053612.555204) vcan0 42C#8C20000008C00000
(1486053612.556198) vcan0 3A8#0100271000000000
(1486053612.558377) vcan0 3A7#0E401A045F700000
(1486053612.560336) vcan0 186#139401DE00560400
(1486053612.560408) vcan0 454#3646200372204242
(1486053612.561458) vcan0 217#0D8C0D9C0D980D8C
(1486053612.565437) vcan0 3CA#FE9417F900000000
(1486053612.568066) vcan0 047#2000000000000000
(1486053612.568137) vcan0 165#50C3460000000000
(1486053612.569995) vcan0 230#400600009C000000
(1486053612.572165) vcan0 076#3E80C0800FFF0000
(1486053612.573214) vcan0 213#FFFF00040001F640
(1486053612.573279) vcan0 216#897FA78500000000
(1486053612.574194) vcan0 217#0D940D980D940D88
(1486053612.574292) vcan0 41D#8000600000000000
(1486053612.576081) vcan0 3A8#0100271000000000
(1486053612.580333) vcan0 186#139401DE00560400
(1486053612.581459) vcan0 217#0D9C0DA00D900D8C
(1486053612.582492) vcan0 3CC#3000000000000000
(1486053612.588056) vcan0 047#2000000000000000
(1486053612.588118) vcan0 165#50C3460000000000
(1486053612.589090) vcan0 178#0000020D0E7ECA7D
(1486053612.591180) vcan0 230#400600009C000000
(1486053612.591240) vcan0 261#0000000000000000
(1486053612.592120) vcan0 076#3E80C0800FFF0000
(1486053612.593106) vcan0 213#FFFF00040001F740
(1486053612.593175) vcan0 216#978DB59200000000
(1486053612.594121) vcan0 217#0DA40DA80D900D8C
(1486053612.594197) vcan0 41D#8000600000000000
(1486053612.595081) vcan0 3A8#0100271000000000
(1486053612.596074) vcan0 3CA#FE9417F900000000
(1486053612.600435) vcan0 186#139401DE00560400
(1486053612.601431) vcan0 42C#8C20000008C00000
(1486053612.602450) vcan0 217#0D940D980D900D94
(1486053612.604807) vcan0 083#0020000000000000
(1486053612.605864) vcan0 2A1#FFFFFFFF00000000
(1486053612.605954) vcan0 33B#0000000000000000
(1486053612.608156) vcan0 047#2000000000000000
(1486053612.608251) vcan0 165#50C3460000000000
(1486053612.609222) vcan0 230#400600009C000000
(1486053612.611492) vcan0 076#3E80C0800FFF0000
(1486053612.612719) vcan0 213#FFFF00040001F840
(1486053612.613666) vcan0 216#A59CC3A000000000
(1486053612.613741) vcan0 217#0DA40DAC0D880D94
(1486053612.613856) vcan0 3CC#3000000000000000
(1486053612.614660) vcan0 41D#8000600000000000
(1486053612.615618) vcan0 3A8#0100271000000000
(1486053612.619443) vcan0 186#139401DE00560400
(1486053612.620531) vcan0 18A#0020180D14000000
(1486053612.621517) vcan0 217#0DA80D9C0D940D94
(1486053612.625501) vcan0 3CA#FE93C7FB00000000
(1486053612.628182) vcan0 422#0000009A3802FE02
(1486053612.628362) vcan0 423#86A0000000000000
(1486053612.628456) vcan0 047#2000000000000000
(1486053612.628533) vcan0 165#50C3460000000000
(1486053612.629087) vcan0 04A#0200000000000000
(1486053612.630011) vcan0 04B#00C0D8D8D8D8C000
(1486053612.630082) vcan0 04C#105FFFC000000000
(1486053612.631195) vcan0 230#400600009C000000
(1486053612.632141) vcan0 455#A000000000000000
(1486053612.632225) vcan0 076#3E80C0800FFF0000
(1486053612.633044) vcan0 213#FFFF00040001F940
(1486053612.633147) vcan0 216#B3AAD0AE00000000
(1486053612.634001) vcan0 217#0DB00DB40D8C0D98
(1486053612.634116) vcan0 41D#8000600000000000
(1486053612.635272) vcan0 3A8#0100271000000000
(1486053612.638292) vcan0 261#0000000000000000
(1486053612.639493) vcan0 186#139C01DE00560400
(1486053612.641496) vcan0 217#0DC00DC40D900D90
(1486053612.642672) vcan0 3CC#3000000000000000
(1486053612.643602) vcan0 3A6#0E401A045F700000
(1486053612.648018) vcan0 047#2000000000000000
(1486053612.648087) vcan0 165#50C3460000000000
(1486053612.649198) vcan0 230#400600009C000000
(1486053612.651354) vcan0 42C#8C20000008C00000
(1486053612.652376) vcan0 076#3E80C0800FFF0000
(1486053612.653252) vcan0 213#FFFF00040001FA40
(1486053612.653344) vcan0 216#C0B7DEBB00000000
(1486053612.653407) vcan0 217#0DA00DB40D8C0D94
(1486053612.654285) vcan0 41D#8000600000000000
(1486053612.655235) vcan0 3A8#0100271000000000
(1486053612.656351) vcan0 3CA#FE93C7FB00000000
(1486053612.659498) vcan0 186#13A401DF00560400
(1486053612.661613) vcan0 217#0DB80DB80D8C0D94
(1486053612.662749) vcan0 596#9600FFFFFFFFFFFF
(1486053612.664851) vcan0 33B#0000000000000000
(1486053612.667991) vcan0 047#2000000000000000
(1486053612.668087) vcan0 165#50C3460000000000
(1486053612.669997) vcan0 230#400600009C000000
(1486053612.672152) vcan0 076#3E80C0800FFF0000
(1486053612.673193) vcan0 213#FFFF00040001FB40
(1486053612.674161) vcan0 216#CFC5EDCA00000000
(1486053612.674238) vcan0 217#0DA40DB00D8C0D90
(1486053612.674327) vcan0 3CC#3000000000000000
(1486053612.675029) vcan0 41D#8000600000000000
(1486053612.675087) vcan0 41E#0000000000000000
(1486053612.675988) vcan0 3A8#0100271000000000
(1486053612.679373) vcan0 186#13A401DF00560400
(1486053612.681640) vcan0 217#0DA40DA80D880D98
(1486053612.685266) vcan0 3CA#FE93C7FB00000000
(1486053612.687803) vcan0 047#2000000000000000
(1486053612.687865) vcan0 165#50C3460000000000
(1486053612.688907) vcan0 178#000002040E7ECA7D
(1486053612.691161) vcan0 230#400600009C000000
(1486053612.691242) vcan0 261#0000000000000000
(1486053612.692128) vcan0 076#3E80C0800FFF0000
(1486053612.693068) vcan0 213#FFFF00040001FC40
(1486053612.693192) vcan0 216#DDD3FBD800000000
(1486053612.693997) vcan0 217#0D9C0DA00D900D9C
(1486053612.694123) vcan0 41D#8000600000000000
(1486053612.695987) vcan0 3A8#0100271000000000
(1486053612.699623) vcan0 186#13B501DF00560400
(1486053612.700728) vcan0 42C#8C20000008C00000
(1486053612.701908) vcan0 217#0D9C0DA40D9C0DA4
(1486053612.702799) vcan0 3CC#3000000000000000
(1486053612.704738) vcan0 083#0020000000000000
(1486053612.706010) vcan0 2A1#FFFFFFFF00000000
(1486053612.708105) vcan0 047#2000000000000000
(1486053612.708184) vcan0 165#50C3460000000000
(1486053612.710018) vcan0 230#400600009C000000
(1486053612.712230) vcan0 076#3E80C0800FFF0000
(1486053612.713247) vcan0 213#FFFF00040001FF40
(1486053612.713369) vcan0 216#EBE208E600000000
(1486053612.714550) vcan0 217#0DA80DA40DA00DA4
(1486053612.714727) vcan0 41D#8000600000000000
(1486053612.715144) vcan0 3A8#0100271000000000
(1486053612.716195) vcan0 3CA#FE93C7FB00000000
(1486053612.718220) vcan0 186#13B501DF00560400
(1486053612.719357) vcan0 18A#0020180D14000000
(1486053612.721588) vcan0 217#0DA40DAC0DA80DA4
(1486053612.724919) vcan0 33B#0000000000000000
(1486053612.727923) vcan0 422#0000009A3802FE02
(1486053612.727980) vcan0 423#86A0000000000000
(1486053612.728014) vcan0 047#2000000000000000
(1486053612.728048) vcan0 165#50C3460000000000
(1486053612.729961) vcan0 04A#0200000000000000
(1486053612.730011) vcan0 04B#00C0D8D8D8D8C000
(1486053612.730042) vcan0 04C#105FFFC000000000
(1486053612.730935) vcan0 230#400600009C000000
(1486053612.730990) vcan0 455#A000000000000000
(1486053612.731917) vcan0 076#3E80C0800FFF0000
(1486053612.732953) vcan0 213#FFFF000400020040
(1486053612.733942) vcan0 216#FAF016F300000000
(1486053612.734015) vcan0 217#0DB00DB00DA80DA4
(1486053612.734065) vcan0 3CC#3000000000000000
(1486053612.735037) vcan0 41D#8000600000000000
(1486053612.736033) vcan0 3A8#0100271000000000
(1486053612.738458) vcan0 261#0000000000000000
(1486053612.738500) vcan0 186#13BE01DF00560400
(1486053612.741538) vcan0 217#0DB40DB40DA00DA4
(1486053612.745415) vcan0 3CA#FE94E80200000000
(1486053612.747911) vcan0 047#2000000000000000
(1486053612.747964) vcan0 165#50C3460000000000
(1486053612.749922) vcan0 230#400600009C000000
(1486053612.752307) vcan0 076#3E80C0800FFF0000
(1486053612.753303) vcan0 213#FFFF000400020140
(1486053612.753382) vcan0 216#08FD250100000000
(1486053612.754287) vcan0 217#0DB80DB80D980DA0
(1486053612.754371) vcan0 41D#8000600000000000
(1486053612.754403) vcan0 42C#8C20000008C00000
(1486053612.755304) vcan0 3A8#0100271000000000
(1486053612.758446) vcan0 186#13C901DF00560400
(1486053612.761530) vcan0 217#0DB00DB40D980D9C
(1486053612.762570) vcan0 3CC#3000000000000000
(1486053612.765025) vcan0 3A7#0E401A045F700000
(1486053612.767903) vcan0 047#2000000000000000
(1486053612.768915) vcan0 165#50C3460000000000
(1486053612.769984) vcan0 230#400600009C000000
(1486053612.772018) vcan0 076#3E80C0800FFF0000
(1486053612.773051) vcan0 213#FFFF000400020240
(1486053612.774026) vcan0 216#150B331000000000
(1486053612.774091) vcan0 217#0DB80DB80D980D94
(1486053612.774160) vcan0 41D#8000600000000000
(1486053612.776020) vcan0 3A8#0100271000000000
(1486053612.776109) vcan0 3CA#FE94E80200000000
(1486053612.778393) vcan0 186#13C901DF00560400
(1486053612.781515) vcan0 217#0DB80DB00DA00D98
(1486053612.784884) vcan0 33B#0000000000000000
(1486053612.787260) vcan0 047#2000000000000000
(1486053612.788401) vcan0 165#50C3460000000000
(1486053612.789396) vcan0 178#000001F80E7ECA7D
(1486053612.790331) vcan0 230#400600009C000000
(1486053612.790363) vcan0 261#0000000000000000
(1486053612.792525) vcan0 076#3E80C0800FFF0000
(1486053612.793520) vcan0 213#FFFF000400020140
(1486053612.793599) vcan0 216#231A401E00000000
(1486053612.793643) vcan0 217#0DBC0DB40DA80DA0
(1486053612.794538) vcan0 3CC#3000000000000000
(1486053612.794587) vcan0 41D#8000600000000000
(1486053612.795446) vcan0 3A8#0100271000000000
(1486053612.795521) vcan0 3CD#0000000000000000
(1486053612.796418) vcan0 3D8#0000000080456030
(1486053612.798447) vcan0 186#13D401DF00560400
(1486053612.800762) vcan0 42C#8C20000008C00000
(1486053612.801765) vcan0 217#0DB40DB80DA80DA8
(1486053612.804894) vcan0 083#0020000000000000
(1486053612.805996) vcan0 2A1#FFFFFFFF00000000
(1486053612.806082) vcan0 3CA#FE94E80200000000
(1486053612.807986) vcan0 047#2000000000000000
(1486053612.808086) vcan0 165#50C3460000000000
(1486053612.810072) vcan0 230#400600009C000000
(1486053612.811739) vcan0 076#3E80C0800FFF0000
(1486053612.812841) vcan0 213#FFFF000400020240
(1486053612.813796) vcan0 216#31284E2C00000000
(1486053612.813976) vcan0 217#0DB80DB80DAC0DB0
(1486053612.814750) vcan0 41D#8000600000000000
(1486053612.815740) vcan0 3A8#0100271000000000
(1486053612.817374) vcan0 186#13E501DF00560400
(1486053612.818444) vcan0 18A#0020180D14000000
(1486053612.821365) vcan0 217#0DB80DBC0DAC0DAC
(1486053612.823472) vcan0 3CC#3000000000000000
(1486053612.827856) vcan0 422#0000009A3802FE02
(1486053612.827939) vcan0 423#86A0000000000000
(1486053612.827991) vcan0 047#2000000000000000
(1486053612.828039) vcan0 165#50C3460000000000
(1486053612.830014) vcan0 230#400600009C000000
(1486053612.830090) vcan0 04A#0200000000000000
(1486053612.830150) vcan0 04B#00C0D8D8D8D8C000
(1486053612.830197) vcan0 04C#105FFFC000000000
(1486053612.830997) vcan0 455#A000000000000000
(1486053612.832028) vcan0 076#3E7DC0800FFF0000
(1486053612.833049) vcan0 213#FFFF000400020440
(1486053612.833929) vcan0 216#40365C3900000000
(1486053612.834021) vcan0 217#0DB80DC40DA00DB0
(1486053612.834113) vcan0 41D#8000600000000000
(1486053612.835964) vcan0 3A8#0100271000000000
(1486053612.836096) vcan0 3CA#FE93480100000000
(1486053612.837109) vcan0 186#13F301E000560400
(1486053612.839123) vcan0 261#0000000000000000
(1486053612.841448) vcan0 217#0DB40DC40D9C0DA4
(1486053612.843704) vcan0 3A6#0E401A045F700000
(1486053612.844954) vcan0 33B#0000000000000000
(1486053612.847965) vcan0 047#2000000000000000
(1486053612.848032) vcan0 165#50C3460000000000
(1486053612.848922) vcan0 230#400600009C000000
(1486053612.851660) vcan0 076#3E7FC0800FFF0000
(1486053612.852717) vcan0 213#FFFF000400020540
(1486053612.853691) vcan0 216#4E456B4800000000
(1486053612.853760) vcan0 217#0DB40DBC0D9C0DB0
(1486053612.853839) vcan0 3CC#3000000000000000
(1486053612.854693) vcan0 41D#8000600000000000
(1486053612.854737) vcan0 42C#8C20000008C00000
(1486053612.855659) vcan0 3A8#0100270D00000000
(1486053612.856937) vcan0 186#140201E000560400
(1486053612.861499) vcan0 217#0DB40DB80DA40DA8
(1486053612.865380) vcan0 3CA#FE93480100000000
(1486053612.867750) vcan0 047#2000000000000000
(1486053612.868759) vcan0 165#50C3460000000000
(1486053612.869831) vcan0 230#400600009C000000
(1486053612.871790) vcan0 076#3E80C0800FFF0000
(1486053612.872912) vcan0 213#FFFF000400020440
(1486053612.873772) vcan0 216#5C53795600000000
(1486053612.873834) vcan0 217#0DB80DB40D900D98
(1486053612.874760) vcan0 41D#8000600000000000
(1486053612.875883) vcan0 3A8#0100271000000000
(1486053612.876794) vcan0 186#140201E000560400
(1486053612.881461) vcan0 217#0DB00DB00D9C0D98
(1486053612.882422) vcan0 3CC#3000000000000000
(1486053612.887746) vcan0 047#2000000000000000
(1486053612.888756) vcan0 165#50C3460000000000
(1486053612.888806) vcan0 178#000001F50E7ECA7D
(1486053612.890750) vcan0 230#400600009C000000
(1486053612.890790) vcan0 261#0000000000000000
(1486053612.891723) vcan0 076#3E7FC0800FFF0000
(1486053612.892790) vcan0 213#FFFF000400020340
(1486053612.893771) vcan0 216#6960866400000000
(1486053612.893840) vcan0 217#0DB00DB80D9C0D90
(1486053612.893893) vcan0 41D#8000600000000000
(1486053612.895791) vcan0 3A8#0100271000000000
(1486053612.895862) vcan0 3CA#FE93480100000000
(1486053612.896784) vcan0 186#140901E000560400
(1486053612.900908) vcan0 42C#8C20000008C00000
(1486053612.902009) vcan0 217#0DB00DB00DAC0D98
(1486053612.904883) vcan0 5B3#B300FFFFFFFFFFFF
(1486053612.905798) vcan0 081#0000000000000000
(1486053612.905855) vcan0 083#0020000000000000
(1486053612.905882) vcan0 2A1#FFFFFFFF00000000
(1486053612.905904) vcan0 33B#0000000000000000
(1486053612.906760) vcan0 3E6#0001040880000000
(1486053612.907775) vcan0 047#2000000000000000
(1486053612.907823) vcan0 165#50C3460000000000
(1486053612.908813) vcan0 230#400600009C000000
(1486053612.912176) vcan0 076#3E7FC0800FFF0000
(1486053612.913142) vcan0 213#FFFF000400020240
(1486053612.913199) vcan0 216#786E947200000000
(1486053612.913236) vcan0 217#0DB00DB80DB00DA8
(1486053612.914288) vcan0 3CC#3000000000000000
(1486053612.914332) vcan0 41D#8000600000000000
(1486053612.915382) vcan0 3A8#0100271000000000
(1486053612.916502) vcan0 186#141101E000560400
(1486053612.917517) vcan0 18A#0020180D14000000
(1486053612.921262) vcan0 217#0DB00DB80DBC0DBC
(1486053612.925375) vcan0 3CA#FE93480100000000
(1486053612.927750) vcan0 422#0000009A3802FE02
(1486053612.927806) vcan0 423#86A0000000000000
(1486053612.927843) vcan0 047#2000000000000000
(1486053612.927877) vcan0 165#50C3460000000000
(1486053612.929769) vcan0 04A#0200000000000000
(1486053612.929846) vcan0 04B#00C0D8D8D8D8C000
(1486053612.929885) vcan0 04C#105FFFC000000000
(1486053612.930659) vcan0 230#400600009C000000
(1486053612.931629) vcan0 455#A000000000000000
(1486053612.931664) vcan0 076#3E80C0800FFF0000
(1486053612.932793) vcan0 213#FFFF000400020240
(1486053612.933757) vcan0 216#867CA37F00000000
(1486053612.933836) vcan0 217#0DB40DB00DC00DBC
(1486053612.933890) vcan0 41D#8000600000000000
(1486053612.935874) vcan0 3A8#0100271000000000
(1486053612.936877) vcan0 186#141C01E000560400
(1486053612.938778) vcan0 261#0000000000000000
(1486053612.941425) vcan0 217#0DB00DBC0DC00DC8
(1486053612.942410) vcan0 3CC#3000000000000000
(1486053612.947748) vcan0 047#2000000000000000
(1486053612.947806) vcan0 165#50C3460000000000
(1486053612.948796) vcan0 188#4000000000000000
(1486053612.949788) vcan0 230#400600009C000000
(1486053612.952205) vcan0 3B3#4048020F10050002
(1486053612.952260) vcan0 076#3E80C0800FFF0000
(1486053612.953272) vcan0 213#FFFF000400020440
(1486053612.953339) vcan0 216#948BB18E00000000
(1486053612.954256) vcan0 217#0DBC0DC40DC00DC0
(1486053612.954336) vcan0 41D#8000600000000000
(1486053612.955252) vcan0 42C#8C20000008C00000
(1486053612.955318) vcan0 3A8#0100271000000000
(1486053612.956165) vcan0 3CA#FE91E80300000000
(1486053612.956217) vcan0 186#142301E000560400
(1486053612.959287) vcan0 3A7#0E401A045F700000
(1486053612.961418) vcan0 217#0DB80DC00DB40DB8
(1486053612.964871) vcan0 33B#0000000000000000
(1486053612.967624) vcan0 047#2000000000000000
(1486053612.968540) vcan0 165#50C3460000000000
(1486053612.969518) vcan0 230#400600009C000000
(1486053612.971904) vcan0 076#3E7FC0800FFF0000
(1486053612.972908) vcan0 213#FFFF000400020540
(1486053612.972960) vcan0 216#A399BF9C00000000
(1486053612.974007) vcan0 217#0DC00DBC0DB40DB8
(1486053612.974065) vcan0 3CC#3000000000000000
(1486053612.974912) vcan0 41D#8000600000000000
(1486053612.975908) vcan0 3A8#0100271000000000
(1486053612.975994) vcan0 186#142301E000560400
(1486053612.981307) vcan0 217#0DC00DBC0DB40DB0
(1486053612.985251) vcan0 3CA#FE91E80300000000
(1486053612.987621) vcan0 047#2000000000000000
(1486053612.988623) vcan0 165#50C3460000000000
(1486053612.989758) vcan0 178#000002020E7ECA7D
(1486053612.990780) vcan0 230#400600009C000000
(1486053612.990827) vcan0 261#0000000000000000
(1486053612.991646) vcan0 076#3E7FC0800FFF0000
(1486053612.992753) vcan0 213#FFFF000400020440
(1486053612.993776) vcan0 216#B1A7CEAA00000000
(1486053612.993855) vcan0 217#0DC00DBC0DB40DB4
(1486053612.994752) vcan0 41D#8000600000000000
(1486053612.995748) vcan0 3A8#0100271000000000
(1486053612.996877) vcan0 186#142501E000570400
(1486053613.000801) vcan0 265#2001010410000000
(1486053613.000850) vcan0 453#3257364570646166
(1486053613.000888) vcan0 42C#8C20000008C00000
(1486053613.001762) vcan0 217#0DBC0DC00DAC0DB0
(1486053613.002869) vcan0 3CC#3000000000000000
(1486053613.004878) vcan0 083#0020000000000000
(1486053613.005999) vcan0 2A1#FFFFFFFF00000000
(1486053613.007999) vcan0 047#2000000000000000
(1486053613.008051) vcan0 165#50C3460000000000
(1486053613.009046) vcan0 230#400600009C000000
(1486053613.011423) vcan0 076#3E7FC0800FFF0000
(1486053613.012552) vcan0 213#FFFF000400020440
(1486053613.013652) vcan0 216#BFB4DAB900000000
(1486053613.013707) vcan0 217#0DB80DBC0DB00DBC
(1486053613.014630) vcan0 41D#8000600000000000
(1486053613.015626) vcan0 3A8#0100271000000000
(1486053613.015719) vcan0 3CA#FE91E80300000000
(1486053613.016628) vcan0 186#142301E000570400
(1486053613.016697) vcan0 18A#0020180D14000000
(1486053613.021509) vcan0 217#0DB80DC40DA00DB4
(1486053613.024998) vcan0 33B#0000000000000000
(1486053613.027631) vcan0 422#0000009A3802FE02
(1486053613.027684) vcan0 423#86A0000000000000
(1486053613.027745) vcan0 047#2000000000000000
(1486053613.028636) vcan0 165#50C3460000000000
(1486053613.029626) vcan0 04A#0200000000000000
(1486053613.029679) vcan0 04B#00C0D8D8D8D8C000
(1486053613.029716) vcan0 04C#105FFFC000000000
(1486053613.030655) vcan0 230#400600009C000000
(1486053613.030702) vcan0 455#A000000000000000
(1486053613.031552) vcan0 076#3E7FC0800FFF0000
(1486053613.032572) vcan0 213#FFFF000400020340
(1486053613.033551) vcan0 216#CCC3E9C600000000
(1486053613.033598) vcan0 217#0DB80DC00DA40DB4
(1486053613.033638) vcan0 3CC#3000000000000000
(1486053613.034531) vcan0 41D#8000600000000000
(1486053613.035636) vcan0 3A8#0100271000000000
(1486053613.035708) vcan0 186#142201E100570400
(1486053613.038790) vcan0 261#0000000000000000
(1486053613.041412) vcan0 217#0DBC0DC00DA40DB0
(1486053613.043626) vcan0 3A6#0E401A045F700000
(1486053613.045268) vcan0 3CA#FE91E80300000000
(1486053613.047525) vcan0 047#2000000000000000
(1486053613.047565) vcan0 165#50C3460000000000
(1486053613.049694) vcan0 230#400600009C000000
(1486053613.051679) vcan0 076#3E7FC0800FFF0000
(1486053613.052681) vcan0 213#FFFF000400020340
(1486053613.053799) vcan0 216#DAD1F7D400000000
(1486053613.053890) vcan0 217#0DC80DC80DB40DB0
(1486053613.053941) vcan0 41D#8000600000000000
(1486053613.054673) vcan0 42C#8C20000008C00000
(1486053613.055666) vcan0 3A8#0100271000000000
(1486053613.055748) vcan0 186#142A01E100570400
(1486053613.061514) vcan0 217#0DC40DD00DB40DA8
(1486053613.062427) vcan0 3CC#3000000000000000
(1486053613.067618) vcan0 047#2000000000000000
(1486053613.068675) vcan0 165#50C3460000000000
(1486053613.070622) vcan0 230#400600009C000000
(1486053613.071685) vcan0 076#3E7FC0800FFF0000
(1486053613.072695) vcan0 213#FFFF000400020340
(1486053613.073602) vcan0 216#E9DF05E200000000
(1486053613.073664) vcan0 217#0DC80DD40DBC0DB8
(1486053613.074559) vcan0 41D#8000600000000000
(1486053613.075688) vcan0 3A8#0100271000000000
(1486053613.075763) vcan0 186#142A01E100570400
(1486053613.076682) vcan0 3CA#FE8DB80400000000
(1486053613.079692) vcan0 350#0000000000000000
(1486053613.080633) vcan0 3E0#0000000080000000
(1486053613.081887) vcan0 217#0DBC0DB80DB80DB4
(1486053613.084862) vcan0 33B#0000000000000000
(1486053613.087511) vcan0 047#2000000000000000
(1486053613.088517) vcan0 165#50C3460000000000
(1486053613.088562) vcan0 178#000001FF0E7ECA7D
(1486053613.090543) vcan0 230#400600009C000000
(1486053613.090572) vcan0 261#0000000000000000
(1486053613.091514) vcan0 076#3E7DC0800FFF0000
(1486053613.092562) vcan0 213#FFFF000400020340
(1486053613.093536) vcan0 216#F7EE14F000000000
(1486053613.093596) vcan0 217#0DC00DCC0DB80DB4
(1486053613.093643) vcan0 3CC#3000000000000000
(1486053613.094541) vcan0 41D#8000600000000000
(1486053613.095540) vcan0 186#142C01E100570400
(1486053613.095590) vcan0 3A8#0100271000000000
(1486053613.101247) vcan0 42C#8C20000008C00000
(1486053613.102274) vcan0 217#0DBC0DC00DB40DBC
(1486053613.104998) vcan0 083#0020000000000000
(1486053613.105998) vcan0 2A1#FFFFFFFF00000000
(1486053613.106039) vcan0 3CA#FE8DB80400000000
(1486053613.107918) vcan0 047#2000000000000000
(1486053613.107971) vcan0 165#50C3460000000000
(1486053613.110044) vcan0 230#400600009C000000
(1486053613.112063) vcan0 076#3E7DC0800FFF0000
(1486053613.113159) vcan0 213#FFFF000400020340
(1486053613.113211) vcan0 216#05FC22FF00000000
(1486053613.114167) vcan0 217#0DBC0DC00DB40DBC
(1486053613.114213) vcan0 41D#8000600000000000
(1486053613.115273) vcan0 186#142E01E100570400
(1486053613.116266) vcan0 18A#0020180D14000000
(1486053613.116311) vcan0 3A8#0100270D00000000
(1486053613.121465) vcan0 217#0DBC0DC40DB00DB8
(1486053613.122423) vcan0 3CC#3000000000000000
(1486053613.127502) vcan0 422#0000009A3802FE02
(1486053613.127542) vcan0 423#86A0000000000000
(1486053613.127577) vcan0 047#2000000000000000
(1486053613.128400) vcan0 165#50C3460000000000
(1486053613.129517) vcan0 04A#0200000000000000
(1486053613.129563) vcan0 04B#00C0D8D8D8D8C000
(1486053613.129587) vcan0 04C#105FFFC000000000
(1486053613.130557) vcan0 230#400600009C000000
(1486053613.130592) vcan0 455#A000000000000000
(1486053613.131628) vcan0 456#8000000000000000
(1486053613.132652) vcan0 076#3E80C0800FFF0000
(1486053613.132736) vcan0 213#FFFF000400020340
(1486053613.133535) vcan0 216#140A2F0D00000000
(1486053613.133567) vcan0 217#0DBC0DC00DB40DBC
(1486053613.134641) vcan0 41D#8000600000000000
(1486053613.135644) vcan0 186#142C01E100570400
(1486053613.135705) vcan0 3A8#0100270D00000000
(1486053613.135776) vcan0 3CA#FE8DB80400000000
(1486053613.138435) vcan0 261#0000000000000000
(1486053613.141515) vcan0 217#0DB80DC40DB80DB4
(1486053613.144997) vcan0 33B#0000000000000000
(1486053613.147494) vcan0 047#2000000000000000
(1486053613.148520) vcan0 165#10C3460000000000
(1486053613.149408) vcan0 230#400600009C000000
(1486053613.152295) vcan0 076#3E80C0800FFF0000
(1486053613.153291) vcan0 213#FFFF000400020340
(1486053613.153340) vcan0 216#22173D1B00000000
(1486053613.154157) vcan0 217#0DC40DBC0DBC0DB0
(1486053613.154189) vcan0 3CC#3000000000000000
(1486053613.154239) vcan0 41D#8000600000000000
(1486053613.155272) vcan0 42C#8C20000008C00000
(1486053613.155329) vcan0 186#142A01E100570400
(1486053613.156269) vcan0 3A8#0100271000000000
(1486053613.157246) vcan0 3A7#0E401A045F700000
(1486053613.161519) vcan0 217#0DC40DBC0DB80DB8
(1486053613.165370) vcan0 3CA#FE8DB80400000000
(1486053613.167495) vcan0 047#2000000000000000
(1486053613.168545) vcan0 165#10C3460000000000
(1486053613.170596) vcan0 230#400600009C000000
(1486053613.171668) vcan0 076#3E80C0800FFF0000
(1486053613.172695) vcan0 213#FFFF000400020340
(1486053613.173563) vcan0 216#30254C2800000000
(1486053613.173603) vcan0 217#0DC00DB80DC00DB4
(1486053613.174607) vcan0 41D#8000600000000000
(1486053613.175630) vcan0 186#142A01E100570400
(1486053613.175683) vcan0 3A8#0100271000000000
(1486053613.181507) vcan0 217#0DB80DB80DC00DBC
(1486053613.182529) vcan0 3CC#3000000000000000
(1486053613.187495) vcan0 047#2000000000000000
(1486053613.188499) vcan0 165#10C3460000000000
(1486053613.189505) vcan0 178#000001F70E7ECA7D
(1486053613.190530) vcan0 230#400600009C000000
(1486053613.190562) vcan0 261#0000000000000000
(1486053613.191638) vcan0 076#3E80C0800FFF0000
(1486053613.192662) vcan0 213#FFFF000400020340
(1486053613.193644) vcan0 216#3D345A3700000000
(1486053613.193686) vcan0 217#0DB40DC80DC00DBC
(1486053613.194506) vcan0 41D#8000600000000000
(1486053613.194542) vcan0 186#142A01E200570400
(1486053613.195518) vcan0 3A8#0100271000000000
(1486053613.195583) vcan0 3CA#FE89E80000000000
(1486053613.200745) vcan0 42C#8C20000008C00000
(1486053613.201753) vcan0 217#0DB40DC40DB40DB0
(1486053613.204968) vcan0 083#0020000000000000
(1486053613.205999) vcan0 2A1#FFFFFFFF00000000
(1486053613.206040) vcan0 33B#0000000000000000
(1486053613.208127) vcan0 047#2000000000000000
(1486053613.208166) vcan0 165#10C3460000000000
(1486053613.209160) vcan0 230#400600009C000000
(1486053613.211496) vcan0 076#3E81C0800FFF0000
(1486053613.212663) vcan0 213#FFFF000400020240
(1486053613.213645) vcan0 216#4C42684500000000
(1486053613.213699) vcan0 217#0DB00DC00DB40DB4
(1486053613.213738) vcan0 3CC#3000000000000000
(1486053613.214533) vcan0 41D#8000600000000000
(1486053613.215535) vcan0 186#142901E200570400
(1486053613.215596) vcan0 18A#0020180D14000000
(1486053613.215623) vcan0 3A8#0100271000000000
(1486053613.221379) vcan0 217#0DA40DB80DB00DB4
(1486053613.225356) vcan0 3CA#FE89E80000000000
(1486053613.227497) vcan0 422#0000009A3802FE02
(1486053613.227538) vcan0 423#86A0000000000000
(1486053613.227572) vcan0 047#2000000000000000
(1486053613.228506) vcan0 165#10C3460000000000
(1486053613.229526) vcan0 04A#0200000000000000
(1486053613.229559) vcan0 04B#00C0D8D8D8D8C000
(1486053613.230503) vcan0 04C#105FFFC000000000
(1486053613.230561) vcan0 230#400600009C000000
(1486053613.231523) vcan0 455#A000000000000000
(1486053613.232501) vcan0 076#3E83C0800FFF0000
(1486053613.233505) vcan0 213#FFFF000400020140
(1486053613.233576) vcan0 216#5A50765300000000
(1486053613.233616) vcan0 217#0DAC0DB40DB00DB4
(1486053613.234506) vcan0 41D#8000600000000000
(1486053613.234556) vcan0 186#142901E200570400
(1486053613.235405) vcan0 3A8#0100271000000000
(1486053613.238405) vcan0 261#0000000000000000
(1486053613.241496) vcan0 217#0DAC0DBC0DAC0DAC
(1486053613.242527) vcan0 3CC#3000000000000000
(1486053613.243619) vcan0 3A6#0E401A045F700000
(1486053613.247494) vcan0 047#2000000000000000
(1486053613.248507) vcan0 165#10C3460000000000
(1486053613.249519) vcan0 230#400600009C000000
(1486053613.251124) vcan0 42C#8C20000008C00000
(1486053613.252250) vcan0 076#3E81C0800FFF0000
(1486053613.253268) vcan0 213#FFFF000400020040
(1486053613.253335) vcan0 216#685F836200000000
(1486053613.254178) vcan0 217#0DB40DBC0DB00DA8
(1486053613.254239) vcan0 41D#8000600000000000
(1486053613.254277) vcan0 186#142801E200570400
(1486053613.256156) vcan0 3A8#0100271300000000
(1486053613.256242) vcan0 3CA#FE89E80000000000
(1486053613.261496) vcan0 217#0DB80DC40DAC0DA4
(1486053613.264619) vcan0 168#0000000000000000
(1486053613.265639) vcan0 33B#0000000000000000
(1486053613.267620) vcan0 047#2000000000000000
(1486053613.268633) vcan0 165#10C3460000000000
(1486053613.269642) vcan0 230#400600009C000000
(1486053613.272015) vcan0 076#3E80C0800FFF0000
(1486053613.273036) vcan0 213#FFFF00040001FF40
(1486053613.273103) vcan0 216#776C926E00000000
(1486053613.273914) vcan0 217#0DB80DB80DA80DA4
(1486053613.273962) vcan0 3CC#3000000000000000
(1486053613.274909) vcan0 186#142801E200570400
(1486053613.274953) vcan0 41D#8000600000000000
(1486053613.275905) vcan0 3A8#0100271000000000
(1486053613.281522) vcan0 217#0DB80DB80DA00D9C
(1486053613.285226) vcan0 3CA#FE89E80000000000
(1486053613.287259) vcan0 047#2000000000000000
(1486053613.288261) vcan0 165#10C3460000000000
(1486053613.289373) vcan0 178#000001FF0E7ECA7D
(1486053613.290413) vcan0 230#400600009C000000
(1486053613.291493) vcan0 261#0000000000000000
(1486053613.292467) vcan0 076#3E81C0800FFF0000
(1486053613.293502) vcan0 213#FFFF00040001FE40
(1486053613.293559) vcan0 216#857AA07D00000000
(1486053613.293594) vcan0 217#0DB80DB00DA00D9C
(1486053613.294522) vcan0 41D#8000600000000000
(1486053613.294556) vcan0 186#142801E200570400
(1486053613.295514) vcan0 3A8#0100271000000000
(1486053613.300743) vcan0 42C#8C20000008C00000
(1486053613.301754) vcan0 217#0DAC0DB00D980D9C
(1486053613.302779) vcan0 3CC#3000000000000000
(1486053613.305117) vcan0 083#0020000000000000
(1486053613.306106) vcan0 2A1#FFFFFFFF00000000
(1486053613.308097) vcan0 047#2000000000000000
(1486053613.308151) vcan0 165#10C3460000000000
(1486053613.309115) vcan0 230#400600009C000000
(1486053613.312254) vcan0 076#3E80C0800FFF0000
(1486053613.313244) vcan0 213#FFFF00040001FC40
(1486053613.313373) vcan0 216#9388AE8B00000000
(1486053613.313434) vcan0 217#0DAC0DB40DA40DA8
(1486053613.314175) vcan0 41D#8000600000000000
(1486053613.314221) vcan0 186#142501E300580400
(1486053613.315182) vcan0 18A#0020180D14000000
(1486053613.315270) vcan0 3A8#0100271000000000
(1486053613.316309) vcan0 3CA#FE91380F00000000
(1486053613.321515) vcan0 217#0DA80DB40DB00DB4
(1486053613.325184) vcan0 33B#0000000000000000
(1486053613.327439) vcan0 422#0000009A3802FE02
(1486053613.327507) vcan0 423#86A0000000000000
(1486053613.327571) vcan0 047#2000000000000000
(1486053613.328461) vcan0 165#10C3460000000000
(1486053613.329469) vcan0 230#400600009C000000
(1486053613.329527) vcan0 04A#0200000000000000
(1486053613.329565) vcan0 04B#00C0D8D8D8D8C000
(1486053613.330448) vcan0 04C#105FFFC000000000
(1486053613.330542) vcan0 3E2#0000000080000000
(1486053613.331328) vcan0 455#A000000000000000
(1486053613.332338) vcan0 076#3E80C0800FFF0000
(1486053613.333336) vcan0 213#FFFF00040001FC40
(1486053613.333406) vcan0 216#A096BD9900000000
(1486053613.333457) vcan0 217#0DA80DB00DC80DD4
(1486053613.334336) vcan0 3CC#3000000000000000
(1486053613.334408) vcan0 186#142001E300580400
(1486053613.335333) vcan0 41D#8000600000000000
(1486053613.335405) vcan0 3A8#0100271000000000
(1486053613.338379) vcan0 261#0000000000000000
(1486053613.341674) vcan0 217#0DA80DAC0DC00DC8
(1486053613.345432) vcan0 3CA#FE91380F00000000
(1486053613.347686) vcan0 047#2000000000000000
(1486053613.348693) vcan0 165#10C3460000000000
(1486053613.350821) vcan0 230#400600009C000000
(1486053613.351851) vcan0 076#3E80C0800FFF0000
(1486053613.352885) vcan0 213#FFFF00040001FD40
(1486053613.353893) vcan0 216#AEA5CBA800000000
(1486053613.353982) vcan0 186#141601E300580400
(1486053613.354065) vcan0 217#0DAC0DAC0DC80DC8
(1486053613.354734) vcan0 41D#8000600000000000
(1486053613.355663) vcan0 3A8#0100271000000000
(1486053613.355782) vcan0 3EB#C804100000200000
(1486053613.356738) vcan0 42C#8C20000008C00000
(1486053613.357728) vcan0 3A7#0E401A045F700000
(1486053613.361451) vcan0 217#0DAC0DB00DB00DC0
(1486053613.362747) vcan0 3CC#3000000000000000
(1486053613.367435) vcan0 047#2000000000000000
(1486053613.368480) vcan0 165#10C3460000000000
(1486053613.370351) vcan0 230#400600009C000000
(1486053613.372448) vcan0 076#3E80C0800FFF0000
(1486053613.373574) vcan0 213#FFFF00040001FE40
(1486053613.373686) vcan0 216#BDB3D8B600000000
(1486053613.373749) vcan0 186#141601E300580400
(1486053613.374606) vcan0 217#0DB00DB00DAC0DC0
(1486053613.374727) vcan0 41D#8000600000000000
(1486053613.375435) vcan0 3A8#0100271000000000
(1486053613.376403) vcan0 3CA#FE91380F00000000
(1486053613.381545) vcan0 217#0DB40DB00DA00DB0
(1486053613.385183) vcan0 33B#0000000000000000
(1486053613.387451) vcan0 047#2000000000000000
(1486053613.388445) vcan0 165#10C3460000000000
(1486053613.389450) vcan0 178#000002000E7ECA7D
(1486053613.390621) vcan0 230#400600009C000000
(1486053613.390697) vcan0 261#0000000000000000
(1486053613.392569) vcan0 076#3E80C0800FFF0000
(1486053613.393578) vcan0 213#FFFF00040001FE40
(1486053613.393684) vcan0 186#140D01E300580400
(1486053613.393768) vcan0 216#CBC0E6C300000000
(1486053613.394514) vcan0 217#0DB00DB00D9C0DAC
(1486053613.394578) vcan0 3CC#3000000000000000
(1486053613.394630) vcan0 41D#8000600000000000
(1486053613.395398) vcan0 3A8#0100271000000000
(1486053613.401007) vcan0 42C#8C20000008C00000
(1486053613.402012) vcan0 217#0DA80DB80DA00DA8
(1486053613.405128) vcan0 083#0020000000000000
(1486053613.406137) vcan0 2A1#FFFFFFFF00000000
(1486053613.406196) vcan0 3CA#FE92182100000000
(1486053613.408131) vcan0 047#2000000000000000
(1486053613.408193) vcan0 165#10C3460000000000
(1486053613.410157) vcan0 230#400600009C000000
(1486053613.411637) vcan0 076#3E80C0800FFF0000
(1486053613.412679) vcan0 213#FFFF00040001FE40
(1486053613.413655) vcan0 216#D9CEF4D100000000
(1486053613.413715) vcan0 186#140001E300580400
(1486053613.414644) vcan0 18A#0020180D14000000
(1486053613.414703) vcan0 217#0DA80DB80DA00DA8
(1486053613.414757) vcan0 41D#8000600000000000
(1486053613.415522) vcan0 3A8#0100271000000000
(1486053613.421382) vcan0 217#0DA80DB80DA40DA8
(1486053613.422417) vcan0 3CC#3000000000000000
(1486053613.425758) vcan0 59E#9E00FFFFFFFFFFFF
(1486053613.426693) vcan0 422#0000009A3802FE02
(1486053613.426741) vcan0 423#86A0000000000000
(1486053613.427780) vcan0 43A#0000020000000000
(1486053613.427835) vcan0 047#2000000000000000
(1486053613.427876) vcan0 165#10C3460000000000
(1486053613.428803) vcan0 04A#0200000000000000
(1486053613.429913) vcan0 04B#00C0D8D8D8D8C000
(1486053613.429971) vcan0 04C#105FFFC000000000
(1486053613.430903) vcan0 230#400600009C000000
(1486053613.430957) vcan0 455#A000000000000000
(1486053613.431905) vcan0 076#3E80C0800FFF0000
(1486053613.432917) vcan0 213#FFFF00040001FD40
(1486053613.433909) vcan0 186#13F801E400580400
(1486053613.433986) vcan0 216#E6DD03E000000000
(1486053613.434030) vcan0 217#0DAC0DB00DAC0DAC
(1486053613.434776) vcan0 41D#8000600000000000
(1486053613.435751) vcan0 3A8#0100271000000000
(1486053613.435829) vcan0 3CA#FE92182100000000
(1486053613.438418) vcan0 261#0000000000000000
(1486053613.441510) vcan0 217#0DA80DB80DB00DA4
(1486053613.443629) vcan0 3A6#0E401A045F700000
(1486053613.445131) vcan0 33B#0000000000000000
(1486053613.447503) vcan0 047#2000000000000000
(1486053613.448513) vcan0 165#10C3460000000000
(1486053613.449528) vcan0 230#400600009C000000
(1486053613.451256) vcan0 3B3#4048020F10050002
(1486053613.452261) vcan0 3C3#60C0000000004000
(1486053613.452318) vcan0 076#3E80C0800FFF0000
(1486053613.453279) vcan0 186#13F901E400580400
(1486053613.453353) vcan0 213#FFFF00040001FD40
(1486053613.454293) vcan0 216#F5EB11EE00000000
(1486053613.454358) vcan0 217#0DB00DB40DB40DAC
(1486053613.454404) vcan0 3CC#3000000000000000
(1486053613.455279) vcan0 41D#8000600000000000
(1486053613.455333) vcan0 42C#8C20000008C00000
(1486053613.456254) vcan0 3A8#0100271000000000
(1486053613.461517) vcan0 217#0DB00DAC0DB40DB8
(1486053613.465380) vcan0 3CA#FE92182100000000
(1486053613.467381) vcan0 047#2000000000000000
(1486053613.468407) vcan0 165#10C3460000000000
(1486053613.470408) vcan0 230#400600009C000000
(1486053613.472511) vcan0 076#3E80C0800FFF0000
(1486053613.473511) vcan0 186#13F901E400580400
(1486053613.473584) vcan0 213#FFFF00040001FE40
(1486053613.474518) vcan0 216#03F91EFC00000000
(1486053613.474584) vcan0 217#0DBC0DC40DB80DBC
(1486053613.475519) vcan0 41D#8000600000000000
(1486053613.475591) vcan0 3A8#0100271000000000
(1486053613.481408) vcan0 217#0DBC0DC40DB40DBC
(1486053613.482273) vcan0 3CC#3000000000000000
(1486053613.487268) vcan0 047#2000000000000000
(1486053613.488295) vcan0 165#10C3460000000000
(1486053613.489386) vcan0 178#000001FF0E7ECA7D
(1486053613.490430) vcan0 230#400600009C000000
(1486053613.491378) vcan0 261#0000000000000000
(1486053613.492349) vcan0 076#3E80C0800FFF0000
(1486053613.493268) vcan0 186#13FA01E400580400
(1486053613.493322) vcan0 213#FFFF00040001FF40
(1486053613.494273) vcan0 216#11062C0900000000
(1486053613.494309) vcan0 217#0DB00DBC0DB00DB0
(1486053613.494357) vcan0 41D#8000600000000000
(1486053613.495262) vcan0 3A8#0100271000000000
(1486053613.496379) vcan0 3CA#FE92182100000000
(1486053613.500757) vcan0 42C#8C20000008C00000
(1486053613.501760) vcan0 217#0DB80DC80DB00DAC
(1486053613.505182) vcan0 083#0020000000000000
(1486053613.506179) vcan0 2A1#FFFFFFFF00000000
(1486053613.506269) vcan0 33B#0000000000000000
(1486053613.508298) vcan0 047#2000000000000000
(1486053613.508422) vcan0 165#10C3460000000000
(1486053613.509374) vcan0 230#400600009C000000
(1486053613.512699) vcan0 076#3E81C0800FFF0000
(1486053613.513240) vcan0 186#13FA01E400580400
(1486053613.513372) vcan0 18A#0020180D14000000
(1486053613.513454) vcan0 213#FFFF00040001FE40
(1486053613.514300) vcan0 216#1F143B1700000000
(1486053613.514411) vcan0 217#0DA40DAC0DB00DAC
(1486053613.514502) vcan0 3CC#3000000000000000
(1486053613.515180) vcan0 3E5#0000000080000000
(1486053613.515309) vcan0 41D#8000600000000000
(1486053613.515395) vcan0 3A8#0100271000000000
(1486053613.521476) vcan0 217#0DB00DB80DAC0DB0
(1486053613.525354) vcan0 3CA#FE95182600000000
(1486053613.527470) vcan0 422#0000009A3802FE02
(1486053613.527555) vcan0 423#86A0000000000000
(1486053613.527630) vcan0 431#057B00CB09800002
(1486053613.528368) vcan0 047#2000000000000000
(1486053613.528433) vcan0 165#10C3460000000000
(1486053613.529416) vcan0 04A#0200000000000000
(1486053613.529473) vcan0 04B#00C0D8D8D8D8C000
(1486053613.530487) vcan0 04C#105FFFC000000000
(1486053613.530602) vcan0 230#400600009C000000
(1486053613.531521) vcan0 455#A000000000000000
(1486053613.532611) vcan0 076#3E81C0800FFF0000
(1486053613.533610) vcan0 186#13F701E500580400
(1486053613.533745) vcan0 213#FFFF00040001FE40
(1486053613.534590) vcan0 216#2E23492600000000
(1486053613.534693) vcan0 217#0DA80DAC0DB00DB0
(1486053613.534784) vcan0 41D#8000600000000000
(1486053613.535615) vcan0 3A8#0100271000000000
(1486053613.538396) vcan0 261#0000000000000000
(1486053613.541458) vcan0 217#0DAC0DB40DA80DAC
(1486053613.542392) vcan0 3CC#3000000000000000
(1486053613.547699) vcan0 047#2000000000000000
(1486053613.548840) vcan0 165#10C3460000000000
(1486053613.549789) vcan0 230#400600009C000000
(1486053613.552231) vcan0 186#13F901E500580400
(1486053613.552324) vcan0 076#3E80C0800FFF0000
(1486053613.553388) vcan0 213#FFFF00040001FE40
(1486053613.554353) vcan0 216#3C31573400000000
(1486053613.554454) vcan0 217#0DB80DBC0DAC0DA8
(1486053613.555333) vcan0 41D#8000600000000000
(1486053613.555401) vcan0 42C#8C20000008C00000
(1486053613.556216) vcan0 3CA#FE95182600000000
(1486053613.556276) vcan0 3A8#0100271000000000
(1486053613.557343) vcan0 3A7#0E401A045F700000
(1486053613.560344) vcan0 454#3646200372204242
(1486053613.561593) vcan0 217#0DAC0DB40DA80DA8
(1486053613.565320) vcan0 33B#0000000000000000
(1486053613.567443) vcan0 047#2000000000000000
(1486053613.568493) vcan0 165#10C3460000000000
(1486053613.570345) vcan0 230#400600009C000000
(1486053613.571505) vcan0 186#13F901E500580400
(1486053613.572385) vcan0 076#3E83C0800FFF0000
(1486053613.573502) vcan0 213#FFFF00040001FD40
(1486053613.573619) vcan0 216#493F664200000000
(1486053613.573688) vcan0 217#0DB00DB80DA80DA8
(1486053613.574332) vcan0 3CC#3000000000000000
(1486053613.574429) vcan0 41D#8000600000000000
(1486053613.575491) vcan0 3A8#0100271000000000
(1486053613.581466) vcan0 217#0DA40DB80DA40DB0
(1486053613.585365) vcan0 3CA#FE95182600000000
(1486053613.587456) vcan0 047#2000000000000000
(1486053613.588450) vcan0 165#10C3460000000000
(1486053613.589441) vcan0 178#000001FD0E7DCA7D
(1486053613.590532) vcan0 230#400600009C000000
(1486053613.591470) vcan0 261#0000000000000000
(1486053613.591530) vcan0 186#13FD01E500580400
(1486053613.592473) vcan0 076#3E81C0800FFF0000
(1486053613.593421) vcan0 213#FFFF00040001FE40
(1486053613.593514) vcan0 216#574E724F00000000
(1486053613.593580) vcan0 217#0DB00DB40DAC0DB4
(1486053613.594516) vcan0 41D#8000600000000000
(1486053613.595492) vcan0 3A8#0100271300000000
(1486053613.601583) vcan0 42C#8C20000008C00000
(1486053613.602590) vcan0 217#0DB40DB40DA40DAC
(1486053613.602729) vcan0 3CC#3000000000000000
(1486053613.605317) vcan0 083#0020000000000000
(1486053613.606328) vcan0 2A1#FFFFFFFF00000000
(1486053613.608337) vcan0 047#2000000000000000
(1486053613.608405) vcan0 165#10C3460000000000
(1486053613.609389) vcan0 230#400600009C000000
(1486053613.611336) vcan0 186#13FC01E500580400
(1486053613.612377) vcan0 18A#0020180D14000000
(1486053613.612431) vcan0 076#3E80C0800FFF0000
(1486053613.613372) vcan0 213#FFFF00040001FE40
(1486053613.613443) vcan0 216#665B815E00000000
(1486053613.614357) vcan0 217#0DA80DAC0DA40DA8
(1486053613.614467) vcan0 41D#8000600000000000
(1486053613.615337) vcan0 3A8#0100271000000000
(1486053613.616445) vcan0 3CA#FE95182600000000
(1486053613.621583) vcan0 217#0DAC0DAC0DA40DA4
(1486053613.625332) vcan0 33B#0000000000000000
(1486053613.627323) vcan0 422#0000009A3802FE02
(1486053613.627399) vcan0 423#86A0000000000000
(1486053613.628340) vcan0 047#2000000000000000
(1486053613.628406) vcan0 165#10C3460000000000
(1486053613.629398) vcan0 230#400600009C000000
(1486053613.629455) vcan0 04A#0200000000000000
(1486053613.630227) vcan0 04B#00C0D8D8D8D8C000
(1486053613.630285) vcan0 04C#105FFFC000000000
(1486053613.630367) vcan0 455#A000000000000000
(1486053613.631428) vcan0 186#13FC01E500580400
(1486053613.632378) vcan0 076#3E80C0800FFF0000
(1486053613.633384) vcan0 213#FFFF00040001FE40
(1486053613.633456) vcan0 216#74698F6C00000000
(1486053613.633539) vcan0 217#0DA80DAC0DA40DA4
(1486053613.634518) vcan0 3CC#3000000000000000
(1486053613.634606) vcan0 41D#8000600000000000
(1486053613.635510) vcan0 3A8#0100271000000000
(1486053613.638532) vcan0 261#0000000000000000
(1486053613.641480) vcan0 217#0DAC0DB00DA80DA0
(1486053613.643354) vcan0 3A6#0E401A045F700000
(1486053613.645363) vcan0 3CA#FE95282200000000
(1486053613.647464) vcan0 047#2000000000000000
(1486053613.648486) vcan0 165#10C3460000000000
(1486053613.650452) vcan0 230#400600009C000000
(1486053613.651610) vcan0 186#13F801E600580400
(1486053613.651745) vcan0 42C#8C20000008C00000
(1486053613.652611) vcan0 076#3E80C0800FFF0000
(1486053613.653492) vcan0 213#FFFF00040001FD40
(1486053613.653620) vcan0 216#82779D7A00000000
(1486053613.653699) vcan0 217#0DAC0DB00DA80D9C
(1486053613.654517) vcan0 41D#8000600000000000
(1486053613.655475) vcan0 3A8#0100271000000000
(1486053613.661489) vcan0 217#0DAC0DAC0DA80D9C
(1486053613.662491) vcan0 596#9600FFFFFFFFFFFF
(1486053613.662606) vcan0 3CC#3000000000000000
(1486053613.667464) vcan0 047#2000000000000000
(1486053613.668517) vcan0 165#10C3460000000000
(1486053613.670361) vcan0 230#400600009C000000
(1486053613.671484) vcan0 186#13F801E600580400
(1486053613.672521) vcan0 076#3E80C0800FFF0000
(1486053613.673517) vcan0 213#FFFF00040001FD40
(1486053613.673602) vcan0 216#8F86AA8900000000
(1486053613.674614) vcan0 217#0DAC0DA80DA80D9C
(1486053613.674772) vcan0 41D#8000600000000000
(1486053613.675607) vcan0 41E#0000000000000000
(1486053613.675704) vcan0 3CA#FE95282200000000
(1486053613.676591) vcan0 3A8#0100271000000000
(1486053613.681360) vcan0 217#0DA80DA80DA40DA0
(1486053613.685336) vcan0 33B#0000000000000000
(1486053613.687473) vcan0 047#2000000000000000
(1486053613.688478) vcan0 165#10C3460000000000
(1486053613.689371) vcan0 178#000001F80E7ECA7D
(1486053613.690538) vcan0 230#400600009C000000
(1486053613.690594) vcan0 261#0000000000000000
(1486053613.691484) vcan0 186#13F601E600580400
(1486053613.692468) vcan0 076#3E80C0800FFF0000
(1486053613.693506) vcan0 213#FFFF00040001FC40
(1486053613.693687) vcan0 216#9D94B99500000000
(1486053613.693852) vcan0 217#0DA80DAC0DA40DA4
(1486053613.694440) vcan0 3CC#3000000000000000
(1486053613.694512) vcan0 41D#8000600000000000
(1486053613.695447) vcan0 3A8#0100271000000000
(1486053613.700806) vcan0 42C#8C20000008C00000
(1486053613.701845) vcan0 217#0DA80DA00DA00D98
(1486053613.705303) vcan0 083#0020000000000000
(1486053613.706321) vcan0 2A1#FFFFFFFF00000000
(1486053613.706383) vcan0 3CA#FE95282200000000
(1486053613.707430) vcan0 047#2000000000000000
(1486053613.708320) vcan0 165#10C3460000000000
(1486053613.710318) vcan0 230#400600009C000000
(1486053613.711322) vcan0 186#13F801E600580400
(1486053613.711441) vcan0 18A#0020180D14000000
(1486053613.712477) vcan0 076#3E80C0800FFF0000
(1486053613.713396) vcan0 213#FFFF00040001FC40
(1486053613.713460) vcan0 216#ACA1C7A400000000
(1486053613.713537) vcan0 217#0DA80DAC0D9C0DA0
(1486053613.714478) vcan0 41D#8000600000000000
