(1486048595.611934) vcan0 083#4020000008000000
(1486048595.611979) vcan0 085#7C64800056607C47
(1486048595.612898) vcan0 091#7EA67F21F63FF000
(1486048595.612972) vcan0 092#6FD66FDD730FC43F
(1486048595.613020) vcan0 41D#8000600000000000
(1486048595.613054) vcan0 4B0#01008000900000F6
(1486048595.616403) vcan0 3CA#FE80080000000000
(1486048595.617396) vcan0 186#13DD012C00400400
(1486048595.617468) vcan0 187#DE1408C800500300
(1486048595.617503) vcan0 455#A000000000000000
(1486048595.618428) vcan0 047#2000000000000000
(1486048595.619296) vcan0 165#50C0000000000000
(1486048595.619343) vcan0 217#096C097009640980
(1486048595.619400) vcan0 167#72804510001A2B00
(1486048595.620285) vcan0 178#000001FF0E76CA76
(1486048595.620349) vcan0 200#00007FE380460000
(1486048595.620397) vcan0 202#04DD580060000B09
(1486048595.621411) vcan0 204#C0757D02CD000000
(1486048595.621476) vcan0 230#300600008A000000
(1486048595.621524) vcan0 261#0000000000000000
(1486048595.621557) vcan0 091#7EC97F24CF40F000
(1486048595.622398) vcan0 082#850814008A804000
(1486048595.622464) vcan0 085#7C64800055707C47
(1486048595.622513) vcan0 092#6FCA6FE272F4E640
(1486048595.623604) vcan0 3C3#62C0000000000000
(1486048595.624673) vcan0 3A8#0100272E00000000
(1486048595.627427) vcan0 078#0569800000000000
(1486048595.628557) vcan0 167#72804510001A2B00
(1486048595.628602) vcan0 202#04DD600060000B08
(1486048595.628655) vcan0 204#C0757D02CD000000
(1486048595.629544) vcan0 05A#00000045EE610000
(1486048595.629592) vcan0 076#3E9FC0800FFF0000
(1486048595.629629) vcan0 077#0B06080A7FF8320A
(1486048595.630516) vcan0 07D#0000F5A0001E27E8
(1486048595.630550) vcan0 213#FFFF00040001FF40
(1486048595.630578) vcan0 214#000000000000F5A0
(1486048595.630609) vcan0 216#BFC589F100000000
(1486048595.631647) vcan0 217#0970097809700988
(1486048595.631723) vcan0 415#0B04F8DF080D080D
(1486048595.631774) vcan0 41D#8000600000000000
(1486048595.631806) vcan0 091#7EF47F289F41F000
(1486048595.632545) vcan0 085#7C63800056807C46
(1486048595.632591) vcan0 092#6FB66FE772F5F341
(1486048595.632629) vcan0 3CC#3000000000000000
(1486048595.632659) vcan0 4B0#01008000A00000F5
(1486048595.636418) vcan0 186#13DD012C00400400
(1486048595.637409) vcan0 187#DE1408C800500300
(1486048595.637452) vcan0 18A#0020180211000000
(1486048595.638518) vcan0 047#2000000000000000
(1486048595.638576) vcan0 165#50C0000000000000
(1486048595.639424) vcan0 167#72804510001A2B00
(1486048595.639471) vcan0 200#00007FE380460000
(1486048595.639506) vcan0 217#09780978093C095C
(1486048595.640384) vcan0 202#04DD680060000B07
(1486048595.640420) vcan0 204#C0757D02CC000000
(1486048595.640448) vcan0 230#300600008A000000
(1486048595.640477) vcan0 42F#7D04002E662E02DE
(1486048595.641505) vcan0 091#7F2C7F276642F000
(1486048595.641538) vcan0 082#850814008A804000
(1486048595.642659) vcan0 085#7C64800053907C47
(1486048595.642726) vcan0 092#6FA06FD77339D342
(1486048595.642762) vcan0 33B#0000000000000000
(1486048595.643649) vcan0 084#110000210F250A00
(1486048595.644650) vcan0 242#05B32001CE000001
(1486048595.644717) vcan0 3A8#0100272E00000000
(1486048595.646387) vcan0 3CA#FE80080000000000
(1486048595.647387) vcan0 59E#9E00FFFFFFFFFFFF
(1486048595.648404) vcan0 078#0168800000000000
(1486048595.648471) vcan0 422#000000953802FE02
(1486048595.648508) vcan0 423#9220000000000000
(1486048595.648538) vcan0 430#37000CE6C8867700
(1486048595.649301) vcan0 167#72804410001A2B00
(1486048595.649350) vcan0 202#04DD700060000B06
(1486048595.649387) vcan0 204#C0757D02CC000000
(1486048595.649417) vcan0 076#3E9FC0800FFF0000
(1486048595.650423) vcan0 077#0B07080C7FF80A0D
(1486048595.650473) vcan0 07D#0000F4B0001DB800
(1486048595.650509) vcan0 213#FFFF00040001FE40
(1486048595.650541) vcan0 214#000000000000F4B0
(1486048595.651387) vcan0 216#C9CF91FB00000000
(1486048595.651421) vcan0 217#09780978093C0930
(1486048595.651449) vcan0 415#0B15FCCD080D080D
(1486048595.651480) vcan0 41D#8000600000000000
(1486048595.651508) vcan0 04A#0200000000000000
(1486048595.652419) vcan0 04B#00C0D8D8D8D8C000
(1486048595.652465) vcan0 04C#105FFFC000000000
(1486048595.652499) vcan0 085#7C64800052A07C47
(1486048595.652530) vcan0 091#7F5F7F213843F000
(1486048595.653420) vcan0 092#6F8D6FB4739FA243
(1486048595.653468) vcan0 43A#0000020000000000
(1486048595.653501) vcan0 4B0#01008000B00000F4
(1486048595.653533) vcan0 3C3#7EC0000000000000
(1486048595.654412) vcan0 42C#8C20000008C00000
(1486048595.656296) vcan0 186#13E1012C00400400
(1486048595.657388) vcan0 187#DE1408C800500300
(1486048595.657445) vcan0 3CD#0000000000000000
(1486048595.657477) vcan0 3D8#0000000080456030
(1486048595.658386) vcan0 047#2000000000000000
(1486048595.659527) vcan0 165#50C0000000000000
(1486048595.659592) vcan0 167#72804410001A2B00
(1486048595.659627) vcan0 200#00007FE380460000
(1486048595.659657) vcan0 217#0970097009440940
(1486048595.660388) vcan0 202#04D9780060000B09
(1486048595.660423) vcan0 204#C0757D02CD000000
(1486048595.660451) vcan0 230#300600008A000000
(1486048595.661377) vcan0 091#7F807F1B1C44F000
(1486048595.661410) vcan0 082#810814008A804000
(1486048595.662421) vcan0 083#4020000008000000
(1486048595.662468) vcan0 085#7C64800051B07C47
(1486048595.662504) vcan0 092#6F816FA473EB7144
(1486048595.662536) vcan0 2A1#FFFFFFFF00000000
(1486048595.663409) vcan0 3CC#3000000000000000
(1486048595.664656) vcan0 3A8#0100272E00000000
(1486048595.667523) vcan0 078#0068000000000000
(1486048595.668509) vcan0 167#72804410001A2B00
(1486048595.669535) vcan0 202#04E7000060000B0A
(1486048595.669603) vcan0 204#C0757D02CD000000
(1486048595.669635) vcan0 261#0000000000000000
(1486048595.669666) vcan0 076#3E9FC0800FFF0000
(1486048595.670442) vcan0 077#0B01080A7FF7E1FF
(1486048595.670516) vcan0 07D#0000F3C00020B821
(1486048595.670582) vcan0 213#FFFF00040001FD40
(1486048595.670647) vcan0 214#000000000000F3C0
(1486048595.670707) vcan0 216#D3D99B0300000000
(1486048595.671363) vcan0 217#096C096809500948
(1486048595.671399) vcan0 415#0B09C0E8080D080D
(1486048595.671432) vcan0 41D#8000600000000000
(1486048595.671461) vcan0 085#7C64800050C07C47
(1486048595.672478) vcan0 091#7F937F1C0745F000
(1486048595.672513) vcan0 092#6F7E6FA773F06B45
(1486048595.672544) vcan0 42F#7D04002E662E02DD
(1486048595.672575) vcan0 4B0#01008000C00000F3
(1486048595.676146) vcan0 186#13E4012C00400400
(1486048595.677117) vcan0 187#DD1408C800600300
(1486048595.677155) vcan0 3CA#FE80080000000000
(1486048595.678261) vcan0 047#2000000000000000
(1486048595.679281) vcan0 165#50C0000000000000
(1486048595.679344) vcan0 167#72804410001A2B00
(1486048595.679378) vcan0 200#00007FE380460000
(1486048595.679407) vcan0 202#04E6080060000B0A
(1486048595.680172) vcan0 217#0968096809640958
(1486048595.680220) vcan0 204#C0757D02CD000000
(1486048595.680253) vcan0 230#300600008A000000
(1486048595.681131) vcan0 091#7FAA7F23E846F000
(1486048595.681168) vcan0 092#6F886FB973A99546
(1486048595.682229) vcan0 082#860814008A804000
(1486048595.682339) vcan0 085#7C6480004FD07C47
(1486048595.683460) vcan0 242#05B32001CE000001
(1486048595.684607) vcan0 3A8#0100272E00000000
(1486048595.687000) vcan0 05D#835C9F642D000000
(1486048595.687986) vcan0 078#0168800000000000
(1486048595.688981) vcan0 167#72804510001A2B00
(1486048595.689106) vcan0 202#04E5100060000B0A
(1486048595.689189) vcan0 204#C0757D02CD000000
(1486048595.689901) vcan0 076#3E9FC0800FFF0000
(1486048595.690008) vcan0 077#0AFE08097FF7D1FB
(1486048595.690093) vcan0 07D#0000F2D000222831
(1486048595.690844) vcan0 213#FFFF00040001FC40
(1486048595.690955) vcan0 214#000000000000F2D0
(1486048595.691037) vcan0 216#DDE3A50D00000000
(1486048595.691113) vcan0 217#09640968095C094C
(1486048595.691185) vcan0 415#0AF9C4F8080D080D
(1486048595.691782) vcan0 41D#8000600000000000
(1486048595.691853) vcan0 091#7FBC7F29CF47F000
(1486048595.691923) vcan0 085#7C6480004EE07C47
(1486048595.691993) vcan0 092#6F926FC3736EBB47
(1486048595.692867) vcan0 3CC#3000000000000000
(1486048595.692938) vcan0 4B0#01008000D00000F2
(1486048595.695865) vcan0 186#13E5012C00410400
(1486048595.696923) vcan0 187#DD1408C800600300
(1486048595.698144) vcan0 047#2000000000000000
(1486048595.699235) vcan0 05C#803000F8201E0000
(1486048595.699364) vcan0 165#50C0000000000000
(1486048595.699446) vcan0 167#72804510001A2B00
(1486048595.700123) vcan0 217#095C09740954093C
(1486048595.700252) vcan0 200#00007FE380460000
(1486048595.700338) vcan0 202#04E7180060000B07
(1486048595.700415) vcan0 204#C0757D02CD000000
(1486048595.701028) vcan0 230#300600008A000000
(1486048595.701103) vcan0 42F#7D04002E662E02DD
(1486048595.702009) vcan0 091#7FA57F2CE248F000
(1486048595.702087) vcan0 082#870814008A804000
(1486048595.702160) vcan0 085#7C6580004CF07C47
(1486048595.702231) vcan0 092#6F8F6FC1737AB348
(1486048595.703024) vcan0 33B#0000000000000000
(1486048595.704175) vcan0 42C#8C20000008C00000
(1486048595.705247) vcan0 3A8#0100272E00000000
(1486048595.706367) vcan0 3CA#FE80080000000000
(1486048595.707729) vcan0 078#0168800000000000
(1486048595.708735) vcan0 167#72804510001A2B00
(1486048595.708854) vcan0 202#04E9200060000B04
(1486048595.708941) vcan0 204#C0757D02CC000000
(1486048595.709624) vcan0 076#3E9FC0800FFF0000
(1486048595.709731) vcan0 077#0AFA080D7FF7EA02
(1486048595.710618) vcan0 07D#0000F1E0001FD83E
(1486048595.710731) vcan0 213#FFFF00040001FA40
(1486048595.710815) vcan0 214#000000000000F1E0
(1486048595.710892) vcan0 216#E6EBAE1700000000
(1486048595.710964) vcan0 217#0958097009540940
(1486048595.711719) vcan0 415#0AFFC8F1080D080D
(1486048595.711821) vcan0 416#5A00F40001000000
(1486048595.711901) vcan0 091#7F617F312049F000
(1486048595.711977) vcan0 085#7C6580005B007C47
(1486048595.712643) vcan0 092#6F7D6FC473B48749
(1486048595.712723) vcan0 41D#8000600000000000
(1486048595.712778) vcan0 4B0#01008000E00000F1
(1486048595.715850) vcan0 186#13F0012C00410400
(1486048595.716962) vcan0 187#DD1408C800600300
(1486048595.718004) vcan0 455#A000000000000000
(1486048595.718960) vcan0 047#2000000000000000
(1486048595.719072) vcan0 165#50C0000000000000
(1486048595.720123) vcan0 217#095809700948094C
(1486048595.720288) vcan0 167#72804510001A2B00
(1486048595.720355) vcan0 178#000001FF0E76CA76
(1486048595.720936) vcan0 200#00007FE280460000
(1486048595.721021) vcan0 202#04E9280060000B03
(1486048595.721098) vcan0 204#C0757D02CC000000
(1486048595.721151) vcan0 230#300600008A000000
(1486048595.721931) vcan0 261#0000000000000000
(1486048595.721989) vcan0 082#860814008A804000
(1486048595.722064) vcan0 085#7C6580005A107C47
(1486048595.722134) vcan0 091#7F0A7F37704AF000
(1486048595.722982) vcan0 092#6F756FCB73DA614A
(1486048595.723085) vcan0 3CC#3000000000000000
(1486048595.724099) vcan0 242#05B31FFFCE000001
(1486048595.725102) vcan0 3A8#0100272E00000000
(1486048595.727612) vcan0 078#0469000000000000
(1486048595.728736) vcan0 167#72804510001A2B00
(1486048595.728858) vcan0 202#04E9300060000B02
(1486048595.729633) vcan0 204#C0757D02C9000000
(1486048595.729736) vcan0 05A#00000045F4010000
(1486048595.729879) vcan0 076#3EA0C0800FFF0000
(1486048595.729953) vcan0 077#0AF4080F7FF7D203
(1486048595.730558) vcan0 07D#0000F0F000211822
(1486048595.730630) vcan0 213#FFFF00040001F940
(1486048595.730696) vcan0 214#000000000000F0F0
(1486048595.730759) vcan0 216#F0F5B82000000000
(1486048595.731510) vcan0 217#0958096009480964
(1486048595.731580) vcan0 415#0AF5CCFA080D080D
(1486048595.731644) vcan0 091#7ED27F3CA34BF000
(1486048595.731706) vcan0 085#7C65800059207C47
(1486048595.732510) vcan0 092#6F846FCF73D0574B
(1486048595.732580) vcan0 41D#8000600000000000
(1486048595.732629) vcan0 42F#7D04002E662E02DC
(1486048595.732692) vcan0 4B0#01008000F00000F0
(1486048595.735629) vcan0 186#13F0012C00410400
(1486048595.736711) vcan0 187#DD1408C800600300
(1486048595.736780) vcan0 18A#0020180211000000
(1486048595.736830) vcan0 3CA#FE80080000000000
(1486048595.738089) vcan0 047#2000000000000000
(1486048595.739115) vcan0 165#50C0000000000000
(1486048595.739187) vcan0 167#72804410001A2B00
(1486048595.739264) vcan0 200#00007FE280460000
(1486048595.739315) vcan0 202#04EA380060000B00
(1486048595.740041) vcan0 217#0954095C094C0974
(1486048595.740113) vcan0 204#C0757D02C9000000
(1486048595.740160) vcan0 230#300600008A000000
(1486048595.740203) vcan0 3A7#0E401A045F700000
(1486048595.741167) vcan0 091#7ED57F3F9C4CF000
(1486048595.742174) vcan0 082#820814008A804000
(1486048595.742243) vcan0 085#7C65800058307C47
(1486048595.742305) vcan0 092#6FA26FCE73AA5F4C
(1486048595.744855) vcan0 3A8#0100272F00000000
(1486048595.747346) vcan0 3A6#0E401A045F700000
(1486048595.748484) vcan0 078#0168800000000000
(1486048595.748620) vcan0 422#000000953802FE02
(1486048595.748676) vcan0 423#9220000000000000
(1486048595.748730) vcan0 167#72804410001A2B00
(1486048595.749506) vcan0 202#04EC400060000AFE
(1486048595.749637) vcan0 204#C0757D02C8000000
(1486048595.749712) vcan0 430#37000CE6C886F700
(1486048595.749782) vcan0 076#3EA0C0800FFF0000
(1486048595.750308) vcan0 077#0AF408137FF7DA06
(1486048595.750398) vcan0 07D#0000FF00002197F6
(1486048595.750486) vcan0 213#FFFF00040001FB40
(1486048595.750567) vcan0 214#000000000000FF00
(1486048595.751280) vcan0 216#FAFFC22A00000000
(1486048595.751354) vcan0 217#0958095C09580978
(1486048595.751419) vcan0 415#0AE8D006080E080E
(1486048595.751483) vcan0 41D#8000600000000000
(1486048595.752397) vcan0 04A#0200000000000000
(1486048595.752451) vcan0 04B#00C0D8D8D8D8C000
(1486048595.752496) vcan0 04C#105FFFC000000000
(1486048595.752569) vcan0 085#7C65800057407C47
(1486048595.752641) vcan0 091#7F067F41674DF000
(1486048595.753471) vcan0 092#6FB46FCA737D7D4D
(1486048595.753564) vcan0 3CC#3000000000000000
(1486048595.753619) vcan0 42C#8C20000008C00000
(1486048595.753668) vcan0 431#057B00C609800002
(1486048595.754471) vcan0 4B0#01008000000000FF
(1486048595.755468) vcan0 186#13F4012C00410400
(1486048595.756462) vcan0 187#DD1408C800600300
(1486048595.758097) vcan0 047#2000000000000000
(1486048595.759070) vcan0 165#50C0000000000000
(1486048595.759141) vcan0 167#72804410001A2B00
(1486048595.759193) vcan0 200#00007FE280460000
(1486048595.760100) vcan0 217#0958095C09580970
(1486048595.760190) vcan0 202#04EF480060000AFA
(1486048595.760264) vcan0 204#C0757D02C8000000
(1486048595.760313) vcan0 230#300600008A000000
(1486048595.761035) vcan0 42F#7D04002E662E02DB
(1486048595.762024) vcan0 091#7F3F7F3E304EF000
(1486048595.762096) vcan0 082#860814008A804000
(1486048595.762162) vcan0 083#4020000008000000
(1486048595.762209) vcan0 085#7C65800056507C47
(1486048595.763205) vcan0 092#6FAB6FC77360A54E
(1486048595.763455) vcan0 2A1#FFFFFFFF00000000
(1486048595.763513) vcan0 33B#0000000000000000
(1486048595.764219) vcan0 242#05B31FFACE000001
(1486048595.765215) vcan0 3A8#0100272F00000000
(1486048595.766330) vcan0 3CA#FE80080000000000
(1486048595.767460) vcan0 078#0168800000000000
(1486048595.768441) vcan0 167#72804410001A2B00
(1486048595.768506) vcan0 202#04F1500060000AF7
(1486048595.769444) vcan0 204#C0757D02C7000000
(1486048595.769533) vcan0 261#0000000000000000
(1486048595.769585) vcan0 076#3EA0C0800FFF0000
(1486048595.769630) vcan0 077#0AF608147FF80A04
(1486048595.770418) vcan0 07D#0000FE1000201805
(1486048595.770493) vcan0 213#FFFF00040001FB40
(1486048595.770542) vcan0 214#000000000000FE10
(1486048595.770608) vcan0 216#0408CC3400000000
(1486048595.771525) vcan0 217#095809600960095C
(1486048595.771598) vcan0 415#0AF0D4FD080E080E
(1486048595.771665) vcan0 091#7F697F380B4FF000
(1486048595.771732) vcan0 092#6F9A6FCD735CB34F
(1486048595.772519) vcan0 085#7C66800054607C47
(1486048595.772589) vcan0 41D#8000600000000000
(1486048595.772637) vcan0 4B0#01008000100000FE
(1486048595.775274) vcan0 186#13F3012C00410400
(1486048595.776272) vcan0 187#DC1408C800700300
(1486048595.778104) vcan0 047#2000000000000000
(1486048595.779045) vcan0 165#50C0000000000000
(1486048595.779103) vcan0 167#72804410001A2B00
(1486048595.779145) vcan0 200#00007FE280460000
(1486048595.779186) vcan0 202#04F1580060000AF6
(1486048595.780043) vcan0 217#0954096009540944
(1486048595.780125) vcan0 204#C0757D02C7000000
(1486048595.780169) vcan0 230#300600008A000000
(1486048595.781120) vcan0 091#7F797F300250F000
(1486048595.782149) vcan0 082#830814008A804000
(1486048595.782212) vcan0 085#7C65800055707C46
(1486048595.782265) vcan0 092#6F916FD673729C50
(1486048595.782316) vcan0 3CC#3000000000000000
(1486048595.784342) vcan0 3A8#0100272F00000000
(1486048595.786830) vcan0 05D#835C876334000000
(1486048595.787787) vcan0 078#0068000000000000
(1486048595.788790) vcan0 167#72804410001A2B00
(1486048595.788843) vcan0 202#04F2600060000AF4
(1486048595.788886) vcan0 204#C0757D02C5000000
(1486048595.789792) vcan0 42F#7D04002E662E02DB
(1486048595.789894) vcan0 076#3EA0C0800FFF0000
(1486048595.789933) vcan0 077#0AF408117FF7F205
(1486048595.789971) vcan0 07D#0000FD20001F8824
(1486048595.790814) vcan0 213#FFFF00040001FA40
(1486048595.790866) vcan0 214#000000000000FD20
(1486048595.790904) vcan0 216#0D12D43E00000000
(1486048595.790942) vcan0 217#0950095C094C093C
(1486048595.791748) vcan0 415#0AEDD8FF080E080E
(1486048595.791789) vcan0 41D#8000600000000000
(1486048595.791823) vcan0 085#7C65800053807C47
(1486048595.791860) vcan0 091#7F717F2A0F51F000
(1486048595.792783) vcan0 092#6F976FD773A16551
(1486048595.792843) vcan0 4B0#01008000200000FD
(1486048595.795157) vcan0 186#13EF012C00410400
(1486048595.796151) vcan0 187#DC1408C800700300
(1486048595.797151) vcan0 3CA#FE80080000000000
(1486048595.798152) vcan0 047#2000000000000000
(1486048595.799160) vcan0 05C#80D000EE201E0000
(1486048595.799232) vcan0 165#50C0000000000000
(1486048595.799287) vcan0 167#72804410001A2B00
(1486048595.799338) vcan0 200#00007FE2804B0000
(1486048595.800284) vcan0 217#0954095809480924
(1486048595.800355) vcan0 202#04F2680060000AF3
(1486048595.800412) vcan0 204#C0797D02C5000000
(1486048595.800464) vcan0 230#300600008A000000
(1486048595.801236) vcan0 091#7F677F2A1852F000
(1486048595.802224) vcan0 082#820814008A804000
(1486048595.802261) vcan0 085#7C65800052907C47
(1486048595.802297) vcan0 092#6FA56FC873E12552
(1486048595.803404) vcan0 242#05B31FF9CE000001
(1486048595.804381) vcan0 3B3#4048020F10050002
(1486048595.804424) vcan0 40A#C1023130373639FF
(1486048595.804476) vcan0 42C#8C20000008C00000
(1486048595.804511) vcan0 3A8#0100272F00000000
(1486048595.807630) vcan0 078#0168800000000000
(1486048595.808640) vcan0 167#72804410001A2B00
(1486048595.808676) vcan0 202#04F2700060000AF2
(1486048595.808706) vcan0 204#C07D7D02C4000000
(1486048595.809640) vcan0 076#3EA0C0800FFF0000
(1486048595.809677) vcan0 077#0AF0080D7FF7EE08
(1486048595.809706) vcan0 07D#0000FC300020C827
(1486048595.810640) vcan0 213#FFFF00040001F940
(1486048595.810679) vcan0 214#000000000000FC30
(1486048595.810708) vcan0 216#171CDE4700000000
(1486048595.810734) vcan0 217#0950095409380930
(1486048595.811623) vcan0 415#0AEADC01080E080E
(1486048595.811661) vcan0 416#5B00F30001000000
(1486048595.811690) vcan0 091#7F687F2A1653F000
(1486048595.811717) vcan0 085#7C65800051A07C47
(1486048595.812623) vcan0 092#6FB66FB07418F353
(1486048595.812663) vcan0 3CC#3000000000000000
(1486048595.812690) vcan0 41D#8000600000000000
(1486048595.812714) vcan0 4B0#01008000300000FC
(1486048595.815113) vcan0 186#13E4012C00410400
(1486048595.816025) vcan0 187#DC1408C800700300
(1486048595.817248) vcan0 455#A000000000000000
(1486048595.818348) vcan0 047#2000000000000000
(1486048595.819354) vcan0 165#50C0000000000000
(1486048595.819394) vcan0 217#0950095009440940
(1486048595.819422) vcan0 167#72804410001A2B00
(1486048595.820361) vcan0 178#000001FD0E76CA76
(1486048595.820404) vcan0 200#00007FE180510000
(1486048595.820433) vcan0 202#04F3780060000AF0
(1486048595.821233) vcan0 204#C07D7D02C4000000
(1486048595.821259) vcan0 230#300600008A000000
(1486048595.821282) vcan0 091#7F717F290D54F000
(1486048595.822261) vcan0 082#860814008A804000
(1486048595.822298) vcan0 085#7C65800051B07C46
(1486048595.822325) vcan0 092#6FBD6FA1742DE554
(1486048595.822349) vcan0 261#0000000000000000
(1486048595.823259) vcan0 33B#0000000000000000
(1486048595.823292) vcan0 42F#7D04002E662E02DA
(1486048595.824633) vcan0 3A8#0100272F00000000
(1486048595.826258) vcan0 3CA#FE80080000000000
(1486048595.827258) vcan0 078#0569800000000000
(1486048595.828353) vcan0 167#72804410001A2B00
(1486048595.828391) vcan0 202#0403000060000AEF
(1486048595.829355) vcan0 204#C0877E02C4000000
(1486048595.829394) vcan0 05A#00000045EAA10000
(1486048595.829422) vcan0 076#3EA0C0800FFF0000
(1486048595.830398) vcan0 077#0AEA080D7FF809FE
(1486048595.830432) vcan0 07D#0000FB400022E824
(1486048595.830460) vcan0 213#FFFF00040001F840
(1486048595.830484) vcan0 214#000000000000FB40
(1486048595.830509) vcan0 216#2125E85100000000
(1486048595.831388) vcan0 217#094C094C09500954
(1486048595.831422) vcan0 415#0ADFE00B080E080E
(1486048595.831447) vcan0 41D#8000600000000000
(1486048595.831471) vcan0 091#7F717F251055F000
(1486048595.832369) vcan0 085#7C6680004EC07C47
(1486048595.832404) vcan0 092#6FB36FA3740C0D55
(1486048595.832431) vcan0 4B0#01008000400000FB
(1486048595.834763) vcan0 186#13E4012C00410400
(1486048595.835763) vcan0 187#DC1408C800700300
(1486048595.835796) vcan0 18A#0020180211000000
(1486048595.838013) vcan0 047#2000000000000000
(1486048595.839018) vcan0 165#50C0000000000000
(1486048595.839050) vcan0 167#72804410001A2B00
(1486048595.839077) vcan0 200#00007FE180680000
(1486048595.839102) vcan0 202#0405080060000AEC
(1486048595.840105) vcan0 217#0948095809580968
(1486048595.840145) vcan0 204#C08F7E02C4000000
(1486048595.840173) vcan0 230#300600008A000000
(1486048595.841012) vcan0 091#7F607F1E2756F000
(1486048595.842015) vcan0 092#6FA06FB873C55256
(1486048595.842050) vcan0 082#840814008A804000
(1486048595.842076) vcan0 085#7C6680004DD07C47
(1486048595.842101) vcan0 3CC#3000000000000000
(1486048595.843390) vcan0 242#05B31FFCCE000001
(1486048595.844472) vcan0 3A8#0100272F00000000
(1486048595.847349) vcan0 078#0068000000000000
(1486048595.848358) vcan0 422#000000953802FE02
(1486048595.848396) vcan0 423#9220000000000000
(1486048595.848420) vcan0 430#37000CE6C8867700
(1486048595.848446) vcan0 167#72804410001A2B00
(1486048595.849352) vcan0 202#0406100060000AEA
(1486048595.849392) vcan0 204#C08F7E02C2000000
(1486048595.849421) vcan0 076#3EA0C0800FFF0000
(1486048595.850481) vcan0 077#0AE7080C7FF809FA
(1486048595.850521) vcan0 07D#0000FA500022A827
(1486048595.850549) vcan0 213#FFFF00040001F840
(1486048595.850573) vcan0 214#000000000000FA50
(1486048595.851390) vcan0 216#292FF15B00000000
(1486048595.851424) vcan0 217#094C0958095C096C
(1486048595.851450) vcan0 415#0AE0E409080E080E
(1486048595.851475) vcan0 04A#0200000000000000
(1486048595.852387) vcan0 04B#00C0D8D8D8D8C000
(1486048595.852419) vcan0 04C#105FFFC000000000
(1486048595.852444) vcan0 085#7C6680004CE07C47
(1486048595.852469) vcan0 091#7F387F175557F000
(1486048595.853373) vcan0 092#6F916FD4738E7B57
(1486048595.853407) vcan0 41D#8000600000000000
(1486048595.853432) vcan0 42F#7D04002E662E02D9
(1486048595.853458) vcan0 42C#8C20000008C00000
(1486048595.853481) vcan0 4B0#01008000500000FA
(1486048595.854641) vcan0 186#13E2012C00420400
(1486048595.855613) vcan0 187#DC1408C800700300
(1486048595.856631) vcan0 3CA#FE80080000000000
(1486048595.858131) vcan0 047#2000000000000000
(1486048595.859137) vcan0 165#50C0000000000000
(1486048595.859170) vcan0 167#72804410001A2D00
(1486048595.859200) vcan0 200#00007FE180750000
(1486048595.859225) vcan0 217#0948095C09540964
(1486048595.860352) vcan0 202#0407180060000AE8
(1486048595.860392) vcan0 204#C0987E02C2000000
(1486048595.860420) vcan0 230#300600008A000000
(1486048595.861260) vcan0 091#7EFD7F139458F000
(1486048595.862265) vcan0 082#880814008A804000
(1486048595.862300) vcan0 083#4020000008000000
(1486048595.862326) vcan0 085#7C6580004DF07C46
(1486048595.862350) vcan0 092#6F926FEE737B7258
(1486048595.863256) vcan0 2A1#FFFFFFFF00000000
(1486048595.864475) vcan0 3A8#0100272F00000000
(1486048595.867226) vcan0 078#0168800000000000
(1486048595.868225) vcan0 167#72804610001A2D00
(1486048595.869232) vcan0 202#0407200060000AE7
(1486048595.869271) vcan0 204#C09D7D02C2000000
(1486048595.869296) vcan0 261#0000000000000000
(1486048595.869319) vcan0 076#3EA1C0800FFF0000
(1486048595.870275) vcan0 077#0AE608077FF7EA07
(1486048595.870361) vcan0 07D#0000F96000206815
(1486048595.870428) vcan0 213#FFFF00040001F840
(1486048595.870474) vcan0 214#000000000000F960
(1486048595.871217) vcan0 216#3339FB6300000000
(1486048595.871257) vcan0 217#0948095809480958
(1486048595.871293) vcan0 415#0AE5E803080E080E
(1486048595.871328) vcan0 41D#8000600000000000
(1486048595.871352) vcan0 091#7EC47F14CB59F000
(1486048595.872196) vcan0 085#7C6680005A007C47
(1486048595.872232) vcan0 092#6FA5700173745159
(1486048595.872266) vcan0 3CC#3000000000000000
(1486048595.872290) vcan0 4B0#01008000600000F9
(1486048595.874458) vcan0 186#13E1012C00420400
(1486048595.875484) vcan0 187#DB1408C800800300
(1486048595.877983) vcan0 047#2000000000000000
(1486048595.879106) vcan0 165#50C0000000000000
(1486048595.879143) vcan0 167#72804610001A2D00
(1486048595.879168) vcan0 200#00007FE1807B0000
(1486048595.880014) vcan0 217#0940094C0944094C
(1486048595.880061) vcan0 202#0407280060000AE6
(1486048595.880099) vcan0 204#C09D7D02C2000000
(1486048595.880124) vcan0 230#300600008A000000
(1486048595.881117) vcan0 42F#7D04002E662F02D8
(1486048595.882137) vcan0 091#7EA87F1AE05AF000
(1486048595.882184) vcan0 082#8B0814008A804000
(1486048595.882222) vcan0 085#7C6680005A107C46
(1486048595.882257) vcan0 092#6FBD6FFE7360505A
(1486048595.883100) vcan0 33B#0000000000000000
(1486048595.884133) vcan0 242#05B31FFBCE000001
(1486048595.885224) vcan0 3A8#0100273100000000
(1486048595.886352) vcan0 3CA#FE80080000000000
(1486048595.887350) vcan0 05D#835CAF622B000000
(1486048595.888352) vcan0 078#0168800000000000
(1486048595.888391) vcan0 167#72804610001A3200
(1486048595.888433) vcan0 202#0406300060000AE6
(1486048595.889351) vcan0 204#C0A07D02C2000000
(1486048595.889405) vcan0 076#3EA0C0800FFF0000
(1486048595.890485) vcan0 077#0AE308067FF7FA14
(1486048595.890538) vcan0 07D#0000F870001FF7F2
(1486048595.890576) vcan0 213#FFFF00040001F740
(1486048595.890612) vcan0 214#000000000000F870
(1486048595.890646) vcan0 216#3D41056D00000000
(1486048595.891341) vcan0 217#09480948093C0940
(1486048595.891382) vcan0 415#0AD4EC13080E080E
(1486048595.891417) vcan0 41D#8000600000000000
(1486048595.891442) vcan0 091#7EB57F1ECE5BF000
(1486048595.892369) vcan0 085#7C67800057207C47
(1486048595.892417) vcan0 092#6FCD6FE1734E6E5B
(1486048595.892456) vcan0 4B0#01008000700000F8
(1486048595.894224) vcan0 186#13DE012C00420400
(1486048595.895256) vcan0 187#DB1408C800800300
(1486048595.898099) vcan0 047#2000000000000000
(1486048595.899104) vcan0 05C#807000F4201E0000
(1486048595.899160) vcan0 165#50C0000000000000
(1486048595.899188) vcan0 167#72804F10001A3C00
(1486048595.899224) vcan0 217#0944094409400938
(1486048595.900104) vcan0 200#00007FE0807E0000
(1486048595.900158) vcan0 202#0408380060000AE3
(1486048595.900196) vcan0 204#C0A07D02C2000000
(1486048595.900220) vcan0 230#300600008A000000
(1486048595.901143) vcan0 091#7ED97F1FA85CF000
(1486048595.902146) vcan0 082#890814008A804000
(1486048595.902193) vcan0 085#7C67800056307C47
(1486048595.902231) vcan0 092#6FD06FB8734E935C
(1486048595.902265) vcan0 3CC#3000000000000000
(1486048595.903381) vcan0 42C#8C20000008C00000
(1486048595.904973) vcan0 3A8#0100272F00000000
(1486048595.907349) vcan0 078#0068000000000000
(1486048595.908353) vcan0 167#72804F10001A3C00
(1486048595.909479) vcan0 202#040A400060000AE0
(1486048595.909534) vcan0 204#C0A07D02C2000000
(1486048595.909562) vcan0 42F#7D04002E663802D7
(1486048595.909598) vcan0 076#3EA1C0800FFF0000
(1486048595.910480) vcan0 077#0ADF08097FF8260B
(1486048595.910535) vcan0 07D#0000F780001F47ED
(1486048595.910573) vcan0 213#FFFF00040001F740
(1486048595.910598) vcan0 214#000000000000F780
(1486048595.911399) vcan0 216#464B0E7700000000
(1486048595.911446) vcan0 217#09440944094C0938
(1486048595.911484) vcan0 415#0AD6F010080E080E
(1486048595.911519) vcan0 416#5C00F20001000000
(1486048595.911553) vcan0 085#7C67800055407C47
(1486048595.912353) vcan0 091#7EF97F1D895DF000
(1486048595.912394) vcan0 092#6FC36FA2734DB65D
(1486048595.912430) vcan0 41D#8000600000000000
(1486048595.912454) vcan0 4B0#01008000800000F7
(1486048595.914067) vcan0 186#13D5012C00420400
(1486048595.915130) vcan0 187#DB1408C800800300
(1486048595.916262) vcan0 3CA#FE80080000000000
(1486048595.917255) vcan0 455#A000000000000000
(1486048595.918256) vcan0 047#2000000000000000
(1486048595.919260) vcan0 165#50C0000000000000
(1486048595.919293) vcan0 217#0940094409480940
(1486048595.919338) vcan0 167#72805D10001A3C00
(1486048595.920389) vcan0 178#000002000E76CA76
(1486048595.920436) vcan0 200#00007FE0807E0000
(1486048595.920465) vcan0 202#040B480060000ADE
(1486048595.920500) vcan0 204#C0A07D02C5000000
(1486048595.921385) vcan0 230#300600008A000000
(1486048595.921417) vcan0 261#0000000000000000
(1486048595.921442) vcan0 091#7F077F177F5EF000
(1486048595.922386) vcan0 082#8B0814008A804000
(1486048595.922434) vcan0 085#7C66800056507C46
(1486048595.922472) vcan0 092#6FB06FA97336D85E
(1486048595.923886) vcan0 242#05B31FFBCE000001
(1486048595.924882) vcan0 3A8#0100273100000000
(1486048595.927243) vcan0 078#0569800000000000
(1486048595.928350) vcan0 167#72805D10001A4300
(1486048595.928405) vcan0 202#040B500060000ADD
(1486048595.929350) vcan0 204#C0A07D02C5000000
(1486048595.929387) vcan0 05A#00000045F0410000
(1486048595.929430) vcan0 076#3EA3C0800FFF0000
(1486048595.930266) vcan0 077#0ADE08097FF819FA
(1486048595.930313) vcan0 07D#0000F690001F4801
(1486048595.930351) vcan0 213#FFFF00040001F740
(1486048595.930375) vcan0 214#000000000000F690
(1486048595.931264) vcan0 216#5055188000000000
(1486048595.931311) vcan0 217#093C094009480948
(1486048595.931349) vcan0 415#0AD2F413080E080E
(1486048595.931385) vcan0 41D#8000600000000000
(1486048595.931409) vcan0 091#7F017F108B5FF000
(1486048595.932339) vcan0 085#7C66800054607C47
(1486048595.932379) vcan0 092#6FAA6FC17318E35F
(1486048595.932413) vcan0 3CC#3000000000000000
(1486048595.932437) vcan0 4B0#01008000900000F6
(1486048595.934012) vcan0 186#13D5012C00420400
(1486048595.934989) vcan0 187#DB1408C800800300
(1486048595.935022) vcan0 18A#0020180211000000
(1486048595.938013) vcan0 047#2000000000000000
(1486048595.939155) vcan0 165#50C0000000000000
(1486048595.939225) vcan0 167#72805D10001A4300
(1486048595.939254) vcan0 200#00007FE0807E0000
(1486048595.940021) vcan0 217#0940093C09440950
(1486048595.940072) vcan0 202#040C580060000ADB
(1486048595.940110) vcan0 204#C0A07D02CA000000
(1486048595.940145) vcan0 230#300600008A000000
(1486048595.941014) vcan0 3A7#0E401A045F700000
(1486048595.941047) vcan0 42F#7D04002E663E02D6
(1486048595.942144) vcan0 091#7EF57F0A9D60F000
(1486048595.942192) vcan0 082#8B0814008A804000
(1486048595.942220) vcan0 085#7C65800055707C46
(1486048595.942255) vcan0 092#6FB06FDF730BCB60
(1486048595.943135) vcan0 33B#0000000000000000
(1486048595.944888) vcan0 3A8#0100273200000000
(1486048595.946257) vcan0 3CA#FE80080000000000
(1486048595.947256) vcan0 078#0168800000000000
(1486048595.948259) vcan0 3A6#0E401A045F700000
(1486048595.948292) vcan0 422#000000953802FE02
(1486048595.948315) vcan0 423#9220000000000000
(1486048595.948338) vcan0 167#72806710001A4600
(1486048595.949353) vcan0 202#040D600060000AD9
(1486048595.949407) vcan0 204#C0A07D02CA000000
(1486048595.949435) vcan0 430#37000CE6C8867700
(1486048595.949460) vcan0 076#3EA1C0800FFF0000
(1486048595.950484) vcan0 077#0ADB08057FF7FE02
(1486048595.950541) vcan0 07D#0000F5A0001E5804
(1486048595.950590) vcan0 213#FFFF00040001F740
(1486048595.950633) vcan0 214#000000000000F5A0
(1486048595.950676) vcan0 216#5A5E228A00000000
(1486048595.951389) vcan0 217#093C093809440950
(1486048595.951435) vcan0 04A#0200000000000000
(1486048595.951463) vcan0 04B#00C0D8D8D8D8C000
(1486048595.951486) vcan0 04C#105FFFC000000000
(1486048595.952370) vcan0 085#7C65800053807C47
(1486048595.952417) vcan0 091#7EF07F08A361F000
(1486048595.952455) vcan0 092#6FB26FF8730AB061
(1486048595.952491) vcan0 415#0ACBF819080E080E
(1486048595.953365) vcan0 41D#8000600000000000
(1486048595.953398) vcan0 4B0#01008000A00000F5
(1486048595.954367) vcan0 42C#8C20000008C00000
(1486048595.954401) vcan0 186#13CF012C00420400
(1486048595.954442) vcan0 187#DB1408C800800300
(1486048595.958006) vcan0 047#2000000000000000
(1486048595.959021) vcan0 165#50C0000000000000
(1486048595.959079) vcan0 167#72806B10001A4700
(1486048595.959160) vcan0 200#00007FE1807D0000
(1486048595.959238) vcan0 202#040F680060000AD6
(1486048595.960350) vcan0 217#093C093409400950
(1486048595.960469) vcan0 204#C0A07D02D3000000
(1486048595.960554) vcan0 230#300600008A000000
(1486048595.961218) vcan0 091#7EF47F0D9962F000
(1486048595.962218) vcan0 082#890814008A804000
(1486048595.962324) vcan0 083#4020000008000000
(1486048595.962388) vcan0 085#7C64800054907C46
(1486048595.962471) vcan0 092#6FAC7007730CA362
(1486048595.963208) vcan0 2A1#FFFFFFFF00000000
(1486048595.963280) vcan0 3CC#3000000000000000
(1486048595.964275) vcan0 242#05B31FFDCE000001
(1486048595.964468) vcan0 3A8#0100273100000000
(1486048595.967374) vcan0 078#0068000000000000
(1486048595.968314) vcan0 167#72806B10001A4700
(1486048595.969277) vcan0 202#0410700060000AD4
(1486048595.969366) vcan0 204#C0A07D02D3000000
(1486048595.969421) vcan0 261#0000000000000000
(1486048595.969468) vcan0 076#3EA0C0800FFF0000
(1486048595.970292) vcan0 077#0ADA08027FF80611
(1486048595.970378) vcan0 07D#0000F4B0001E17FF
(1486048595.970457) vcan0 213#FFFF00040001F740
(1486048595.970510) vcan0 214#000000000000F4B0
(1486048595.971271) vcan0 216#62682A9400000000
(1486048595.971352) vcan0 217#093C0940093C0948
(1486048595.971428) vcan0 415#0AC3FC20080E080E
(1486048595.971505) vcan0 41D#8000600000000000
(1486048595.972263) vcan0 085#7C64800052A07C47
(1486048595.972344) vcan0 091#7EFD7F168663F000
(1486048595.972421) vcan0 092#6F9F70007312B063
(1486048595.972495) vcan0 42F#7D04002E664202D6
(1486048595.973286) vcan0 4B0#01008000B00000F4
(1486048595.974268) vcan0 186#13CC012C00430400
(1486048595.974350) vcan0 187#DA1408C800900300
(1486048595.976273) vcan0 3CA#FE80080000000000
(1486048595.978064) vcan0 047#2000000000000000
(1486048595.979072) vcan0 165#50C0000000000000
(1486048595.979140) vcan0 167#72806D10001A4700
(1486048595.979224) vcan0 200#00007FE0807C0000
(1486048595.979298) vcan0 202#0412780060000AD1
(1486048595.980094) vcan0 217#0948094C09380944
(1486048595.980210) vcan0 204#C0A07D02DA000000
(1486048595.980300) vcan0 230#300600008A000000
(1486048595.981055) vcan0 091#7F037F1F7564F000
(1486048595.982154) vcan0 092#6F926FE1732FBF64
(1486048595.982239) vcan0 082#880814008A804000
(1486048595.982312) vcan0 085#7C64800051B07C47
(1486048595.985000) vcan0 3A8#0100272F00000000
(1486048595.986813) vcan0 05D#835C97642F000000
(1486048595.987796) vcan0 078#0168800000000000
(1486048595.988800) vcan0 167#72806D10001A4800
(1486048595.988882) vcan0 202#0423000060000ACF
(1486048595.988947) vcan0 204#C0A17D02DA000000
(1486048595.989765) vcan0 076#3E9FC0800FFF0000
(1486048595.989881) vcan0 077#0AD908067FF7F614
(1486048595.989947) vcan0 07D#0000F3C0001E3802
(1486048595.990795) vcan0 213#FFFF00040001F840
(1486048595.990865) vcan0 214#000000000000F3C0
(1486048595.990927) vcan0 216#6C72349D00000000
(1486048595.990988) vcan0 217#0948095009340940
(1486048595.991049) vcan0 415#0AE0C012080E080E
(1486048595.991759) vcan0 41D#8000600000000000
(1486048595.991804) vcan0 091#7EFC7F257665F000
(1486048595.991870) vcan0 085#7C64800050C07C47
(1486048595.991930) vcan0 092#6F8E6FC17368A965
(1486048595.992768) vcan0 3CC#3000000000000000
(1486048595.992813) vcan0 4B0#01008000C00000F3
(1486048595.993885) vcan0 186#13C6012C00430400
(1486048595.993949) vcan0 187#DA1408C800900300
(1486048595.998016) vcan0 047#2000000000000000
(1486048595.999321) vcan0 05C#801000FA201E0000
(1486048595.999415) vcan0 165#50C0000000000000
(1486048595.999465) vcan0 167#72806D10001A4800
(1486048595.999504) vcan0 217#094C095809300938
(1486048596.000203) vcan0 200#00007FE1807C0000
(1486048596.000288) vcan0 202#0420080060000AD1
(1486048596.000357) vcan0 204#C0A17D02E1000000
(1486048596.001195) vcan0 230#300600008A000000
(1486048596.001253) vcan0 42F#7D04002E664302D6
(1486048596.002205) vcan0 091#7EEC7F2A8066F000
(1486048596.002290) vcan0 082#880814008A804000
(1486048596.002338) vcan0 085#7C63800051D07C46
(1486048596.002403) vcan0 092#6F956FB4738B8B66
(1486048596.002463) vcan0 33B#0000000000000000
(1486048596.004067) vcan0 242#05B31FFECF000001
(1486048596.005074) vcan0 3A8#0100272E00000000
(1486048596.005223) vcan0 40A#C104014107F670C1
(1486048596.005292) vcan0 42C#8C20000008C00000
(1486048596.006804) vcan0 3CA#FE80080000000000
(1486048596.007805) vcan0 078#0168800000000000
(1486048596.008817) vcan0 167#72806E10001A4900
(1486048596.008911) vcan0 202#041C100060000AD4
(1486048596.008981) vcan0 204#C0A17D02E1000000
(1486048596.009642) vcan0 076#3E9FC0800FFF0000
(1486048596.009686) vcan0 077#0AD8080B7FF7E602
(1486048596.009750) vcan0 07D#0000F2D0001FC802
(1486048596.010645) vcan0 213#FFFF00040001F840
(1486048596.010689) vcan0 214#000000000000F2D0
(1486048596.010752) vcan0 216#767A3EA700000000
(1486048596.010812) vcan0 217#0948094C0930093C
(1486048596.011688) vcan0 415#0AE5C40C080E080E
(1486048596.011773) vcan0 416#5D00F10001000000
(1486048596.011842) vcan0 091#7EDC7F318867F000
(1486048596.011905) vcan0 085#7C63800050E07C46
(1486048596.012643) vcan0 092#6F9F6FB973729467
(1486048596.012714) vcan0 41D#8000600000000000
(1486048596.012758) vcan0 4B0#01008000D00000F2
(1486048596.013757) vcan0 186#13C2012C00430400
(1486048596.013869) vcan0 187#DA1408C800900300
(1486048596.017128) vcan0 455#A000000000000000
(1486048596.018285) vcan0 047#2000000000000000
(1486048596.019296) vcan0 165#50C0000000000000
(1486048596.019358) vcan0 167#72806F10001A4800
(1486048596.020309) vcan0 217#093C094809340940
(1486048596.020396) vcan0 178#0000020C0E76CA76
(1486048596.020459) vcan0 200#00007FE0807D0000
(1486048596.020517) vcan0 202#0419180060000AD6
(1486048596.021188) vcan0 204#C0A27D02E8000000
(1486048596.021265) vcan0 230#300600008A000000
(1486048596.021309) vcan0 261#0000000000000000
(1486048596.022194) vcan0 091#7EDC7F368268F000
(1486048596.022272) vcan0 082#8B0814008A804000
(1486048596.022333) vcan0 085#7C6380004FF07C46
(1486048596.022390) vcan0 092#6FA06FCC7332BF68
(1486048596.022445) vcan0 3CC#3000000000000000
(1486048596.024872) vcan0 3A8#0100272E00000000
(1486048596.027182) vcan0 078#0469000000000000
(1486048596.028176) vcan0 167#72806F10001A4800
(1486048596.029299) vcan0 202#0415200060000AD9
(1486048596.029385) vcan0 204#C0A27D02E8000000
(1486048596.029431) vcan0 05A#00000045E6E10000
(1486048596.030309) vcan0 076#3E9EC0800FFF0000
(1486048596.030395) vcan0 077#0AD6080F7FF7FA00
(1486048596.030456) vcan0 07D#0000F1E0001FE7F9
(1486048596.030514) vcan0 213#FFFF00040001F840
(1486048596.030554) vcan0 214#000000000000F1E0
(1486048596.031278) vcan0 216#7F8547AF00000000
(1486048596.031344) vcan0 217#0934093409380940
(1486048596.031401) vcan0 415#0ACFC821080E080E
(1486048596.031456) vcan0 41D#8000600000000000
(1486048596.032251) vcan0 085#7C6480005C007C47
(1486048596.032311) vcan0 091#7EEF7F356F69F000
(1486048596.032367) vcan0 092#6F9E6FE472F5E669
(1486048596.032422) vcan0 42F#7D04002E664302D6
(1486048596.033262) vcan0 4B0#01008000E00000F1
(1486048596.034251) vcan0 186#13C2012C00430400
(1486048596.034291) vcan0 187#DA1408C800900300
(1486048596.034328) vcan0 18A#0020180211000000
(1486048596.036310) vcan0 3CA#FE80080000000000
(1486048596.038161) vcan0 047#2000000000000000
(1486048596.039179) vcan0 165#50C0000000000000
(1486048596.039241) vcan0 167#72806F10001A4A00
(1486048596.039316) vcan0 200#00007FDF807D0000
(1486048596.039375) vcan0 202#0416280060000AD7
(1486048596.040173) vcan0 217#0938094009380940
(1486048596.040258) vcan0 204#C0A27D02ED000000
(1486048596.040317) vcan0 230#300600008A000000
(1486048596.041026) vcan0 091#7F027F315E6AF000
(1486048596.042016) vcan0 092#6FA06FF372E2E76A
(1486048596.042075) vcan0 082#8C0814008A804000
(1486048596.042128) vcan0 085#7C6480005B107C47
(1486048596.043401) vcan0 242#05B32001CF000001
(1486048596.044416) vcan0 3A8#0100272E00000000
(1486048596.047165) vcan0 078#0168800000000000
(1486048596.048160) vcan0 422#000000953802FE02
(1486048596.048208) vcan0 423#9220000000000000
(1486048596.048247) vcan0 430#37000CE6C8867700
(1486048596.048282) vcan0 167#72807110001A4A00
(1486048596.049128) vcan0 202#0417300060000AD5
(1486048596.049183) vcan0 204#C0A27D02ED000000
(1486048596.049219) vcan0 076#3E9EC0800FFF0000
(1486048596.050180) vcan0 077#0AD308107FF7F60C
(1486048596.050252) vcan0 07D#0000F0F0001DB7FF
(1486048596.050308) vcan0 213#FFFF00040001F740
(1486048596.050361) vcan0 214#000000000000F0F0
(1486048596.051178) vcan0 216#898F51B900000000
(1486048596.051248) vcan0 217#09400944093C0938
(1486048596.051306) vcan0 415#0AC2CC2D080E080E
(1486048596.051359) vcan0 04A#0200000000000000
(1486048596.052176) vcan0 04B#00C0D8D8D8D8C000
(1486048596.052225) vcan0 04C#105FFFC000000000
(1486048596.052263) vcan0 085#7C6480005A207C47
(1486048596.052322) vcan0 091#7F087F32566BF000
(1486048596.053252) vcan0 092#6F9F6FF37301C76B
(1486048596.053312) vcan0 3CC#3000000000000000
(1486048596.053350) vcan0 41D#8000600000000000
(1486048596.053382) vcan0 4B0#01008000F00000F0
(1486048596.053434) vcan0 42C#8C20000008C00000
(1486048596.054299) vcan0 186#13C0012C00430400
(1486048596.054372) vcan0 187#DA1408C800900300
(1486048596.058039) vcan0 047#2000000000000000
(1486048596.059059) vcan0 165#50C0000000000000
(1486048596.059109) vcan0 167#72807110001A4A00
(1486048596.059147) vcan0 200#00007FDE807D0000
(1486048596.060048) vcan0 217#0940094409380938
(1486048596.060117) vcan0 202#0419380060000AD2
(1486048596.060173) vcan0 204#C0A27D02F0000000
(1486048596.060223) vcan0 230#300600008A000000
(1486048596.061101) vcan0 42F#7D04002E664402D7
(1486048596.062210) vcan0 091#7EF17F38676CF000
(1486048596.062278) vcan0 082#8E0814008A804000
(1486048596.062332) vcan0 083#4020000008000000
(1486048596.062378) vcan0 085#7C64800059307C47
(1486048596.063157) vcan0 092#6F9B6FF1733F8E6C
(1486048596.063209) vcan0 2A1#FFFFFFFF00000000
(1486048596.063254) vcan0 33B#0000000000000000
(1486048596.064930) vcan0 3A8#0100272E00000000
(1486048596.066398) vcan0 3CA#FE80080000000000
(1486048596.067396) vcan0 078#0168800000000000
(1486048596.068406) vcan0 167#72807110001A4C00
(1486048596.068486) vcan0 202#041B400060000ACF
(1486048596.069408) vcan0 204#C0A27D02F0000000
(1486048596.069463) vcan0 261#0000000000000000
(1486048596.069498) vcan0 076#3E9FC0800FFF0000
(1486048596.070559) vcan0 077#0AD1080F7FF7F610
(1486048596.070646) vcan0 07D#0000FF00001DE805
(1486048596.070707) vcan0 213#FFFF00040001F740
(1486048596.070744) vcan0 214#000000000000FF00
(1486048596.070799) vcan0 216#93975AC300000000
(1486048596.071367) vcan0 217#0938094C09380938
(1486048596.071428) vcan0 415#0AD6D018080E080E
(1486048596.071481) vcan0 41D#8000600000000000
(1486048596.071516) vcan0 091#7EBC7F3F946DF000
(1486048596.072336) vcan0 085#7C64800058407C47
(1486048596.072389) vcan0 092#6F9B6FF5737A4E6D
(1486048596.072438) vcan0 4B0#01008000000000FF
(1486048596.073332) vcan0 186#13BF012C00430400
(1486048596.073385) vcan0 187#D91408C800A00300
(1486048596.075667) vcan0 350#0000000000000000
(1486048596.076668) vcan0 3E0#0000000080000000
(1486048596.078042) vcan0 047#2000000000000000
(1486048596.079049) vcan0 165#50C0000000000000
(1486048596.079099) vcan0 167#72807410001A4C00
(1486048596.079165) vcan0 200#00007FDD807C0000
(1486048596.079220) vcan0 202#0419480060000AD0
(1486048596.080158) vcan0 217#0940094C09380940
(1486048596.080238) vcan0 204#C0A27D02F3000000
(1486048596.080295) vcan0 230#300600008A000000
(1486048596.081174) vcan0 091#7E7E7F43CD6EF000
(1486048596.082283) vcan0 082#8F0814008A804000
(1486048596.082354) vcan0 085#7C64800057507C47
(1486048596.082411) vcan0 092#6F9B6FF57385426E
(1486048596.082464) vcan0 3CC#3000000000000000
(1486048596.083657) vcan0 242#05B32003CE000001
(1486048596.084624) vcan0 3A8#0100272E00000000
(1486048596.086796) vcan0 05D#835CBF6326000000
(1486048596.087903) vcan0 078#0068000000000000
(1486048596.088909) vcan0 167#72807410001A4C00
(1486048596.088964) vcan0 202#0417500060000AD1
(1486048596.089027) vcan0 204#C0A27D02F3000000
(1486048596.089935) vcan0 42F#7D04002E664602D8
(1486048596.090016) vcan0 076#3E9FC0800FFF0000
(1486048596.090058) vcan0 077#0AD008137FF7F210
(1486048596.090112) vcan0 07D#0000FE10002017EF
(1486048596.090805) vcan0 213#FFFF00040001F840
(1486048596.090876) vcan0 214#000000000000FE10
(1486048596.090932) vcan0 216#9CA164CC00000000
(1486048596.090984) vcan0 217#0940094C09340944
(1486048596.091768) vcan0 415#0AD5D418080E080E
(1486048596.091829) vcan0 41D#8000600000000000
(1486048596.091868) vcan0 085#7C64800056607C47
(1486048596.091920) vcan0 091#7E527F43F86FF000
(1486048596.092745) vcan0 092#6FA06FEF736A5D6F
(1486048596.092801) vcan0 4B0#01008000100000FE
(1486048596.093742) vcan0 186#13C1012C00430400
(1486048596.093796) vcan0 187#D91408C800A00300
(1486048596.096336) vcan0 3CA#FE80080000000000
(1486048596.098208) vcan0 047#2000000000000000
(1486048596.099229) vcan0 05C#80B000F0201E0000
(1486048596.099352) vcan0 165#50C0000000000000
(1486048596.099415) vcan0 167#72807410001A4C00
(1486048596.099470) vcan0 200#00007FDC807D0000
(1486048596.100226) vcan0 217#0948094809300944
(1486048596.100344) vcan0 202#0416580060000AD1
(1486048596.100431) vcan0 204#C0A27D02F1000000
(1486048596.100511) vcan0 230#300600008A000000
(1486048596.101220) vcan0 091#7E507F3C0070F000
(1486048596.102224) vcan0 082#8C0814008A804000
(1486048596.102329) vcan0 085#7C64800055707C47
(1486048596.102415) vcan0 092#6FB26FE373576970
(1486048596.103580) vcan0 42C#8C20000008C00000
(1486048596.104967) vcan0 3A8#0100272E00000000
(1486048596.107224) vcan0 078#0168800000000000
(1486048596.108339) vcan0 167#72807410001A4C00
(1486048596.109352) vcan0 202#0414600060000AD2
(1486048596.109471) vcan0 204#C0A37D02F1000000
(1486048596.109557) vcan0 076#3E9FC0800FFF0000
(1486048596.110357) vcan0 077#0AD208157FF7F60F
(1486048596.110475) vcan0 07D#0000FD20001FC7CE
(1486048596.110561) vcan0 213#FFFF00040001FA40
(1486048596.110640) vcan0 214#000000000000FD20
(1486048596.111230) vcan0 216#A6AA6ED600000000
(1486048596.111336) vcan0 217#0948094809300940
(1486048596.111423) vcan0 415#0ADAD812080E080E
(1486048596.111501) vcan0 416#5E00F00001000000
(1486048596.112157) vcan0 091#7E727F2EEB71F000
(1486048596.112248) vcan0 085#7C64800054807C47
(1486048596.112326) vcan0 092#6FC16FD873625971
(1486048596.112400) vcan0 3CC#3000000000000000
(1486048596.113109) vcan0 41D#8000600000000000
(1486048596.113161) vcan0 4B0#01008000200000FD
(1486048596.113238) vcan0 186#13C2012C00430400
(1486048596.113313) vcan0 187#D91408C800A00300
(1486048596.117150) vcan0 455#A000000000000000
(1486048596.118153) vcan0 047#2000000000000000
(1486048596.119353) vcan0 165#50C0000000000000
(1486048596.119439) vcan0 217#09480948092C093C
(1486048596.119541) vcan0 167#72807410001A4C00
(1486048596.120350) vcan0 178#000002030E76CA76
(1486048596.120470) vcan0 200#00007FDC807D0000
(1486048596.121225) vcan0 202#0412680060000AD3
(1486048596.121329) vcan0 204#C0A37D02F1000000
(1486048596.121390) vcan0 230#300600008A000000
(1486048596.122357) vcan0 091#7EA27F21C772F000
(1486048596.122461) vcan0 082#930814048A804000
(1486048596.122546) vcan0 085#7C65800053907C46
(1486048596.122626) vcan0 092#6FBA6FD6737D4672
(1486048596.122701) vcan0 261#0000000000000000
(1486048596.123292) vcan0 33B#0000000000000000
(1486048596.123352) vcan0 42F#7D04002E664602D9
(1486048596.124263) vcan0 242#05B32002CE000001
(1486048596.125329) vcan0 3A8#0100272E00000000
(1486048596.126456) vcan0 3CA#FE80080000000000
(1486048596.127431) vcan0 078#0569800000000000
(1486048596.128296) vcan0 167#72807410001A4D00
(1486048596.128384) vcan0 202#0410700060000AD4
(1486048596.129269) vcan0 204#C0A37D02F1000000
(1486048596.129325) vcan0 05A#00000045EC810000
(1486048596.129405) vcan0 076#3E9FC0800FFF0000
(1486048596.130350) vcan0 077#0AD1080E7FF81A08
(1486048596.130455) vcan0 07D#0000FC30001FA7D8
(1486048596.130540) vcan0 213#FFFF00040001F940
(1486048596.130619) vcan0 214#000000000000FC30
(1486048596.131429) vcan0 216#B0B476DE00000000
(1486048596.131519) vcan0 217#09400948092C0938
(1486048596.131597) vcan0 415#0AD9DC12080D080D
(1486048596.131676) vcan0 41D#8000600000000000
(1486048596.131730) vcan0 085#7C6780004FA07C47
(1486048596.132394) vcan0 091#7EC97F1DA373F000
(1486048596.132476) vcan0 092#6FAA6FDF73953473
(1486048596.132553) vcan0 4B0#01008000300000FC
(1486048596.133383) vcan0 186#13C2012C00430400
(1486048596.133437) vcan0 187#D91408C800A00300
(1486048596.133487) vcan0 18A#0020180211000000
(1486048596.134453) vcan0 3E5#0000000080000000
(1486048596.138201) vcan0 047#2000000000000000
(1486048596.139223) vcan0 165#50C0000000000000
(1486048596.139304) vcan0 188#4000000000000000
(1486048596.139364) vcan0 167#72807610001A4D00
(1486048596.139460) vcan0 200#00007FDB807E0000
(1486048596.140228) vcan0 202#040E780060000AD5
(1486048596.140346) vcan0 204#C0A37D02EF000000
(1486048596.140431) vcan0 217#093C094409280938
(1486048596.140511) vcan0 230#300600008A000000
(1486048596.141215) vcan0 3A7#0E401A045F700000
(1486048596.142232) vcan0 091#7EE47F248074F000
(1486048596.142338) vcan0 082#920814008A804000
(1486048596.142424) vcan0 085#7C6980004CB07C47
(1486048596.142502) vcan0 092#6FA76FE973A02174
(1486048596.142579) vcan0 3CC#3000000000000000
(1486048596.144999) vcan0 3A8#0100272E00000000
(1486048596.147214) vcan0 078#0068000000000000
(1486048596.148209) vcan0 422#000000953802FE02
(1486048596.148308) vcan0 423#9220000000000000
(1486048596.148366) vcan0 3A6#0E401A045F700000
(1486048596.148418) vcan0 430#37000CE6C8867700
(1486048596.149229) vcan0 167#72807610001A4D00
(1486048596.149311) vcan0 202#041D000060000AD5
(1486048596.149409) vcan0 204#C0A37D02EF000000
(1486048596.149468) vcan0 42F#7D04002E664702DB
(1486048596.150105) vcan0 076#3EA0C0800FFF0000
(1486048596.150224) vcan0 077#0ACE08097FF7FE0A
(1486048596.150327) vcan0 07D#0000FB40002087F3
(1486048596.150420) vcan0 213#FFFF00040001F940
(1486048596.151225) vcan0 214#000000000000FB40
(1486048596.151329) vcan0 216#B8BE80E800000000
(1486048596.151416) vcan0 217#0944094009280938
(1486048596.151495) vcan0 415#0ACFE01B080D080D
(1486048596.152219) vcan0 41D#8000600000000000
(1486048596.152293) vcan0 04A#0200000000000000
(1486048596.152350) vcan0 04B#00C0D8D8D8D8C000
(1486048596.152402) vcan0 04C#105FFFC000000000
(1486048596.152453) vcan0 085#7C6A80004BC07C46
(1486048596.153216) vcan0 091#7EF87F315E75F000
(1486048596.153321) vcan0 092#6FB16FED73A60C75
(1486048596.153405) vcan0 186#13C0012C00430400
(1486048596.153482) vcan0 187#D91408C800A00300
(1486048596.154150) vcan0 42C#8C20000008C00000
(1486048596.154210) vcan0 4B0#01008000400000FB
(1486048596.156268) vcan0 3CA#FE80080000000000
(1486048596.158085) vcan0 047#2000000000000000
(1486048596.159097) vcan0 165#50C0000000000000
(1486048596.159172) vcan0 167#72807610001A4E00
(1486048596.159265) vcan0 200#00007FDB807E0000
(1486048596.159322) vcan0 202#041D080060000AD4
(1486048596.160219) vcan0 217#0948094409280934
(1486048596.160339) vcan0 204#C0A47D02EC000000
(1486048596.160423) vcan0 230#300600008A000000
(1486048596.161216) vcan0 091#7F0E7F3F3876F000
(1486048596.162218) vcan0 082#930814008A804000
(1486048596.162324) vcan0 083#4020000008000000
(1486048596.162388) vcan0 085#7C6C800047D07C47
(1486048596.162470) vcan0 092#6FB76FEE73B6F476
(1486048596.163228) vcan0 2A1#FFFFFFFF00000000
(1486048596.164209) vcan0 242#05B32001CE000001
(1486048596.164315) vcan0 3A8#0100272F00000000
(1486048596.167064) vcan0 078#0168800000000000
(1486048596.168092) vcan0 167#72807610001A4E00
(1486048596.169103) vcan0 202#041D100060000AD3
(1486048596.169210) vcan0 204#C0A57D02EC000000
(1486048596.169293) vcan0 261#0000000000000000
(1486048596.170231) vcan0 076#3EA4C0800FFF0000
(1486048596.170348) vcan0 077#0ACC080F7FF8060E
(1486048596.170432) vcan0 07D#0000FA500020D800
(1486048596.170511) vcan0 213#FFFF00040001F940
(1486048596.171105) vcan0 214#000000000000FA50
(1486048596.171211) vcan0 216#C2C68AF100000000
(1486048596.171295) vcan0 217#094C094C09280934
(1486048596.171373) vcan0 415#0AD7E412080E080E
(1486048596.171449) vcan0 41D#8000600000000000
(1486048596.172033) vcan0 091#7F2A7F481277F000
(1486048596.172123) vcan0 085#7C6C800046E07C47
(1486048596.172201) vcan0 092#6FAA6FF173CFE477
(1486048596.172275) vcan0 3CC#3000000000000000
(1486048596.173162) vcan0 4B0#01008000500000FA
(1486048596.173249) vcan0 186#13BE012C00440400
(1486048596.173325) vcan0 187#D81408C800B00300
(1486048596.178033) vcan0 047#2000000000000000
(1486048596.179066) vcan0 165#50C0000000000000
(1486048596.179133) vcan0 167#72807610001A4E00
(1486048596.179186) vcan0 200#00007FDB80800000
(1486048596.180069) vcan0 217#094C094C092C0930
(1486048596.180157) vcan0 202#041C180060000AD3
(1486048596.180229) vcan0 204#C0A57D02E9000000
(1486048596.180296) vcan0 230#300600008A000000
(1486048596.181181) vcan0 42F#7D04002E664702DB
(1486048596.182208) vcan0 091#7F487F46F578F000
(1486048596.182304) vcan0 082#940814048A804000
(1486048596.182384) vcan0 085#7C6D800044F07C47
(1486048596.182468) vcan0 092#6F916FF573E2E578
(1486048596.182541) vcan0 33B#0000000000000000
(1486048596.185068) vcan0 3A8#0100273400000000
(1486048596.186083) vcan0 456#8000000000000000
(1486048596.187206) vcan0 3CA#FE80080000000000
(1486048596.187281) vcan0 05D#835CA7652A000000
(1486048596.187373) vcan0 078#0168800000000000
(1486048596.188204) vcan0 167#72807710001A4F00
(1486048596.189210) vcan0 202#041A200060000AD4
(1486048596.189317) vcan0 204#C0A67D02E9000000
(1486048596.190218) vcan0 076#3EA7C0800FFF0000
(1486048596.190323) vcan0 077#0ACB08167FF7FE0F
(1486048596.190399) vcan0 07D#0000F96000219810
(1486048596.190471) vcan0 213#FFFF00040001F940
(1486048596.191097) vcan0 214#000000000000F960
(1486048596.191191) vcan0 216#CCD093FB00000000
(1486048596.191267) vcan0 217#0948095009340928
(1486048596.191337) vcan0 415#0AE1E807080E080E
(1486048596.191406) vcan0 41D#8000600000000000
(1486048596.192007) vcan0 091#7F527F3AF679F000
(1486048596.192082) vcan0 085#7C6D800054007C46
(1486048596.192147) vcan0 092#6F7B6FF973DBFD79
(1486048596.192210) vcan0 4B0#01008000600000F9
(1486048596.193000) vcan0 186#13C1012C00440400
(1486048596.193071) vcan0 187#D81408C800B00300
(1486048596.197992) vcan0 047#2000000000000000
(1486048596.199337) vcan0 05C#805000F6201E0000
(1486048596.199442) vcan0 165#50C0000000000000
(1486048596.199499) vcan0 167#72807810001A4F00
(1486048596.199569) vcan0 200#00007FDB80810000
(1486048596.200218) vcan0 217#0944094C09300930
(1486048596.200311) vcan0 202#0417280060000AD6
(1486048596.200386) vcan0 204#C0A67D02E6000000
(1486048596.200455) vcan0 230#300600008A000000
(1486048596.201150) vcan0 091#7F377F2F1B7AF000
(1486048596.202340) vcan0 082#960814008A804000
(1486048596.202444) vcan0 085#7C6F800050107C47
(1486048596.202520) vcan0 092#6F766FF673BC237A
(1486048596.202590) vcan0 3CC#3000000000000000
(1486048596.203455) vcan0 242#05B32001CE000001
(1486048596.204440) vcan0 3A8#0100273700000000
(1486048596.205458) vcan0 3EB#C604140000200000
(1486048596.205525) vcan0 40A#C110409060250000
(1486048596.206456) vcan0 42C#8C20000008C00000
(1486048596.207579) vcan0 078#0068000000000000
(1486048596.208458) vcan0 167#72807810001A4F00
(1486048596.209469) vcan0 202#0414300060000AD8
(1486048596.209562) vcan0 204#C0A67D02E6000000
(1486048596.209619) vcan0 42F#7D04002E664802DC
(1486048596.209692) vcan0 076#3EA8C0800FFF0000
(1486048596.210477) vcan0 077#0ACA08127FF7CE12
(1486048596.210581) vcan0 07D#0000F8700021C81D
(1486048596.210683) vcan0 213#FFFF00040001FA40
(1486048596.210797) vcan0 214#000000000000F870
(1486048596.210881) vcan0 216#D5DA9D0500000000
(1486048596.211726) vcan0 217#094009480938092C
(1486048596.211843) vcan0 415#0ADAEC0D080E080E
(1486048596.211930) vcan0 416#5F00EF0001000000
(1486048596.212009) vcan0 085#7C7080004E207C47
(1486048596.212514) vcan0 091#7EFC7F295C7BF000
(1486048596.212596) vcan0 092#6F816FE973A33D7B
(1486048596.212668) vcan0 41D#8000600000000000
(1486048596.212722) vcan0 186#13C5012C00440400
(1486048596.213495) vcan0 187#D81408C800B00300
(1486048596.213551) vcan0 4B0#01008000700000F8
(1486048596.214871) vcan0 265#2001010410000000
(1486048596.215879) vcan0 453#3257364570646166
(1486048596.216869) vcan0 3CA#FE80080000000000
(1486048596.217936) vcan0 3E2#0000000080000000
(1486048596.218932) vcan0 047#2000000000000000
(1486048596.218985) vcan0 165#50C0000000000000
(1486048596.219932) vcan0 217#093C094809340930
(1486048596.220009) vcan0 167#72807810001A4F00
(1486048596.220054) vcan0 178#000001FA0E76CA76
(1486048596.220112) vcan0 200#00007FDB80810000
(1486048596.221048) vcan0 202#0413380060000AD8
(1486048596.221134) vcan0 204#C0A67D02E2000000
(1486048596.221196) vcan0 230#300600008A000000
(1486048596.221236) vcan0 261#0000000000000000
(1486048596.221940) vcan0 091#7EC17F2A957CF000
(1486048596.222017) vcan0 082#960814008A804000
(1486048596.222062) vcan0 085#7C7180004D307C46
(1486048596.222121) vcan0 092#6F976FD873A1397C
(1486048596.224549) vcan0 455#A000000000000000
(1486048596.225656) vcan0 3A8#0100273700000000
(1486048596.227007) vcan0 078#0569800000000000
(1486048596.228026) vcan0 167#72807810001A4F00
(1486048596.229125) vcan0 202#0412400060000AD8
(1486048596.229217) vcan0 204#C0A67D02E2000000
(1486048596.229263) vcan0 05A#00000045F2210000
(1486048596.229321) vcan0 168#0000000000000000
(1486048596.230070) vcan0 076#3EAAC0800FFF0000
(1486048596.230147) vcan0 077#0ACA080C7FF7D60D
(1486048596.230209) vcan0 07D#0000F7800020C802
(1486048596.230265) vcan0 213#FFFF00040001FA40
(1486048596.231062) vcan0 214#000000000000F780
(1486048596.231137) vcan0 216#DFE3A50E00000000
(1486048596.231198) vcan0 217#093C094809380944
(1486048596.231256) vcan0 415#0AD0F016080F080F
(1486048596.231993) vcan0 41D#8000600000000000
(1486048596.232036) vcan0 085#7C7280004A407C47
(1486048596.232095) vcan0 091#7E9F7F32AE7DF000
(1486048596.232151) vcan0 092#6FAE6FD173B1187D
(1486048596.233126) vcan0 186#13C5012C00440400
(1486048596.233168) vcan0 187#D81408C800B00300
(1486048596.233204) vcan0 18A#0020180211000000
(1486048596.233240) vcan0 3CC#3000000000000000
(1486048596.233277) vcan0 4B0#01008000800000F7
(1486048596.237998) vcan0 047#2000000000000000
(1486048596.239176) vcan0 165#50C0000000000000
(1486048596.239231) vcan0 167#72807810001A4F00
(1486048596.239272) vcan0 200#00007FDB80810000
(1486048596.240185) vcan0 217#093C094C0938094C
(1486048596.240261) vcan0 202#0413480060000AD6
(1486048596.240323) vcan0 204#C0A67D02DE000000
(1486048596.240381) vcan0 230#300600008A000000
(1486048596.241175) vcan0 42F#7D04002E664802DC
(1486048596.242197) vcan0 091#7E9A7F3AAA7EF000
(1486048596.242274) vcan0 082#970814008A804000
(1486048596.242335) vcan0 085#7C73800048507C47
(1486048596.242392) vcan0 092#6FC06FDC73B4F77E
(1486048596.242447) vcan0 33B#0000000000000000
(1486048596.243428) vcan0 242#05B32000CE000001
(1486048596.244427) vcan0 3A8#0100273A00000000
(1486048596.246301) vcan0 3CA#FE80080000000000
(1486048596.247305) vcan0 078#0168800000000000
(1486048596.247381) vcan0 422#000000953802FE02
(1486048596.248308) vcan0 423#9220000000000000
(1486048596.248362) vcan0 430#37000CE6C8867700
(1486048596.248404) vcan0 167#72807810001A5000
(1486048596.248468) vcan0 202#0413500060000AD5
(1486048596.249429) vcan0 204#C0A67D02DE000000
(1486048596.249481) vcan0 076#3EACC0800FFF0000
(1486048596.250439) vcan0 077#0ACB080F7FF80206
(1486048596.250515) vcan0 07D#0000F690002107E6
(1486048596.250577) vcan0 213#FFFF00040001FB40
(1486048596.250634) vcan0 214#000000000000F690
(1486048596.250690) vcan0 216#E9EDAF1800000000
(1486048596.251432) vcan0 217#093C094C093C0954
(1486048596.251509) vcan0 415#0AD2F413080F080F
(1486048596.251571) vcan0 41D#8000600000000000
(1486048596.251611) vcan0 04A#0200000000000000
(1486048596.252433) vcan0 04B#00C0D8D8D8D8C000
(1486048596.252487) vcan0 04C#105FFFC000000000
(1486048596.252529) vcan0 085#7C74800046607C47
(1486048596.252594) vcan0 091#7EAB7F3F937FF000
(1486048596.253367) vcan0 092#6FCA6FF2739AF07F
(1486048596.253430) vcan0 186#13C8012C00440400
(1486048596.253487) vcan0 187#D81408C800B00300
(1486048596.253526) vcan0 4B0#01008000900000F6
(1486048596.254426) vcan0 42C#8C20000008C00000
(1486048596.258049) vcan0 047#2000000000000000
(1486048596.259064) vcan0 165#50C0000000000000
(1486048596.259119) vcan0 167#72807A10001A5000
(1486048596.259188) vcan0 200#00007FDB80820000
(1486048596.259247) vcan0 202#0413580060000AD4
(1486048596.259991) vcan0 217#0944095009380950
(1486048596.260051) vcan0 204#C0A67D02DA000000
(1486048596.260103) vcan0 230#300600008A000000
(1486048596.261105) vcan0 091#7EC67F427480F000
(1486048596.262184) vcan0 082#970814008A804000
(1486048596.262236) vcan0 083#4020000008000000
(1486048596.262277) vcan0 085#7C74800045707C47
(1486048596.262342) vcan0 092#6FC5700473770480
(1486048596.263282) vcan0 2A1#FFFFFFFF00000000
(1486048596.263336) vcan0 3CC#3000000000000000
(1486048596.264927) vcan0 3A8#0100273B00000000
(1486048596.267061) vcan0 078#0068000000000000
(1486048596.268158) vcan0 167#72807A10001A5000
(1486048596.269168) vcan0 202#0412600060000AD4
(1486048596.269254) vcan0 204#C0A67D02DA000000
(1486048596.269298) vcan0 261#0000000000000000
(1486048596.270280) vcan0 076#3EAEC0800FFF0000
(1486048596.270384) vcan0 077#0ACC08137FF82210
(1486048596.270452) vcan0 07D#0000F5A00020A7EA
(1486048596.270525) vcan0 213#FFFF00040001FC40
(1486048596.271002) vcan0 214#000000000000F5A0
(1486048596.271068) vcan0 216#F2F7B92200000000
(1486048596.271124) vcan0 217#09480950093C0950
(1486048596.271179) vcan0 415#0ADCF80808100810
(1486048596.272112) vcan0 41D#8000600000000000
(1486048596.272154) vcan0 085#7C74800044807C47
(1486048596.272211) vcan0 091#7EE87F415281F000
(1486048596.272265) vcan0 092#6FB5700F73631C81
(1486048596.272318) vcan0 186#13CA012C00440400
(1486048596.273107) vcan0 187#D71408C800C00300
(1486048596.273164) vcan0 42F#7D04002E664902DC
(1486048596.273216) vcan0 4B0#01008000A00000F5
(1486048596.276227) vcan0 3CA#FE80080000000000
(1486048596.278101) vcan0 047#2000000000000000
(1486048596.279132) vcan0 165#50C0000000000000
(1486048596.279173) vcan0 167#72807A10001A5000
(1486048596.279211) vcan0 200#00007FDB80830000
(1486048596.279268) vcan0 202#0410680060000AD5
(1486048596.280126) vcan0 217#094C09500948094C
(1486048596.280184) vcan0 204#C0A67D02D7000000
(1486048596.280237) vcan0 230#300600008A000000
(1486048596.281136) vcan0 091#7F087F3E3382F000
(1486048596.282167) vcan0 082#940814008A804000
(1486048596.282246) vcan0 085#7C74800043907C47
(1486048596.282307) vcan0 092#6FA4701573672282
(1486048596.283381) vcan0 242#05B31FFFCE000001
(1486048596.284389) vcan0 3A8#0100273D00000000
(1486048596.286752) vcan0 05D#835D8F6430000000
(1486048596.287822) vcan0 078#0168800000000000
(1486048596.287901) vcan0 169#0080C00000000000
(1486048596.288917) vcan0 167#72807A10001A5000
(1486048596.288977) vcan0 202#040E700060000AD6
(1486048596.289052) vcan0 204#C0A67D02D7000000
(1486048596.290056) vcan0 076#3EAFC0800FFF0000
(1486048596.290144) vcan0 077#0ACE08147FF80A18
(1486048596.290206) vcan0 07D#0000F4B0001FA7FD
(1486048596.290263) vcan0 213#FFFF00040001FE40
(1486048596.290939) vcan0 214#000000000000F4B0
(1486048596.291016) vcan0 216#FC00C22A00000000
(1486048596.291078) vcan0 217#094C09580948094C
(1486048596.291135) vcan0 415#0AE1FC0208110811
(1486048596.291853) vcan0 41D#8000600000000000
(1486048596.291895) vcan0 091#7F1B7F372683F000
(1486048596.291951) vcan0 085#7C74800042A07C47
(1486048596.292007) vcan0 092#6F9A701073742383
(1486048596.292875) vcan0 186#13CB012C00440400
(1486048596.292935) vcan0 187#D71408C800C00300
(1486048596.292973) vcan0 3CC#3000000000000000
(1486048596.293010) vcan0 4B0#01008000B00000F4
(1486048596.298160) vcan0 047#2000000000000000
(1486048596.299170) vcan0 05C#80F000EC201E0000
(1486048596.299255) vcan0 165#50C0000000000000
(1486048596.299300) vcan0 167#72807A10001A5000
(1486048596.300063) vcan0 217#094C095C094C094C
(1486048596.300141) vcan0 200#00007FDB80830000
(1486048596.300186) vcan0 202#040B780060000AD8
(1486048596.300243) vcan0 204#C0A67D02D4000000
(1486048596.301049) vcan0 230#300600008A000000
(1486048596.301104) vcan0 42F#7D04002E664902DC
(1486048596.302194) vcan0 091#7F227F312484F000
(1486048596.302271) vcan0 082#960814048A804000
(1486048596.302333) vcan0 085#7C74800041B07C47
(1486048596.302390) vcan0 092#6F986FFF73783284
(1486048596.303171) vcan0 33B#0000000000000000
(1486048596.304186) vcan0 3B3#4048020F10050002
(1486048596.304239) vcan0 3C3#7EC0000000000000
(1486048596.304280) vcan0 42C#8C20000008C00000
(1486048596.305159) vcan0 3A8#0100273E00000000
(1486048596.306314) vcan0 3CA#FE80080000000000
(1486048596.307299) vcan0 078#0168800000000000
(1486048596.308304) vcan0 167#72807A10001A5100
(1486048596.308381) vcan0 202#0419000060000AD9
(1486048596.309300) vcan0 204#C0A67D02D4000000
(1486048596.309353) vcan0 076#3EAFC0800FFF0000
(1486048596.310604) vcan0 077#0AD208117FF7F218
(1486048596.310723) vcan0 07D#0000F3C0001FF80B
(1486048596.310811) vcan0 213#FFFF00040001FF40
(1486048596.310891) vcan0 214#000000000000F3C0
(1486048596.310969) vcan0 216#060ACC3400000000
(1486048596.311480) vcan0 217#09480958094C094C
(1486048596.311584) vcan0 415#0AEAC00808120812
(1486048596.311672) vcan0 416#5000FE0001000000
(1486048596.311748) vcan0 091#7F217F322385F000
(1486048596.312384) vcan0 085#7C74800040C07C47
(1486048596.312465) vcan0 092#6FA06FF173664985
(1486048596.312536) vcan0 186#13CF012C00440400
(1486048596.312607) vcan0 187#D71408C800C00300
(1486048596.313365) vcan0 41D#8000600000000000
(1486048596.313422) vcan0 4B0#01008000C00000F3
(1486048596.318139) vcan0 455#A000000000000000
(1486048596.319340) vcan0 047#2000000000000000
(1486048596.319426) vcan0 165#50C0000000000000
(1486048596.319484) vcan0 217#09480950094C0948
(1486048596.320345) vcan0 167#72807B10001A5000
(1486048596.320463) vcan0 178#000001FA0E76CA76
(1486048596.320526) vcan0 200#00007FDB80830000
(1486048596.321347) vcan0 202#0415080060000ADC
(1486048596.321466) vcan0 204#C0A67D02D2000000
(1486048596.321552) vcan0 230#300600008A000000
(1486048596.322233) vcan0 091#7F237F361C86F000
(1486048596.322340) vcan0 082#930814008A804000
(1486048596.322425) vcan0 085#7C7480003FD07C47
(1486048596.322502) vcan0 092#6FAE6FEB73436386
(1486048596.323147) vcan0 261#0000000000000000
(1486048596.323204) vcan0 3CC#3000000000000000
(1486048596.324145) vcan0 242#05B32000CE000001
(1486048596.325139) vcan0 3A8#0100273E00000000
(1486048596.327085) vcan0 078#0469000000000000
(1486048596.328216) vcan0 167#72807B10001A5000
(1486048596.329350) vcan0 202#0412100060000ADE
(1486048596.329468) vcan0 05A#00000045E8C10000
(1486048596.329554) vcan0 204#C0A67D02D2000000
(1486048596.330351) vcan0 076#3EAFC0800FFF0000
(1486048596.330434) vcan0 077#0AD6080F7FF7F60F
(1486048596.330533) vcan0 07D#0000F2D0001FB80D
(1486048596.330616) vcan0 213#FFFF00040001FF40
(1486048596.331351) vcan0 214#000000000000F2D0
(1486048596.331457) vcan0 216#0E14D63E00000000
(1486048596.331542) vcan0 217#094C094C0944094C
(1486048596.331621) vcan0 415#0AD9C41808120812
(1486048596.332347) vcan0 085#7C7480003EE07C47
(1486048596.332453) vcan0 091#7F337F3B0687F000
(1486048596.332538) vcan0 092#6FB76FE6732B7687
(1486048596.332617) vcan0 186#13CF012C00440400
(1486048596.333256) vcan0 187#D71408C800C00300
(1486048596.333313) vcan0 18A#0020180211000000
(1486048596.333364) vcan0 41D#8000600000000000
(1486048596.333415) vcan0 42F#7D04002E664902DC
(1486048596.333466) vcan0 4B0#01008000D00000F2
(1486048596.336262) vcan0 3CA#FE80080000000000
(1486048596.338307) vcan0 047#2000000000000000
(1486048596.339583) vcan0 165#50C0000000000000
(1486048596.339658) vcan0 167#72807A10001A5000
(1486048596.339745) vcan0 200#00007FDB80830000
(1486048596.339798) vcan0 217#094C094C09400940
(1486048596.340585) vcan0 202#0412180060000ADD
(1486048596.340689) vcan0 204#C0A67D02D1000000
(1486048596.340766) vcan0 230#300600008A000000
(1486048596.340816) vcan0 3A7#0E401A045F700000
(1486048596.341591) vcan0 091#7F537F45DB88F000
(1486048596.341696) vcan0 082#910814008A804000
(1486048596.342465) vcan0 085#7C7480003DF07C47
(1486048596.342557) vcan0 092#6FB26FDE734A6388
(1486048596.344333) vcan0 3A8#0100273E00000000
(1486048596.346965) vcan0 078#0168800000000000
(1486048596.347956) vcan0 422#000000953802FE02
(1486048596.348022) vcan0 423#9220000000000000
(1486048596.348074) vcan0 3A6#0E401A045F700000
(1486048596.348136) vcan0 430#37000CE6C8867700
(1486048596.349083) vcan0 167#72807910001A5100
(1486048596.349187) vcan0 202#0412200060000ADC
(1486048596.349263) vcan0 204#C0A67D02D1000000
(1486048596.350085) vcan0 076#3EAFC0800FFF0000
(1486048596.350158) vcan0 077#0AD608127FF80E0D
(1486048596.350249) vcan0 07D#0000F1E0001EA813
(1486048596.350399) vcan0 213#FFFF00040001FF40
(1486048596.351075) vcan0 214#000000000000F1E0
(1486048596.351168) vcan0 216#181CDF4700000000
(1486048596.351244) vcan0 217#0950095009340934
(1486048596.351314) vcan0 415#0ADEC81208130813
(1486048596.352062) vcan0 41D#8000600000000000
(1486048596.352128) vcan0 04A#0200000000000000
(1486048596.352181) vcan0 04B#00C0D8D8D8D8C000
(1486048596.352228) vcan0 04C#105FFFC000000000
(1486048596.353076) vcan0 085#7C7480004C007C47
(1486048596.353170) vcan0 091#7F787F4DAD89F000
(1486048596.353246) vcan0 092#6F9B6FDA739A2D89
(1486048596.353316) vcan0 186#13D5012C00440400
(1486048596.353383) vcan0 187#D71408C800C00300
(1486048596.353993) vcan0 3CC#3000000000000000
(1486048596.354046) vcan0 42C#8C20000008C00000
(1486048596.354092) vcan0 4B0#01008000E00000F1
(1486048596.358073) vcan0 047#2000000000000000
(1486048596.359082) vcan0 165#50C0000000000000
(1486048596.359150) vcan0 167#72807910001A5100
(1486048596.359201) vcan0 200#00007FDB80830000
(1486048596.360085) vcan0 217#094C095009340944
(1486048596.360179) vcan0 202#0411280060000ADC
(1486048596.360256) vcan0 204#C0A67D02D1000000
(1486048596.360305) vcan0 230#300600008A000000
(1486048596.361063) vcan0 42F#7D04002E664A02DC
(1486048596.362196) vcan0 091#7F897F4D9B8AF000
(1486048596.362290) vcan0 082#910814008A804000
(1486048596.362347) vcan0 083#4020000008000000
(1486048596.362390) vcan0 085#7C7580004A107C47
(1486048596.362458) vcan0 092#6F876FE173DFF48A
(1486048596.363315) vcan0 2A1#FFFFFFFF00000000
(1486048596.363402) vcan0 33B#0000000000000000
(1486048596.364215) vcan0 242#05B31FFFCE000001
(1486048596.365201) vcan0 3A8#0100273E00000000
(1486048596.366330) vcan0 3CA#FE80080000000000
(1486048596.367324) vcan0 078#0168800000000000
(1486048596.368337) vcan0 167#72807C10001A5300
(1486048596.368431) vcan0 202#0410300060000ADC
(1486048596.369464) vcan0 204#C0A67D02D0000000
(1486048596.369569) vcan0 261#0000000000000000
(1486048596.369626) vcan0 076#3EAFC0800FFF0000
(1486048596.370593) vcan0 077#0AD308187FF7F209
(1486048596.370698) vcan0 07D#0000F0F00020A828
(1486048596.370774) vcan0 213#FFFF00040001FF40
(1486048596.370824) vcan0 214#000000000000F0F0
(1486048596.370892) vcan0 216#2226E95100000000
(1486048596.371465) vcan0 217#094C09540944094C
(1486048596.371559) vcan0 415#0AE2CC0D08140814
(1486048596.371633) vcan0 41D#8000600000000000
(1486048596.371684) vcan0 091#7F737F46B78BF000
(1486048596.372398) vcan0 085#7C76800048207C47
(1486048596.372473) vcan0 092#6F836FEE73E6E38B
(1486048596.372538) vcan0 186#13DC012C00440400
(1486048596.372604) vcan0 187#D61408C800D00300
(1486048596.373370) vcan0 4B0#01008000F00000F0
(1486048596.377965) vcan0 047#2000000000000000
(1486048596.379162) vcan0 165#50C0000000000000
(1486048596.379245) vcan0 167#72807D10001A5200
(1486048596.379321) vcan0 200#00007FDB80830000
(1486048596.379377) vcan0 202#040E380060000ADD
(1486048596.380156) vcan0 217#0948095409500958
(1486048596.380231) vcan0 204#C0A67D02D0000000
(1486048596.380289) vcan0 230#300600008A000000
(1486048596.381122) vcan0 091#7F3E7F3BF68CF000
(1486048596.381185) vcan0 092#6F8A6FF873A7108C
(1486048596.382136) vcan0 082#940814048A804000
(1486048596.382205) vcan0 085#7C76800047307C47
(1486048596.382260) vcan0 3CC#3000000000000000
(1486048596.384101) vcan0 3A8#0100273E00000000
(1486048596.386912) vcan0 05D#835CB76328000000
(1486048596.387777) vcan0 078#0068000000000000
(1486048596.388929) vcan0 167#72807D10001A5200
(1486048596.389010) vcan0 202#040C400060000ADE
(1486048596.389074) vcan0 204#C0A67D02CF000000
(1486048596.389954) vcan0 42F#7D04002E664A02DB
(1486048596.390040) vcan0 076#3EB0C0800FFF0000
(1486048596.390101) vcan0 077#0AD408157FF7D60F
(1486048596.390158) vcan0 07D#0000FF000021F827
(1486048596.390930) vcan0 213#FFFF00040001FF40
(1486048596.391012) vcan0 214#000000000000FF00
(1486048596.391073) vcan0 216#2B30F35B00000000
(1486048596.391128) vcan0 217#0948095809580958
(1486048596.391870) vcan0 415#0AE3D00B08140814
(1486048596.391928) vcan0 091#7EFD7F363C8DF000
(1486048596.391979) vcan0 085#7C76800047407C46
(1486048596.392029) vcan0 092#6F9570027358488D
(1486048596.392843) vcan0 186#13EA012C00450400
(1486048596.392899) vcan0 187#D61408C800D00300
(1486048596.392947) vcan0 41D#8000600000000000
(1486048596.392995) vcan0 4B0#01008000000000FF
(1486048596.396229) vcan0 3CA#FE80080000000000
(1486048596.397975) vcan0 047#2000000000000000
(1486048596.399055) vcan0 05C#809000F2201E0000
(1486048596.399131) vcan0 165#50C0000000000000
(1486048596.399190) vcan0 167#72807D10001A5100
(1486048596.399247) vcan0 200#00007FDB80830000
(1486048596.400055) vcan0 217#0948095C09600964
(1486048596.400132) vcan0 202#040B480060000ADE
(1486048596.400194) vcan0 204#C0A67D02CF000000
(1486048596.400247) vcan0 230#300600008A000000
(1486048596.400988) vcan0 596#9600FFFFFFFFFFFF
(1486048596.401043) vcan0 091#7EC77F36718EF000
(1486048596.402109) vcan0 092#6FA570097321678E
(1486048596.402168) vcan0 082#970814008A804000
(1486048596.402220) vcan0 085#7C77800044507C47
(1486048596.403352) vcan0 242#05B31FFECE000001
(1486048596.404477) vcan0 40A#C000000740900200
(1486048596.404534) vcan0 42C#8C20000008C00000
(1486048596.405476) vcan0 3A8#0100274000000000
(1486048596.406877) vcan0 078#0168800000000000
(1486048596.407999) vcan0 167#72807B10001A5300
(1486048596.409051) vcan0 202#0409500060000ADF
(1486048596.409127) vcan0 204#C0A67D02CF000000
(1486048596.410176) vcan0 076#3EB1C0800FFF0000
(1486048596.410262) vcan0 077#0AD808107FF7EA14
(1486048596.410322) vcan0 07D#0000FE10001F7802
(1486048596.410380) vcan0 213#FFFF000400020140
(1486048596.411178) vcan0 214#000000000000FE10
(1486048596.411263) vcan0 216#3539FB6400000000
(1486048596.411323) vcan0 186#13F3012C00450400
(1486048596.411379) vcan0 187#D61408C800D00300
(1486048596.411429) vcan0 217#0948096009500958
(1486048596.412121) vcan0 091#7E9F7F39958FF000
(1486048596.412180) vcan0 085#7C78800042607C47
(1486048596.412232) vcan0 092#6FB9700A730D658F
(1486048596.412281) vcan0 3CC#3000000000000000
(1486048596.413105) vcan0 415#0AE5D40808140814
(1486048596.413160) vcan0 416#5100FD0001000000
(1486048596.413210) vcan0 41D#8000600000000000
(1486048596.413257) vcan0 41E#0000000000000000
(1486048596.414105) vcan0 4B0#01008000100000FE
(1486048596.417100) vcan0 455#A000000000000000
(1486048596.418102) vcan0 047#2000000000000000
(1486048596.419184) vcan0 165#50C0000000000000
(1486048596.419257) vcan0 217#094C095C09440944
(1486048596.419319) vcan0 167#72807B10001A5300
(1486048596.420415) vcan0 178#000001FE0E76CA76
(1486048596.420500) vcan0 200#00007FDB80830000
(1486048596.421421) vcan0 202#0407580060000AE0
(1486048596.421507) vcan0 204#C0A67D02CF000000
(1486048596.421566) vcan0 230#300600008A000000
(1486048596.422319) vcan0 091#7E827F3DAD90F000
(1486048596.422395) vcan0 082#960814008A804000
(1486048596.422455) vcan0 085#7C78800041707C47
(1486048596.422510) vcan0 092#6FC8700273234790
(1486048596.422562) vcan0 261#0000000000000000
(1486048596.423222) vcan0 33B#0000000000000000
(1486048596.423277) vcan0 42F#7D04002E664B02DB
(1486048596.424338) vcan0 3A8#0100274000000000
(1486048596.426230) vcan0 3CA#FE80080000000000
(1486048596.427246) vcan0 078#0769800000000000
(1486048596.428294) vcan0 167#72807E10001A5200
(1486048596.428381) vcan0 202#0405600060000AE1
(1486048596.429419) vcan0 204#C0A67D02D0000000
(1486048596.429483) vcan0 05A#00000045EE610000
(1486048596.429525) vcan0 076#3EB2C0800FFF0000
(1486048596.430442) vcan0 077#0ADC08117FF80E17
(1486048596.430497) vcan0 07D#0000FD20001E17E6
(1486048596.430542) vcan0 213#FFFF000400020040
(1486048596.430581) vcan0 214#000000000000FD20
(1486048596.431435) vcan0 186#13F3012C00450400
(1486048596.431488) vcan0 187#D61408C800D00300
(1486048596.431527) vcan0 18A#0020180211000000
(1486048596.431563) vcan0 216#3F43056E00000000
(1486048596.431604) vcan0 085#7C7980003F807C47
(1486048596.432434) vcan0 091#7E727F3FBA91F000
(1486048596.432490) vcan0 092#6FD06FFA73591191
(1486048596.432535) vcan0 217#0950095009300938
(1486048596.432575) vcan0 415#0AE5D80708150815
(1486048596.433428) vcan0 41D#8000600000000000
(1486048596.433481) vcan0 4B0#01008000200000FD
(1486048596.438047) vcan0 047#2000000000000000
(1486048596.439029) vcan0 165#50C0000000000000
(1486048596.439077) vcan0 167#72807D10001A5200
(1486048596.439123) vcan0 200#00007FDB80830000
(1486048596.439161) vcan0 202#0404680060000AE1
(1486048596.440052) vcan0 217#0958095009300934
(1486048596.440108) vcan0 204#C0A67D02D0000000
(1486048596.440149) vcan0 230#300600008A000000
(1486048596.441297) vcan0 091#7E797F3CB592F000
(1486048596.442300) vcan0 082#910814008A804000
(1486048596.442364) vcan0 085#7C7980003E907C47
(1486048596.442411) vcan0 092#6FCF6FED738EE992
(1486048596.442451) vcan0 3CC#3000000000000000
(1486048596.443538) vcan0 242#05B32000CE000001
(1486048596.444538) vcan0 3A8#0100274100000000
(1486048596.447044) vcan0 078#0068000000000000
(1486048596.448039) vcan0 422#000000953802FE02
(1486048596.448099) vcan0 423#9220000000000000
(1486048596.448138) vcan0 430#3F000CE6E8867700
(1486048596.449044) vcan0 167#72807D10001A5200
(1486048596.449125) vcan0 202#0402700060000AE2
(1486048596.449173) vcan0 204#C0A67D02D0000000
(1486048596.450175) vcan0 42F#7D04002E664A02DA
(1486048596.450240) vcan0 076#3EB3C0800FFF0000
(1486048596.450288) vcan0 077#0ADA08137FF82A12
(1486048596.450327) vcan0 07D#0000FC30001F77D8
(1486048596.451064) vcan0 213#FFFF00040001FF40
(1486048596.451120) vcan0 214#000000000000FC30
(1486048596.451162) vcan0 216#494D0F7600000000
(1486048596.451200) vcan0 186#13F9012C00450400
(1486048596.451238) vcan0 04A#0200000000000000
(1486048596.452058) vcan0 04B#00C0D8D8D8D8C000
(1486048596.452111) vcan0 04C#105FFFC000000000
(1486048596.452153) vcan0 085#7C7980003EA07C46
(1486048596.452195) vcan0 091#7E9C7F379693F000
(1486048596.453056) vcan0 092#6FC86FDB73B1DE93
(1486048596.453114) vcan0 187#D61408C800D00300
(1486048596.453154) vcan0 217#0954094809240934
(1486048596.453194) vcan0 415#0AE5DC0608150815
(1486048596.454037) vcan0 41D#8000600000000000
(1486048596.454089) vcan0 4B0#01008000300000FC
(1486048596.455047) vcan0 42C#8C20000008C00000
(1486048596.456303) vcan0 3CA#FE80080000000000
(1486048596.458047) vcan0 047#2000000000000000
(1486048596.459066) vcan0 165#50C0000000000000
(1486048596.459120) vcan0 167#72807C10001A5200
(1486048596.459191) vcan0 200#00007FDB80830000
(1486048596.459234) vcan0 202#0401780060000AE2
(1486048596.460052) vcan0 217#0950094C09280938
(1486048596.460107) vcan0 204#C0A67D02D0000000
(1486048596.460148) vcan0 230#300600008A000000
(1486048596.461175) vcan0 091#7EC97F306F94F000
(1486048596.462315) vcan0 082#970814008A804000
(1486048596.462371) vcan0 083#4020000008000000
(1486048596.462412) vcan0 085#7C7980003DB07C46
(1486048596.462451) vcan0 092#6FBA6FD373C1E394
(1486048596.463297) vcan0 2A1#FFFFFFFF00000000
(1486048596.464300) vcan0 3A8#0100274300000000
(1486048596.466809) vcan0 078#0168800000000000
(1486048596.468163) vcan0 167#72807D10001A5400
(1486048596.469169) vcan0 202#0410000060000AE2
(1486048596.469244) vcan0 204#C0A67D02D2000000
(1486048596.469307) vcan0 261#0000000000000000
(1486048596.470063) vcan0 076#3EB4C0800FFF0000
(1486048596.470154) vcan0 077#0AD608117FF81E09
(1486048596.470221) vcan0 07D#0000FB40002107E5
(1486048596.470283) vcan0 213#FFFF00040001FF40
(1486048596.471061) vcan0 214#000000000000FB40
(1486048596.471138) vcan0 186#13FD012C00450400
(1486048596.471199) vcan0 187#D51408C800E00300
(1486048596.471255) vcan0 216#5256188000000000
(1486048596.471309) vcan0 217#094C09540930093C
(1486048596.471990) vcan0 091#7EDF7F2B5D95F000
(1486048596.472047) vcan0 085#7C7A80003AC07C47
(1486048596.472098) vcan0 092#6FA96FD673C5EC95
(1486048596.472148) vcan0 3CC#3000000000000000
(1486048596.473091) vcan0 415#0ADDE00D08150815
(1486048596.473147) vcan0 41D#8000600000000000
(1486048596.473196) vcan0 4B0#01008000400000FB
(1486048596.477978) vcan0 047#2000000000000000
(1486048596.478975) vcan0 165#50C0000000000000
(1486048596.479029) vcan0 167#72807D10001A5400
(1486048596.479078) vcan0 200#00007FDB80830000
(1486048596.480179) vcan0 217#0944095809380940
(1486048596.480256) vcan0 202#0410080060000AE1
(1486048596.480318) vcan0 204#C0A67D02D2000000
(1486048596.480371) vcan0 230#300600008A000000
(1486048596.481097) vcan0 42F#7D04002E664B02DA
(1486048596.482302) vcan0 091#7EC37F2A7996F000
(1486048596.482388) vcan0 082#990814008A804000
(1486048596.482449) vcan0 085#7C7980003BD07C46
(1486048596.482505) vcan0 092#6F986FDF73C4F496
(1486048596.483111) vcan0 33B#0000000000000000
(1486048596.484183) vcan0 242#05B32002CE000001
(1486048596.485135) vcan0 3A8#0100274300000000
(1486048596.486274) vcan0 3CA#FE80080000000000
(1486048596.487268) vcan0 05D#835D9F642C000000
(1486048596.487348) vcan0 078#0168800000000000
(1486048596.488262) vcan0 167#72808010001A5400
(1486048596.488341) vcan0 202#0410100060000AE0
(1486048596.489239) vcan0 204#C0A67D02D3000000
(1486048596.489317) vcan0 076#3EB4C0800FFF0000
(1486048596.490380) vcan0 077#0AD3080D7FF7FE08
(1486048596.490461) vcan0 07D#0000FA50002167FA
(1486048596.490531) vcan0 213#FFFF00040001FE40
(1486048596.490600) vcan0 214#000000000000FA50
(1486048596.490668) vcan0 186#1406012C00450400
(1486048596.491369) vcan0 187#D51408C800E00300
(1486048596.491441) vcan0 216#5C60228A00000000
(1486048596.491510) vcan0 217#09480964093C0940
(1486048596.491579) vcan0 091#7E737F2DC597F000
(1486048596.492363) vcan0 085#7C79800039E07C47
(1486048596.492439) vcan0 092#6F8C6FED73BEF797
(1486048596.492508) vcan0 415#0ADFE40A08160816
(1486048596.492600) vcan0 41D#8000600000000000
(1486048596.493365) vcan0 4B0#01008000500000FA
(1486048596.498196) vcan0 047#2000000000000000
(1486048596.499106) vcan0 05C#803000F8201E0000
(1486048596.499241) vcan0 165#50C0000000000000
(1486048596.499318) vcan0 167#72808010001A5500
(1486048596.499390) vcan0 200#00007FDA80830000
(1486048596.500102) vcan0 217#09480964093C0944
(1486048596.500207) vcan0 202#040F180060000AE0
(1486048596.500292) vcan0 204#C0A67D02D3000000
(1486048596.500363) vcan0 230#300600008A000000
(1486048596.501125) vcan0 091#7E1C7F371198F000
(1486048596.502129) vcan0 082#930814008A804000
(1486048596.502211) vcan0 085#7C7880003AF07C46
(1486048596.502284) vcan0 092#6F976FF873BBE398
(1486048596.502351) vcan0 3CC#3000000000000000
(1486048596.503364) vcan0 42C#8C20000008C00000
(1486048596.504486) vcan0 3A8#0100274300000000
(1486048596.506870) vcan0 078#0068000000000000
(1486048596.508009) vcan0 167#72808010001A5500
(1486048596.509019) vcan0 202#040E200060000AE0
(1486048596.509097) vcan0 204#C0A67D02D2000000
(1486048596.509168) vcan0 42F#7D04002E664C02DA
(1486048596.510221) vcan0 076#3EB4C0800FFF0000
(1486048596.510334) vcan0 077#0AD2080E7FF7E20E
(1486048596.510418) vcan0 07D#0000F960002147D8
(1486048596.510492) vcan0 186#1408012C00450400
(1486048596.511008) vcan0 187#D51408C800E00300
(1486048596.511084) vcan0 213#FFFF00040001FE40
(1486048596.511151) vcan0 214#000000000000F960
(1486048596.511220) vcan0 216#666A2C9300000000
(1486048596.511995) vcan0 091#7DF57F432C99F000
(1486048596.512073) vcan0 085#7C78800049007C46
(1486048596.512142) vcan0 092#6FB5700473B5BD99
(1486048596.512209) vcan0 217#094C095809380940
(1486048596.512989) vcan0 415#0AEEE8FA08160816
(1486048596.513064) vcan0 416#5200FC0001000000
(1486048596.513133) vcan0 41D#8000600000000000
(1486048596.513198) vcan0 4B0#01008000600000F9
(1486048596.516238) vcan0 3CA#FE80080000000000
(1486048596.517906) vcan0 455#A000000000000000
(1486048596.518861) vcan0 047#2000000000000000
(1486048596.518934) vcan0 165#50C0000000000000
(1486048596.519962) vcan0 167#72808010001A5600
(1486048596.520066) vcan0 217#09500948092C0940
(1486048596.520149) vcan0 178#000002000E76CA76
(1486048596.520227) vcan0 200#00007FDA80830000
(1486048596.521099) vcan0 202#040B280060000AE2
(1486048596.521219) vcan0 204#C0A67D02D2000000
(1486048596.521298) vcan0 230#300600008A000000
(1486048596.521976) vcan0 261#0000000000000000
(1486048596.522078) vcan0 091#7E187F4FFB9AF000
(1486048596.522160) vcan0 082#970814088A804000
(1486048596.522235) vcan0 085#7C78800048107C46
(1486048596.522876) vcan0 092#6FD57007739BB39A
(1486048596.523989) vcan0 242#05B32000CE000001
(1486048596.525015) vcan0 3A8#0100274300000000
(1486048596.526769) vcan0 078#0569800000000000
(1486048596.528018) vcan0 167#72808210001A5600
(1486048596.529023) vcan0 202#0408300060000AE4
(1486048596.529103) vcan0 204#C0A67D02D2000000
(1486048596.529172) vcan0 05A#00000045F4010000
(1486048596.530095) vcan0 076#3EB3C0800FFF0000
(1486048596.530202) vcan0 077#0AD108157FF80A15
(1486048596.530284) vcan0 07D#0000F870002117B1
(1486048596.530360) vcan0 186#1408012C00450400
(1486048596.531006) vcan0 187#D51408C800E00300
(1486048596.531084) vcan0 18A#0020180211000000
(1486048596.531156) vcan0 213#FFFF00040001FE40
(1486048596.531225) vcan0 214#000000000000F870
(1486048596.531294) vcan0 216#6E72359D00000000
(1486048596.532121) vcan0 091#7E6C7F55A09BF000
(1486048596.532197) vcan0 085#7C79800045207C47
(1486048596.532267) vcan0 092#6FDC6FF87379DD9B
(1486048596.532334) vcan0 217#094C0944092C093C
(1486048596.533114) vcan0 3CC#3000000000000000
(1486048596.533186) vcan0 415#0ADDEC0A08160816
(1486048596.533255) vcan0 41D#8000600000000000
(1486048596.533321) vcan0 4B0#01008000700000F8
(1486048596.537989) vcan0 047#2000000000000000
(1486048596.538988) vcan0 165#50C0000000000000
(1486048596.539062) vcan0 167#72808210001A5600
(1486048596.539128) vcan0 200#00007FD980830000
(1486048596.540214) vcan0 217#09480948092C0938
(1486048596.540318) vcan0 202#0409380060000AE2
(1486048596.540402) vcan0 204#C0A67D02D2000000
(1486048596.540477) vcan0 230#300600008A000000
(1486048596.541127) vcan0 3A7#0E401A045F700000
(1486048596.541224) vcan0 42F#7D04002E664D02D9
(1486048596.541311) vcan0 091#7EC07F564A9CF000
(1486048596.542121) vcan0 082#990814048A804000
(1486048596.542198) vcan0 085#7C7B800042307C47
(1486048596.542270) vcan0 092#6FC26FDE7378119C
(1486048596.542341) vcan0 33B#0000000000000000
(1486048596.544110) vcan0 3A8#0100274300000000
(1486048596.546367) vcan0 3CA#FE80080000000000
(1486048596.547364) vcan0 078#0168800000000000
(1486048596.547442) vcan0 422#000000953802FE02
(1486048596.547512) vcan0 423#9220000000000000
(1486048596.548390) vcan0 430#37000CE6C8867700
(1486048596.548468) vcan0 3A6#0E401A045F700000
(1486048596.548538) vcan0 167#72808310001A5600
(1486048596.548607) vcan0 202#0409400060000AE1
(1486048596.549363) vcan0 204#C0A67D02D0000000
(1486048596.549438) vcan0 076#3EB3C0800FFF0000
(1486048596.549504) vcan0 077#0AD0081A7FF83611
(1486048596.550370) vcan0 07D#0000F780002007D6
(1486048596.550451) vcan0 186#1407012C00450400
(1486048596.550521) vcan0 187#D51408C800E00300
(1486048596.550589) vcan0 213#FFFF00040001FE40
(1486048596.551376) vcan0 214#000000000000F780
(1486048596.551452) vcan0 04A#0200000000000000
(1486048596.551519) vcan0 04B#00C0D8D8D8D8C000
(1486048596.551583) vcan0 04C#105FFFC000000000
(1486048596.552483) vcan0 085#7C7C800040407C47
(1486048596.552555) vcan0 091#7EE37F54289DF000
(1486048596.552626) vcan0 092#6F996FCD73982A9D
(1486048596.552695) vcan0 216#787C3FA500000000
(1486048596.553488) vcan0 217#0940094C09340938
(1486048596.553562) vcan0 415#0AD9F00D08160816
(1486048596.553630) vcan0 41D#8000600000000000
(1486048596.553695) vcan0 42C#8C20000008C00000
(1486048596.553759) vcan0 4B0#01008000800000F7
(1486048596.557978) vcan0 047#2000000000000000
(1486048596.558989) vcan0 165#50C0000000000000
(1486048596.559065) vcan0 167#72808310001A5600
(1486048596.559125) vcan0 200#00007FD880830000
(1486048596.559186) vcan0 202#0409480060000AE0
(1486048596.560111) vcan0 217#094409580938093C
(1486048596.560177) vcan0 204#C0A67D02D0000000
(1486048596.560239) vcan0 230#300600008A000000
(1486048596.561104) vcan0 091#7ECC7F533F9EF000
(1486048596.562125) vcan0 082#970814008A804000
(1486048596.562225) vcan0 085#7C7C80003F507C47
(1486048596.562291) vcan0 081#0000000000000000
(1486048596.562351) vcan0 083#4020000008000000
(1486048596.563108) vcan0 092#6F816FD373B1229E
(1486048596.563188) vcan0 2A1#FFFFFFFF00000000
(1486048596.563248) vcan0 3CC#3000000000000000
(1486048596.563306) vcan0 3E6#0001040880000000
(1486048596.564113) vcan0 5B3#B300FFFFFFFFFFFF
(1486048596.564177) vcan0 242#05B32000CE000001
(1486048596.565109) vcan0 3A8#0100274300000000
(1486048596.566866) vcan0 078#0068000000000000
(1486048596.568015) vcan0 167#72808310001A5600
(1486048596.569011) vcan0 202#040A500060000ADE
(1486048596.569078) vcan0 204#C0A67D02D0000000
(1486048596.569139) vcan0 261#0000000000000000
(1486048596.570024) vcan0 076#3EB6C0800FFF0000
(1486048596.570097) vcan0 077#0AD0081A7FF7F205
(1486048596.570157) vcan0 07D#0000F690002097FC
(1486048596.570213) vcan0 186#1406012C00450400
(1486048596.570970) vcan0 187#D41408C800F00300
(1486048596.571030) vcan0 213#FFFF00040001FE40
(1486048596.571083) vcan0 214#000000000000F690
(1486048596.571137) vcan0 091#7E957F52769FF000
(1486048596.572106) vcan0 092#6F886FE973A4119F
(1486048596.572166) vcan0 085#7C7C80003E607C47
(1486048596.572220) vcan0 216#828647AF00000000
(1486048596.572274) vcan0 217#093C0950093C093C
(1486048596.573105) vcan0 415#0ADDF40808160816
(1486048596.573165) vcan0 41D#8000600000000000
(1486048596.573217) vcan0 42F#7D04002E664E02D9
(1486048596.573271) vcan0 4B0#01008000900000F6
(1486048596.576231) vcan0 3CA#FE80080000000000
(1486048596.578079) vcan0 047#2000000000000000
(1486048596.579107) vcan0 165#50C0000000000000
(1486048596.579159) vcan0 167#72808310001A5700
(1486048596.579209) vcan0 200#00007FD780830000
(1486048596.579256) vcan0 217#0938094C0938093C
(1486048596.580242) vcan0 202#0409580060000ADE
(1486048596.580294) vcan0 204#C0A67D02D0000000
(1486048596.580338) vcan0 230#300600008A000000
(1486048596.581214) vcan0 091#7E5E7F56A8A0F000
(1486048596.581267) vcan0 092#6FA07006737E00A0
(1486048596.582246) vcan0 082#980814008A804000
(1486048596.582302) vcan0 085#7C7C80003D707C47
(1486048596.582348) vcan0 454#3646200372204242
(1486048596.584223) vcan0 3A8#0100274600000000
(1486048596.586466) vcan0 078#0168800000000000
(1486048596.587479) vcan0 05D#835C876037000000
(1486048596.588604) vcan0 167#72808410001A5700
(1486048596.588649) vcan0 202#0408600060000ADE
(1486048596.589606) vcan0 186#1402012C00460400
(1486048596.589651) vcan0 187#D41408C800F00300
(1486048596.589691) vcan0 076#3EB7C0800FFF0000
(1486048596.589732) vcan0 077#0ACE08197FF7DE0D
(1486048596.590579) vcan0 07D#0000F5A00020D7E3
(1486048596.590625) vcan0 204#C0A67D02CE000000
(1486048596.590666) vcan0 213#FFFF00040001FD40
(1486048596.590705) vcan0 214#000000000000F5A0
(1486048596.591588) vcan0 216#8B8F51B900000000
(1486048596.591633) vcan0 217#093809440938093C
(1486048596.591674) vcan0 091#7E3F7F5EBEA1F000
(1486048596.591713) vcan0 085#7C7D80003B807C47
(1486048596.592586) vcan0 092#6FAE7014735F02A1
(1486048596.592629) vcan0 3CC#3000000000000000
(1486048596.592666) vcan0 415#0AD0F81408170817
(1486048596.592705) vcan0 41D#8000600000000000
(1486048596.593571) vcan0 4B0#01008000A00000F5
(1486048596.597960) vcan0 047#2000000000000000
(1486048596.598947) vcan0 05C#80D000EE201E0000
(1486048596.598991) vcan0 165#50C0000000000000
(1486048596.599030) vcan0 167#72808410001A5700
(1486048596.599981) vcan0 217#093809400934093C
(1486048596.600025) vcan0 200#00007FD780830000
(1486048596.600062) vcan0 202#040A680060000ADB
(1486048596.600100) vcan0 204#C0A67D02CE000000
(1486048596.600948) vcan0 230#300600008A000000
(1486048596.600992) vcan0 42F#7D04002E664E02D9
(1486048596.601965) vcan0 091#7E417F64B5A2F000
(1486048596.602011) vcan0 082#990814008A804000
(1486048596.602052) vcan0 085#7C7F800038907C47
(1486048596.602095) vcan0 092#6FB2700D735A09A2
(1486048596.603083) vcan0 33B#0000000000000000
(1486048596.604087) vcan0 242#05B31FFFCE000001
(1486048596.604131) vcan0 40A#C100334641365030
(1486048596.604170) vcan0 42C#8C20000008C00000
(1486048596.605083) vcan0 3A8#0100274600000000
(1486048596.606236) vcan0 3CA#FE80080000000000
(1486048596.607227) vcan0 078#0168800000000000
(1486048596.608228) vcan0 167#72808410001A5700
(1486048596.608271) vcan0 202#040B700060000AD9
(1486048596.609354) vcan0 204#C0A67D02CE000000
(1486048596.609395) vcan0 186#1402012C00460400
(1486048596.609433) vcan0 187#D41408C800F00300
(1486048596.609470) vcan0 076#3EB7C0800FFF0000
(1486048596.610334) vcan0 077#0ACB081D7FF8021A
(1486048596.610389) vcan0 07D#0000F4B0001F97C8
(1486048596.610431) vcan0 213#FFFF00040001FC40
(1486048596.610470) vcan0 214#000000000000F4B0
(1486048596.611325) vcan0 216#95995BC200000000
(1486048596.611368) vcan0 217#094009400930093C
(1486048596.611407) vcan0 415#0ACAFC1908170817
(1486048596.611445) vcan0 091#7E657F6490A3F000
(1486048596.612324) vcan0 085#7C80800036A07C47
(1486048596.612367) vcan0 092#6FB76FFA736D04A3
(1486048596.612406) vcan0 416#5300FB0001000000
(1486048596.612443) vcan0 41D#8000600000000000
(1486048596.612480) vcan0 4B0#01008000B00000F4
(1486048596.618085) vcan0 047#2000000000000000
(1486048596.619083) vcan0 165#50C0000000000000
(1486048596.619123) vcan0 217#0940093C0934093C
(1486048596.620085) vcan0 167#72808410001A5700
(1486048596.620126) vcan0 178#000001FE0E76CA76
(1486048596.620165) vcan0 200#00007FD680830000
(1486048596.620205) vcan0 202#040D780060000AD6
(1486048596.621075) vcan0 204#C0A67D02CD000000
(1486048596.621121) vcan0 230#300600008A000000
(1486048596.621160) vcan0 261#0000000000000000
(1486048596.622090) vcan0 091#7EAB7F5E4FA4F000
(1486048596.622136) vcan0 082#930814008A804000
(1486048596.622176) vcan0 085#7C82800033B07C47
(1486048596.622218) vcan0 092#6FB86FE77387FBA4
(1486048596.623083) vcan0 3CC#3000000000000000
(1486048596.624082) vcan0 3A8#0100274600000000
(1486048596.625209) vcan0 455#A000000000000000
(1486048596.626861) vcan0 078#0469000000000000
(1486048596.627984) vcan0 167#72808410001A5700
(1486048596.628985) vcan0 186#13FF012C00460400
(1486048596.629029) vcan0 187#D41408C800F00300
(1486048596.629068) vcan0 05A#00000045EAA10000
(1486048596.629993) vcan0 18A#0020180211000000
(1486048596.630036) vcan0 076#3EBAC0800FFF0000
(1486048596.630077) vcan0 077#0ACB081F7FF80E12
(1486048596.630116) vcan0 07D#0000F3C0001FD7D4
(1486048596.630964) vcan0 202#041E000060000AD4
(1486048596.631009) vcan0 204#C0A67D02CD000000
(1486048596.631048) vcan0 213#FFFF00040001FD40
(1486048596.631087) vcan0 214#000000000000F3C0
(1486048596.631964) vcan0 216#9FA364CC00000000
(1486048596.632008) vcan0 085#7C82800033C07C46
(1486048596.632049) vcan0 091#7EFF7F5602A5F000
(1486048596.632089) vcan0 092#6FB16FE2739AF3A5
(1486048596.632128) vcan0 217#0944094009340940
(1486048596.633074) vcan0 415#0AD1C02108170817
(1486048596.633117) vcan0 41D#8000600000000000
(1486048596.633154) vcan0 42F#7D04002E664E02D8
(1486048596.633193) vcan0 4B0#01008000C00000F3
(1486048596.636213) vcan0 3CA#FE80080000000000
(1486048596.638151) vcan0 047#2000000000000000
(1486048596.639125) vcan0 165#50C0000000000000
(1486048596.639173) vcan0 167#72808410001A5700
(1486048596.639214) vcan0 200#00007FD680840000
(1486048596.639257) vcan0 202#041E080060000AD3
(1486048596.640107) vcan0 217#093C09400934093C
(1486048596.640153) vcan0 204#C0A67D02CA000000
(1486048596.640195) vcan0 230#300600008A000000
(1486048596.641091) vcan0 091#7F427F52C1A6F000
(1486048596.642257) vcan0 082#970814008A804000
(1486048596.642325) vcan0 085#7C83800030D07C47
(1486048596.642374) vcan0 092#6FAA6FE57399F7A6
(1486048596.643502) vcan0 084#110000210F260A00
(1486048596.644494) vcan0 242#05B31FFFCE000001
(1486048596.645505) vcan0 3A8#0100274900000000
(1486048596.646496) vcan0 59E#9E00FFFFFFFFFFFF
(1486048596.647411) vcan0 078#0168800000000000
(1486048596.647472) vcan0 422#000000953802FE02
(1486048596.647518) vcan0 423#9220000000000000
(1486048596.648366) vcan0 430#37000CE6C8867700
(1486048596.648411) vcan0 43A#0000020000000000
(1486048596.648452) vcan0 167#72808510001A5700
(1486048596.648495) vcan0 202#041D100060000AD3
(1486048596.649342) vcan0 186#13FE012C00460400
(1486048596.649387) vcan0 187#D41408C800F00300
(1486048596.649425) vcan0 204#C0A67D02CA000000
(1486048596.649463) vcan0 076#3EBDC0800FFF0000
(1486048596.650341) vcan0 077#0ACB081B7FF8060B
(1486048596.650384) vcan0 07D#0000F2D00020A803
(1486048596.650424) vcan0 213#FFFF00040001FD40
(1486048596.650461) vcan0 214#000000000000F2D0
(1486048596.650499) vcan0 216#A7AB6ED500000000
(1486048596.651340) vcan0 217#0934093C0934093C
(1486048596.651387) vcan0 415#0ACEC42308180818
(1486048596.651426) vcan0 41D#8000600000000000
(1486048596.651463) vcan0 04A#0200000000000000
(1486048596.652464) vcan0 04B#00C0D8D8D8D8C000
(1486048596.652507) vcan0 04C#105FFFC000000000
(1486048596.652547) vcan0 085#7C8480002EE07C47
(1486048596.652586) vcan0 091#7F5C7F53A5A7F000
(1486048596.653449) vcan0 092#6F9D6FED738C08A7
(1486048596.653491) vcan0 3CC#3000000000000000
(1486048596.653529) vcan0 4B0#01008000D00000F2
(1486048596.653567) vcan0 42C#8C20000008C00000
(1486048596.656582) vcan0 3D8#0000000080456030
(1486048596.657557) vcan0 3CD#0000000000000000
(1486048596.658597) vcan0 047#2000000000000000
(1486048596.658626) vcan0 165#50C0000000000000
(1486048596.658652) vcan0 167#72808510001A5700
(1486048596.659599) vcan0 200#00007FD580840000
(1486048596.659633) vcan0 217#0934094009340944
(1486048596.659663) vcan0 202#041D180060000AD2
(1486048596.660599) vcan0 204#C0A67D02C9000000
(1486048596.660630) vcan0 230#300600008A000000
(1486048596.660659) vcan0 42F#7D04002E664E02D8
(1486048596.661781) vcan0 091#7F4F7F54B0A8F000
(1486048596.661856) vcan0 082#990814008A804000
(1486048596.661891) vcan0 085#7C8580002CF07C47
(1486048596.662781) vcan0 083#4020000008000000
(1486048596.662824) vcan0 092#6F906FF6738116A8
(1486048596.662859) vcan0 2A1#FFFFFFFF00000000
(1486048596.662888) vcan0 33B#0000000000000000
(1486048596.664271) vcan0 3A8#0100274C00000000
(1486048596.666370) vcan0 3CA#FE80080000000000
(1486048596.667367) vcan0 078#0168800000000000
(1486048596.668381) vcan0 167#72808510001A5800
(1486048596.668432) vcan0 202#041D200060000AD1
(1486048596.669515) vcan0 186#13FA012C00460400
(1486048596.669567) vcan0 187#E31408C800000300
(1486048596.669603) vcan0 204#C0A67D02C9000000
(1486048596.669631) vcan0 076#3EBEC0800FFF0000
(1486048596.670525) vcan0 077#0ACA081A7FF7F60E
(1486048596.670590) vcan0 07D#0000F1E000206820
(1486048596.670626) vcan0 213#FFFF00040001FD40
(1486048596.670657) vcan0 214#000000000000F1E0
(1486048596.671409) vcan0 216#B1B578DF00000000
(1486048596.671454) vcan0 217#0930094009340940
(1486048596.671488) vcan0 261#0000000000000000
(1486048596.671519) vcan0 415#0AC5C82B08180818
(1486048596.671551) vcan0 085#7C8680003B007C46
(1486048596.672403) vcan0 091#7F277F55D6A9F000
(1486048596.672448) vcan0 092#6F906FFA737F13A9
(1486048596.672484) vcan0 41D#8000600000000000
(1486048596.672514) vcan0 4B0#01008000E00000F1
(1486048596.678126) vcan0 047#2000000000000000
(1486048596.679132) vcan0 165#50C0000000000000
(1486048596.679174) vcan0 167#72808510001A5700
(1486048596.679209) vcan0 200#00007FD580840000
(1486048596.679238) vcan0 202#041E280060000ACF
(1486048596.680150) vcan0 217#0938094C09300944
(1486048596.680195) vcan0 204#C0A67D02C6000000
(1486048596.680228) vcan0 230#300600008A000000
(1486048596.681138) vcan0 091#7EF87F5901AAF000
(1486048596.682256) vcan0 082#990814048A804000
(1486048596.682307) vcan0 085#7C88800037107C47
(1486048596.682339) vcan0 092#6F946FFE738306AA
(1486048596.682371) vcan0 3CC#3000000000000000
(1486048596.683398) vcan0 242#05B31FFECE000001
(1486048596.684396) vcan0 3A8#0100274D00000000
(1486048596.686772) vcan0 078#0068000000000000
(1486048596.687995) vcan0 05D#835CAF6528000000
(1486048596.688913) vcan0 186#13F4012C00460400
(1486048596.688959) vcan0 167#72808510001A5700
(1486048596.688991) vcan0 187#E31408C800000300
