(1486050214.798817) vcan0 083#4020000008000000
(1486050214.800009) vcan0 04A#0200000000000000
(1486050214.800052) vcan0 04B#00C0D8D8D8D8C000
(1486050214.800982) vcan0 04C#105FFFC000000000
(1486050214.801026) vcan0 091#7EEF7EEC5FC3F000
(1486050214.801058) vcan0 092#6FA86F86736B69C3
(1486050214.801083) vcan0 047#2000000000000000
(1486050214.801981) vcan0 217#102C1030102C1030
(1486050214.802026) vcan0 165#10C3460000000000
(1486050214.802054) vcan0 167#727FD2100019C700
(1486050214.802079) vcan0 200#00007FD67FD60000
(1486050214.802898) vcan0 082#7D0814009F804000
(1486050214.802936) vcan0 085#7C4080007F907C3F
(1486050214.802966) vcan0 202#04FF2800608512E6
(1486050214.802990) vcan0 204#C0007D0278000000
(1486050214.803889) vcan0 230#500600009D000000
(1486050214.803926) vcan0 186#13F3026000850400
(1486050214.803952) vcan0 187#DF1408C800400300
(1486050214.808624) vcan0 242#05B32116DF000001
(1486050214.809736) vcan0 3B3#4048020F10050002
(1486050214.809778) vcan0 3C3#62C0000000000000
(1486050214.809859) vcan0 40A#C104014107F670C1
(1486050214.809887) vcan0 091#7EE17EEB6DC4F000
(1486050214.810644) vcan0 092#6FAD6F8273765CC4
(1486050214.810681) vcan0 42C#8C20000008C00000
(1486050214.810706) vcan0 455#A000000000000000
(1486050214.811635) vcan0 167#727FD2100019C700
(1486050214.811670) vcan0 076#3E80C0800FFF0000
(1486050214.811697) vcan0 077#12E907FD7FF7EDF6
(1486050214.811723) vcan0 07D#0000F870001FB802
(1486050214.811746) vcan0 202#04FE3000608512E6
(1486050214.812738) vcan0 085#7C4080007EA07C3F
(1486050214.812782) vcan0 204#C0007D0278000000
(1486050214.812809) vcan0 213#FFFF00040001FC40
(1486050214.812844) vcan0 214#000000000000F870
(1486050214.813705) vcan0 216#4D01802200000000
(1486050214.813741) vcan0 217#102C1030102C102C
(1486050214.813774) vcan0 261#0000000000000000
(1486050214.813796) vcan0 3A8#0100271000000000
(1486050214.814736) vcan0 3CA#FE80183300000000
(1486050214.814772) vcan0 3CC#B000000000000000
(1486050214.814806) vcan0 415#12E7ECF808000800
(1486050214.814840) vcan0 41D#8000600000000000
(1486050214.815710) vcan0 42F#7D04002E65F6027C
(1486050214.815746) vcan0 4B0#01008000700000F8
(1486050214.815777) vcan0 3A7#0E423A045F700000
(1486050214.816690) vcan0 078#0168800000000000
(1486050214.817690) vcan0 422#000000923802FE02
(1486050214.817725) vcan0 423#92E0000000000000
(1486050214.817748) vcan0 430#37000CF8C88CF700
(1486050214.819440) vcan0 091#7ED97EEA75C5F000
(1486050214.820479) vcan0 092#6FB56F80737E4DC5
(1486050214.820512) vcan0 047#2000000000000000
(1486050214.821480) vcan0 217#1028102C102C1028
(1486050214.821513) vcan0 165#10C3460000000000
(1486050214.821536) vcan0 167#727FD2100019C700
(1486050214.821556) vcan0 200#00007FD67FD60000
(1486050214.822513) vcan0 202#04FD3800608512E6
(1486050214.822561) vcan0 082#7E0814009F804000
(1486050214.822597) vcan0 085#7C4080007DB07C3F
(1486050214.822631) vcan0 204#C0007D0278000000
(1486050214.823472) vcan0 230#500600009D000000
(1486050214.823497) vcan0 186#13F2026000850400
(1486050214.823531) vcan0 187#DF1408C800400300
(1486050214.829454) vcan0 091#7ED97EEA74C6F000
(1486050214.830598) vcan0 092#6FB76F80737C4CC6
(1486050214.831598) vcan0 167#727FD2100019C700
(1486050214.831639) vcan0 076#3E80C0800FFF0000
(1486050214.831662) vcan0 077#12E707FD7FF7FDF3
(1486050214.831703) vcan0 07D#0000F780002017F8
(1486050214.832489) vcan0 202#04FC4000608512E6
(1486050214.832525) vcan0 085#7C4080007CC07C3F
(1486050214.832558) vcan0 204#C0007D0279000000
(1486050214.832591) vcan0 213#FFFF00040001FC40
(1486050214.833482) vcan0 214#000000000000F780
(1486050214.833517) vcan0 216#5D11903100000000
(1486050214.833549) vcan0 217#1028103010301028
(1486050214.833580) vcan0 3A8#0100271000000000
(1486050214.834444) vcan0 415#12E5F0F908000800
(1486050214.834479) vcan0 41D#8000600000000000
(1486050214.834502) vcan0 4B0#01008000800000F7
(1486050214.836351) vcan0 078#0068000000000000
(1486050214.838350) vcan0 3C3#7EC0000000000000
(1486050214.839514) vcan0 091#7EDE7EEA6EC7F000
(1486050214.840602) vcan0 092#6FB66F8473784CC7
(1486050214.840660) vcan0 047#2000000000000000
(1486050214.841459) vcan0 217#1028102C102C1028
(1486050214.841499) vcan0 05C#809000F2201E0000
(1486050214.841535) vcan0 165#10C3460000000000
(1486050214.841559) vcan0 167#727FD2100019C700
(1486050214.842440) vcan0 3CA#FE80383800000000
(1486050214.842475) vcan0 082#7F0814009F804000
(1486050214.842509) vcan0 085#7C4080007BD07C3F
(1486050214.842542) vcan0 200#00007FD67FD60000
(1486050214.843435) vcan0 202#04FC4800608512E5
(1486050214.843469) vcan0 186#13F2026000850400
(1486050214.843492) vcan0 187#DF1408C800400300
(1486050214.843514) vcan0 204#C0007D0279000000
(1486050214.844448) vcan0 230#500600009D000000
(1486050214.844471) vcan0 3CC#B000000000000000
(1486050214.844493) vcan0 42F#7D04002E65F6027C
(1486050214.846735) vcan0 3A6#0E401A045F700000
(1486050214.848095) vcan0 33B#0000000000000000
(1486050214.849096) vcan0 242#05B32117DF000001
(1486050214.850009) vcan0 091#7EE47EEA67C8F000
(1486050214.850056) vcan0 092#6FB46F89737C44C8
(1486050214.850978) vcan0 167#727FD2100019C700
(1486050214.851005) vcan0 202#04FB5000608512E5
(1486050214.851041) vcan0 076#3E80C0800FFF0000
(1486050214.851956) vcan0 077#12E607FD7FF7FDF4
(1486050214.851993) vcan0 07D#0000F690001FF7F9
(1486050214.852032) vcan0 204#C0007D0279000000
(1486050214.852056) vcan0 085#7C4080007AE07C3F
(1486050214.853097) vcan0 213#FFFF00040001FC40
(1486050214.853124) vcan0 214#000000000000F690
(1486050214.853159) vcan0 216#6E22A14300000000
(1486050214.853192) vcan0 217#1028102810301024
(1486050214.853222) vcan0 3A8#0100271000000000
(1486050214.854112) vcan0 415#12E1F4FC08000800
(1486050214.854158) vcan0 416#5900F50001000000
(1486050214.854193) vcan0 41D#8000600000000000
(1486050214.854217) vcan0 4B0#01008000900000F6
(1486050214.856082) vcan0 078#0168800000000000
(1486050214.858127) vcan0 42C#8C20000008C00000
(1486050214.859377) vcan0 091#7EE87EE963C9F000
(1486050214.860509) vcan0 092#6FB36F8B73833BC9
(1486050214.861487) vcan0 047#2000000000000000
(1486050214.861515) vcan0 217#1028102810301024
(1486050214.861539) vcan0 165#10C3460000000000
(1486050214.861561) vcan0 167#727FD2100019C700
(1486050214.862512) vcan0 178#000002000E79CE78
(1486050214.862559) vcan0 082#7F0814009F804000
(1486050214.862585) vcan0 085#7C40800079F07C3F
(1486050214.862619) vcan0 200#00007FD67FD60000
(1486050214.863510) vcan0 202#04FB5800608512E4
(1486050214.863556) vcan0 186#13EF026000850400
(1486050214.863592) vcan0 187#DE1408C800500300
(1486050214.863625) vcan0 204#C0007D0278000000
(1486050214.864458) vcan0 230#500600009D000000
(1486050214.864482) vcan0 261#0000000000000000
(1486050214.867007) vcan0 05D#8357B75F31000000
(1486050214.868007) vcan0 083#4020000008000000
(1486050214.869002) vcan0 2A1#FFFFFFFF00000000
(1486050214.870004) vcan0 091#7EE87EE962CAF000
(1486050214.870052) vcan0 092#6FB36F88738838CA
(1486050214.871004) vcan0 167#727FD2100019C700
(1486050214.871038) vcan0 3CA#FE80383800000000
(1486050214.871063) vcan0 076#3E80C0800FFF0000
(1486050214.872105) vcan0 077#12E507FC7FF7F9F7
(1486050214.872161) vcan0 07D#0000F5A0002037FC
(1486050214.872199) vcan0 202#04FB6000608512E3
(1486050214.872234) vcan0 085#7C40800088007C3F
(1486050214.873106) vcan0 204#C0007D0278000000
(1486050214.873132) vcan0 213#FFFF00040001FC40
(1486050214.873154) vcan0 214#000000000000F5A0
(1486050214.873188) vcan0 216#7E32B15400000000
(1486050214.874101) vcan0 217#10281028102C1024
(1486050214.874137) vcan0 3A8#0100271000000000
(1486050214.874198) vcan0 3CC#B000000000000000
(1486050214.874221) vcan0 415#12E0F8FC08000800
(1486050214.875096) vcan0 41D#8000600000000000
(1486050214.875120) vcan0 42F#7D04002E65F6027C
(1486050214.875142) vcan0 4B0#01008000A00000F5
(1486050214.876203) vcan0 078#0569800000000000
(1486050214.879486) vcan0 091#7EE57EEA63CBF000
(1486050214.880597) vcan0 092#6FB46F85738938CB
(1486050214.881515) vcan0 047#2000000000000000
(1486050214.881549) vcan0 217#1024102810281028
(1486050214.881589) vcan0 165#10C3460000000000
(1486050214.881614) vcan0 167#727FD2100019C700
(1486050214.881637) vcan0 200#00007FD67FD60000
(1486050214.882512) vcan0 202#04FB6800608512E2
(1486050214.882559) vcan0 082#7F0814009F804000
(1486050214.882586) vcan0 085#7C40800087107C3F
(1486050214.882621) vcan0 204#C0007D0278000000
(1486050214.883472) vcan0 186#13ED026000850400
(1486050214.883508) vcan0 187#DE1408C800500300
(1486050214.883532) vcan0 18A#0020180214000000
(1486050214.883553) vcan0 230#500600009D000000
(1486050214.888633) vcan0 242#05B32117DF000001
(1486050214.889604) vcan0 091#7EE77EEA60CCF000
(1486050214.889645) vcan0 092#6FB76F83738738CC
(1486050214.890718) vcan0 167#727FD2100019C700
(1486050214.891770) vcan0 202#04FA7000608512E2
(1486050214.891819) vcan0 076#3E80C0800FFF0000
(1486050214.891846) vcan0 077#12E407FD7FF7FDF5
(1486050214.891878) vcan0 07D#0000F4B0002047FB
(1486050214.891909) vcan0 204#C0007D0278000000
(1486050214.892734) vcan0 085#7C40800086207C3F
(1486050214.892772) vcan0 213#FFFF00040001FC40
(1486050214.892796) vcan0 214#000000000000F4B0
(1486050214.892827) vcan0 216#8F43C26400000000
(1486050214.893736) vcan0 217#1024102410241028
(1486050214.893783) vcan0 3A8#0100271000000000
(1486050214.893873) vcan0 415#12DCFCFF08000800
(1486050214.893910) vcan0 41D#8000600000000000
(1486050214.894757) vcan0 4B0#01008000B00000F4
(1486050214.896759) vcan0 078#0068000000000000
(1486050214.897728) vcan0 05A#00000045F4010000
(1486050214.899138) vcan0 04A#0200000000000000
(1486050214.900094) vcan0 04B#00C0D8D8D8D8C000
(1486050214.900121) vcan0 04C#105FFFC000000000
(1486050214.900144) vcan0 091#7EEE7EEA58CDF000
(1486050214.900180) vcan0 092#6FB86F8273833BCD
(1486050214.901095) vcan0 047#2000000000000000
(1486050214.901120) vcan0 217#1020102810201028
(1486050214.901155) vcan0 165#10C3460000000000
(1486050214.902081) vcan0 167#727FD2100019C700
(1486050214.902105) vcan0 3CA#FE80383800000000
(1486050214.902128) vcan0 200#00007FD67FD60000
(1486050214.902150) vcan0 082#800814009F804000
(1486050214.902184) vcan0 085#7C40800085307C3F
(1486050214.903081) vcan0 202#04FA7800608512E1
(1486050214.903118) vcan0 186#13ED026000850400
(1486050214.903141) vcan0 187#DE1408C800500300
(1486050214.903161) vcan0 204#C0007D0278000000
(1486050214.904133) vcan0 230#500600009D000000
(1486050214.904167) vcan0 3CC#B000000000000000
(1486050214.904193) vcan0 42F#7D04002E65F6027C
(1486050214.908009) vcan0 33B#0000000000000000
(1486050214.909001) vcan0 42C#8C20000008C00000
(1486050214.910004) vcan0 091#7EF27EE855CEF000
(1486050214.910052) vcan0 092#6FB36F83737D44CE
(1486050214.911127) vcan0 455#A000000000000000
(1486050214.911161) vcan0 167#727FD2100019C700
(1486050214.911188) vcan0 076#3E80C0800FFF0000
(1486050214.912103) vcan0 077#12E207FD7FF7FDF4
(1486050214.912141) vcan0 07D#0000F3C0002037FE
(1486050214.912173) vcan0 202#040A0000608512E0
(1486050214.912204) vcan0 085#7C40800084407C3F
(1486050214.912234) vcan0 204#C0007D0277000000
(1486050214.913224) vcan0 213#FFFF00040001FB40
(1486050214.913279) vcan0 214#000000000000F3C0
(1486050214.913317) vcan0 216#A053D37500000000
(1486050214.913353) vcan0 217#1020102410241028
(1486050214.914135) vcan0 261#0000000000000000
(1486050214.914169) vcan0 3A8#0100271000000000
(1486050214.914234) vcan0 415#12DBC00F08000800
(1486050214.914274) vcan0 41D#8000600000000000
(1486050214.915127) vcan0 4B0#01008000C00000F3
(1486050214.916258) vcan0 078#0368800000000000
(1486050214.917260) vcan0 422#000000923802FE02
(1486050214.917294) vcan0 423#92E0000000000000
(1486050214.917319) vcan0 430#37000CF8C88C7700
(1486050214.919137) vcan0 091#7EF57EE752CFF000
(1486050214.920128) vcan0 092#6FAC6F86737252CF
(1486050214.921129) vcan0 047#2000000000000000
(1486050214.921163) vcan0 217#101C10241020102C
(1486050214.921204) vcan0 165#10C3460000000000
(1486050214.922130) vcan0 167#727FD2100019C700
(1486050214.922164) vcan0 200#00007FD67FD60000
(1486050214.922189) vcan0 202#040A0800608512DF
(1486050214.922228) vcan0 082#800814009E804000
(1486050214.923099) vcan0 085#7C40800083507C3F
(1486050214.923136) vcan0 204#C0007D0277000000
(1486050214.923159) vcan0 186#13EB026000850400
(1486050214.923191) vcan0 187#DE1408C800500300
(1486050214.923214) vcan0 230#500600009D000000
(1486050214.928593) vcan0 242#05B32117DF000001
(1486050214.929633) vcan0 091#7EFA7EEA49D0F000
(1486050214.930724) vcan0 092#6FAB6F8773655ED0
(1486050214.930780) vcan0 167#727FD2100019C700
(1486050214.931725) vcan0 076#3E80C0800FFF0000
(1486050214.931764) vcan0 077#12E007FC7FF7F1F5
(1486050214.931806) vcan0 07D#0000F2D0001FE7FF
(1486050214.931842) vcan0 202#040A1000608512DE
(1486050214.932632) vcan0 204#C0007D0277000000
(1486050214.932666) vcan0 085#7C40800082607C3F
(1486050214.932709) vcan0 213#FFFF00040001FB40
(1486050214.932735) vcan0 214#000000000000F2D0
(1486050214.933734) vcan0 216#B064E38500000000
(1486050214.933771) vcan0 217#101C10241020102C
(1486050214.933794) vcan0 3A8#0100271000000000
(1486050214.933875) vcan0 3CA#FE80383800000000
(1486050214.933897) vcan0 3CC#B000000000000000
(1486050214.934730) vcan0 415#12D6C41308000800
(1486050214.934766) vcan0 41D#8000600000000000
(1486050214.934789) vcan0 42F#7D04002E65F6027C
(1486050214.934810) vcan0 4B0#01008000D00000F2
(1486050214.936227) vcan0 078#0168800000000000
(1486050214.939464) vcan0 091#7EFF7EEE3FD1F000
(1486050214.940589) vcan0 092#6FB26F8573605DD1
(1486050214.940695) vcan0 047#2000000000000000
(1486050214.941725) vcan0 217#101C102410201028
(1486050214.941890) vcan0 05C#803000F8201E0000
(1486050214.941977) vcan0 165#10C3460000000000
(1486050214.942033) vcan0 167#727FD2100019C700
(1486050214.942727) vcan0 200#00007FD67FD60000
(1486050214.942820) vcan0 082#800814009E804000
(1486050214.942877) vcan0 085#7C40800081707C3F
(1486050214.942966) vcan0 186#13EB026000850400
(1486050214.943591) vcan0 187#DE1408C800500300
(1486050214.943667) vcan0 202#040B1800608512DC
(1486050214.943758) vcan0 204#C0007D0277000000
(1486050214.943815) vcan0 230#500600009D000000
(1486050214.949587) vcan0 091#7F017EEF3AD2F000
(1486050214.950582) vcan0 092#6FB36F83736558D2
(1486050214.950686) vcan0 167#727FD2100019C700
(1486050214.951725) vcan0 202#040B2000608512DB
(1486050214.951839) vcan0 076#3E80C0800FFF0000
(1486050214.951901) vcan0 077#12E007FE7FF7F9F5
(1486050214.951982) vcan0 07D#0000F1E0001F9802
(1486050214.952602) vcan0 204#C0007D0276000000
(1486050214.952704) vcan0 085#7C40800080807C3F
(1486050214.952787) vcan0 213#FFFF00040001FB40
(1486050214.952841) vcan0 214#000000000000F1E0
(1486050214.953589) vcan0 216#C175F49600000000
(1486050214.953692) vcan0 217#101C102410241028
(1486050214.953776) vcan0 3A8#0100271000000000
(1486050214.953960) vcan0 415#12D6C81208000800
(1486050214.954584) vcan0 416#5A00F40001000000
(1486050214.954675) vcan0 41D#8000600000000000
(1486050214.954726) vcan0 4B0#01008000E00000F1
(1486050214.956079) vcan0 078#0068000000000000
(1486050214.958713) vcan0 42C#8C20000008C00000
(1486050214.959715) vcan0 091#7F047EF134D3F000
(1486050214.959807) vcan0 092#6FAE6F82736E54D3
(1486050214.960699) vcan0 047#2000000000000000
(1486050214.961900) vcan0 217#101C102410241024
(1486050214.962005) vcan0 3CA#FE80183F00000000
(1486050214.962085) vcan0 165#10C3460000000000
(1486050214.962154) vcan0 167#727FD2100019C700
(1486050214.962623) vcan0 082#7F0814009F804000
(1486050214.962681) vcan0 085#7C4080007F907C3F
(1486050214.962733) vcan0 178#000001FE0E79CE78
(1486050214.962784) vcan0 186#13EA026000850400
(1486050214.963603) vcan0 187#DD1408C800600300
(1486050214.963660) vcan0 200#00007FD67FD60000
(1486050214.963698) vcan0 202#040B2800608512DA
(1486050214.963749) vcan0 3CC#B000000000000000
(1486050214.964599) vcan0 204#C0007D0276000000
(1486050214.964638) vcan0 230#500600009D000000
(1486050214.964672) vcan0 261#0000000000000000
(1486050214.965607) vcan0 42F#7D04002E65F6027B
(1486050214.967014) vcan0 05D#83579F5F37000000
(1486050214.967997) vcan0 083#4020000008000000
(1486050214.969115) vcan0 2A1#FFFFFFFF00000000
(1486050214.969154) vcan0 33B#0000000000000000
(1486050214.969190) vcan0 242#05B32116DF000001
(1486050214.970171) vcan0 091#7F077EF22FD4F000
(1486050214.970242) vcan0 092#6FA86F80737455D4
(1486050214.971142) vcan0 167#727FD2100019C700
(1486050214.971187) vcan0 202#040B3000608512D9
(1486050214.971246) vcan0 076#3E80C0800FFF0000
(1486050214.972188) vcan0 077#12DE07FF7FF7F5F4
(1486050214.972277) vcan0 07D#0000F0F0001FD804
(1486050214.972326) vcan0 204#C0007D0276000000
(1486050214.972365) vcan0 085#7C4080007EA07C3F
(1486050214.973151) vcan0 213#FFFF00040001FB40
(1486050214.973193) vcan0 214#000000000000F0F0
(1486050214.973231) vcan0 216#D18504A700000000
(1486050214.973269) vcan0 217#101C102410281028
(1486050214.973307) vcan0 3A8#0100271000000000
(1486050214.974124) vcan0 415#12D9CC0E08000800
(1486050214.974166) vcan0 41D#8000600000000000
(1486050214.974201) vcan0 4B0#01008000F00000F0
(1486050214.975985) vcan0 078#0569800000000000
(1486050214.979557) vcan0 091#7F057EF32FD5F000
(1486050214.980552) vcan0 092#6FA76F7F737555D5
(1486050214.980607) vcan0 047#2000000000000000
(1486050214.981689) vcan0 217#101C102410281020
(1486050214.981743) vcan0 165#10C3460000000000
(1486050214.981783) vcan0 167#727FD2100019C700
(1486050214.981848) vcan0 200#00007FD67FD60000
(1486050214.982735) vcan0 202#040A3800608512D9
(1486050214.982777) vcan0 082#7F0814009F804000
(1486050214.982804) vcan0 085#7C4080007DB07C3F
(1486050214.982830) vcan0 186#13EA026000850400
(1486050214.983651) vcan0 187#DD1408C800600300
(1486050214.983686) vcan0 18A#0020180214000000
(1486050214.983713) vcan0 204#C0007D0275000000
(1486050214.983740) vcan0 230#500600009D000000
(1486050214.983765) vcan0 3E5#0000000080000000
(1486050214.989496) vcan0 091#7EF77EF33DD6F000
(1486050214.990521) vcan0 092#6FAA6F81737252D6
(1486050214.990559) vcan0 167#727FD2100019C700
(1486050214.991612) vcan0 3CA#FE80183F00000000
(1486050214.991652) vcan0 076#3E80C0800FFF0000
(1486050214.991679) vcan0 077#12DD07FF7FF7EDF3
(1486050214.991708) vcan0 07D#0000FF00001FF804
(1486050214.992609) vcan0 202#040A4000608512D8
(1486050214.992652) vcan0 085#7C4080007CC07C3F
(1486050214.992682) vcan0 204#C0007D0275000000
(1486050214.992707) vcan0 213#FFFF00040001FB40
(1486050214.993609) vcan0 214#000000000000FF00
(1486050214.993652) vcan0 216#E29615B700000000
(1486050214.993683) vcan0 217#101C102410281020
(1486050214.993709) vcan0 3A8#0100271000000000
(1486050214.994503) vcan0 3CC#B000000000000000
(1486050214.994539) vcan0 415#12D8D00E08000800
(1486050214.994569) vcan0 41D#8000600000000000
(1486050214.994593) vcan0 42F#7D04002E65F6027B
(1486050214.995514) vcan0 4B0#01008000000000FF
(1486050214.996859) vcan0 078#0168800000000000
(1486050214.997900) vcan0 05A#00000045EAA10000
(1486050214.999384) vcan0 04A#0200000000000000
(1486050215.000522) vcan0 04B#00C0D8D8D8D8C000
(1486050215.000557) vcan0 04C#105FFFC000000000
(1486050215.000585) vcan0 091#7EE87EF34BD7F000
(1486050215.000612) vcan0 092#6FAE6F84736F4DD7
(1486050215.001520) vcan0 047#2000000000000000
(1486050215.001555) vcan0 217#101C10201028101C
(1486050215.001584) vcan0 165#10C3460000000000
(1486050215.001610) vcan0 167#727FD2100019C700
(1486050215.002498) vcan0 200#00007FD67FD60000
(1486050215.002534) vcan0 082#7F0814009F804000
(1486050215.002561) vcan0 085#7C4080007BD07C3F
(1486050215.002589) vcan0 186#13EA026000850400
(1486050215.003496) vcan0 187#DD1408C800600300
(1486050215.003532) vcan0 202#04094800608512D8
(1486050215.003562) vcan0 204#C0007D0275000000
(1486050215.003588) vcan0 230#500600009D000000
(1486050215.008640) vcan0 242#05B32114DF000001
(1486050215.009644) vcan0 40A#C110409060250000
(1486050215.009683) vcan0 42C#8C20000008C00000
(1486050215.009711) vcan0 091#7EE47EF34ED8F000
(1486050215.010648) vcan0 092#6FB26F8773694BD8
(1486050215.010685) vcan0 455#A000000000000000
(1486050215.010713) vcan0 167#727FD2100019C700
(1486050215.011734) vcan0 076#3E80C0800FFF0000
(1486050215.011774) vcan0 077#12DC07FF7FF7F1F3
(1486050215.011804) vcan0 07D#0000FE10001FE7FC
(1486050215.011833) vcan0 202#04085000608512D8
(1486050215.012627) vcan0 085#7C4080007AE07C3F
(1486050215.012666) vcan0 204#C0007D0275000000
(1486050215.012694) vcan0 213#FFFF00040001FB40
(1486050215.012718) vcan0 214#000000000000FE10
(1486050215.013643) vcan0 216#F2A625C800000000
(1486050215.013682) vcan0 217#101C10201024101C
(1486050215.013710) vcan0 261#0000000000000000
(1486050215.013735) vcan0 3A8#0100271000000000
(1486050215.014645) vcan0 3A7#0E423A045F700000
(1486050215.014681) vcan0 415#12D4D41108000800
(1486050215.014710) vcan0 41D#8000600000000000
(1486050215.014734) vcan0 4B0#01008000100000FE
(1486050215.016138) vcan0 078#0068000000000000
(1486050215.017138) vcan0 422#000000923802FE02
(1486050215.017173) vcan0 423#92E0000000000000
(1486050215.017201) vcan0 430#3F000CF8E88C7700
(1486050215.019387) vcan0 091#7EE97EF348D9F000
(1486050215.020511) vcan0 092#6FB36F86736053D9
(1486050215.020548) vcan0 047#2000000000000000
(1486050215.021520) vcan0 217#101C101C1024101C
(1486050215.021557) vcan0 165#10C3460000000000
(1486050215.021584) vcan0 167#727FD2100019C700
(1486050215.021608) vcan0 3CA#FE80183F00000000
(1486050215.022524) vcan0 186#13E6026000850400
(1486050215.022562) vcan0 082#7F0814009F804000
(1486050215.022587) vcan0 085#7C40800079F07C3F
(1486050215.022613) vcan0 187#DD1408C800600300
(1486050215.023521) vcan0 200#00007FD67FD60000
(1486050215.023557) vcan0 202#04085800608512D7
(1486050215.023588) vcan0 204#C0007D0275000000
(1486050215.023613) vcan0 230#500600009D000000
(1486050215.024517) vcan0 3CC#B000000000000000
(1486050215.024554) vcan0 42F#7D04002E65F6027B
(1486050215.028136) vcan0 33B#0000000000000000
(1486050215.029481) vcan0 091#7EEC7EF443DAF000
(1486050215.030392) vcan0 092#6FB16F86735D57DA
(1486050215.030430) vcan0 167#727FD2100019C700
(1486050215.031611) vcan0 202#04086000608512D6
(1486050215.031654) vcan0 076#3E80C0800FFF0000
(1486050215.031681) vcan0 077#12DB07FF7FF7F9F5
(1486050215.031708) vcan0 07D#0000FD20001F97FD
(1486050215.032525) vcan0 204#C0007D0275000000
(1486050215.032560) vcan0 085#7C40800088007C3F
(1486050215.032592) vcan0 213#FFFF00040001FB40
(1486050215.032618) vcan0 214#000000000000FD20
(1486050215.033523) vcan0 216#03B736D800000000
(1486050215.033560) vcan0 217#1018101C101C101C
(1486050215.033590) vcan0 3A8#0100271000000000
(1486050215.033659) vcan0 415#12D3D81108000800
(1486050215.034517) vcan0 41D#8000600000000000
(1486050215.034554) vcan0 4B0#01008000200000FD
(1486050215.036012) vcan0 078#0168800000000000
(1486050215.039520) vcan0 091#7EE97EF445DBF000
(1486050215.040517) vcan0 092#6FB06F86736153DB
(1486050215.040554) vcan0 047#2000000000000000
(1486050215.041607) vcan0 217#1014101C101C101C
(1486050215.041651) vcan0 05C#80D000EE201E0000
(1486050215.041681) vcan0 165#10C3460000000000
(1486050215.041707) vcan0 186#13E4026000850400
(1486050215.042523) vcan0 167#727FD2100019C700
(1486050215.042559) vcan0 082#7F0814009F804000
(1486050215.042586) vcan0 085#7C40800087107C3F
(1486050215.042614) vcan0 187#DD1408C800600300
(1486050215.043521) vcan0 200#00007FD67FD60000
(1486050215.043557) vcan0 202#04086800608512D5
(1486050215.043587) vcan0 204#C0007D0275000000
(1486050215.043612) vcan0 230#500600009D000000
(1486050215.046916) vcan0 3A6#0E401A045F700000
(1486050215.048685) vcan0 242#05B32114DF000001
(1486050215.049627) vcan0 091#7EE67EF447DCF000
(1486050215.050702) vcan0 092#6FB26F8773654BDC
(1486050215.050804) vcan0 167#727FD2100019C700
(1486050215.051891) vcan0 3CA#FE80183F00000000
(1486050215.052040) vcan0 076#3E80C0800FFF0000
(1486050215.052284) vcan0 077#12D907FF7FF7F9F5
(1486050215.052426) vcan0 07D#0000FC30001F97FD
(1486050215.052668) vcan0 202#04077000608512D5
(1486050215.052773) vcan0 085#7C40800086207C3F
(1486050215.053756) vcan0 204#C0007D0274000000
(1486050215.053895) vcan0 213#FFFF00040001FB40
(1486050215.053946) vcan0 214#000000000000FC30
(1486050215.053999) vcan0 216#14C747E900000000
(1486050215.054039) vcan0 217#1014101C10181020
(1486050215.054072) vcan0 3A8#0100271000000000
(1486050215.054135) vcan0 3CC#B000000000000000
(1486050215.054719) vcan0 415#12CFDC1408000800
(1486050215.054763) vcan0 416#5B00F30001000000
(1486050215.054797) vcan0 41D#8000600000000000
(1486050215.054821) vcan0 42F#7D04002E65F6027B
(1486050215.055754) vcan0 4B0#01008000300000FC
(1486050215.056732) vcan0 078#0168800000000000
(1486050215.058157) vcan0 42C#8C20000008C00000
(1486050215.059234) vcan0 091#7EE17EF44BDDF000
(1486050215.060271) vcan0 092#6FB46F86736648DD
(1486050215.061243) vcan0 047#2000000000000000
(1486050215.061279) vcan0 217#1014101C10141020
(1486050215.061312) vcan0 165#10C3460000000000
(1486050215.061342) vcan0 186#13E2026000850400
(1486050215.062357) vcan0 187#DC1408C800700300
(1486050215.062413) vcan0 167#727FD2100019C700
(1486050215.062455) vcan0 082#7F0814009F804000
(1486050215.062490) vcan0 085#7C40800085307C3F
(1486050215.063271) vcan0 178#000001FF0E79CE78
(1486050215.063313) vcan0 200#00007FD67FD60000
(1486050215.063346) vcan0 202#04077800608512D4
(1486050215.064232) vcan0 204#C0007D0274000000
(1486050215.064265) vcan0 230#500600009D000000
(1486050215.064293) vcan0 261#0000000000000000
(1486050215.067106) vcan0 05D#8357875F3D000000
(1486050215.068114) vcan0 083#4020000008000000
(1486050215.069097) vcan0 2A1#FFFFFFFF00000000
(1486050215.070221) vcan0 091#7EDD7EF44EDEF000
(1486050215.070279) vcan0 092#6FB46F87736844DE
(1486050215.071235) vcan0 167#727FD2100019C700
(1486050215.071289) vcan0 202#04170000608512D3
(1486050215.071327) vcan0 076#3E80C0800FFF0000
(1486050215.072242) vcan0 077#12D707FF7FF7FDF5
(1486050215.072302) vcan0 07D#0000FB40001FA7FA
(1486050215.072338) vcan0 204#C0007D0274000000
(1486050215.072371) vcan0 085#7C40800084407C3F
(1486050215.072403) vcan0 213#FFFF00040001FB40
(1486050215.073097) vcan0 214#000000000000FB40
(1486050215.073133) vcan0 216#24D857F800000000
(1486050215.073166) vcan0 217#1014101C10141020
(1486050215.073195) vcan0 3A8#0100271000000000
(1486050215.074203) vcan0 415#12CFE01308000800
(1486050215.074238) vcan0 41D#8000600000000000
(1486050215.074267) vcan0 4B0#01008000400000FB
(1486050215.075942) vcan0 078#0469000000000000
(1486050215.079444) vcan0 091#7EE07EF44ADFF000
(1486050215.080606) vcan0 092#6FB36F89736941DF
(1486050215.081529) vcan0 217#1014101C10181020
(1486050215.081574) vcan0 047#2000000000000000
(1486050215.081609) vcan0 165#10C3460000000000
(1486050215.081641) vcan0 167#727FD2100019C700
(1486050215.082494) vcan0 186#13E2026000850400
(1486050215.082529) vcan0 187#DC1408C800700300
(1486050215.082560) vcan0 082#800814009F804000
(1486050215.082591) vcan0 085#7C40800083507C3F
(1486050215.082621) vcan0 18A#0020180214000000
(1486050215.083446) vcan0 200#00007FD67FD60000
(1486050215.083478) vcan0 202#04170800608512D2
(1486050215.083508) vcan0 204#C0007D0274000000
(1486050215.083538) vcan0 230#500600009D000000
(1486050215.084444) vcan0 3CA#FE80184100000000
(1486050215.084478) vcan0 3CC#B000000000000000
(1486050215.084507) vcan0 42F#7D04002E65F6027A
(1486050215.088062) vcan0 33B#0000000000000000
(1486050215.089084) vcan0 242#05B32112DF000001
(1486050215.089120) vcan0 091#7EE97EF440E0F000
(1486050215.090084) vcan0 092#6FB36F89736544E0
(1486050215.091235) vcan0 167#727FD2100019C700
(1486050215.091290) vcan0 202#04171000608512D1
(1486050215.091330) vcan0 076#3E80C0800FFF0000
(1486050215.092099) vcan0 077#12D607FF7FF7F9F6
(1486050215.092135) vcan0 07D#0000FA50001FB7FA
(1486050215.092169) vcan0 204#C0007D0274000000
(1486050215.092200) vcan0 085#7C40800082607C3F
(1486050215.092231) vcan0 213#FFFF00040001FB40
(1486050215.093072) vcan0 214#000000000000FA50
(1486050215.093107) vcan0 216#35E8680A00000000
(1486050215.093138) vcan0 217#1014101C10181020
(1486050215.093167) vcan0 3A8#0100271000000000
(1486050215.094203) vcan0 415#12CFE41208000800
(1486050215.094239) vcan0 41D#8000600000000000
(1486050215.094268) vcan0 4B0#01008000500000FA
(1486050215.096566) vcan0 078#0168800000000000
(1486050215.097573) vcan0 05A#00000045F0410000
(1486050215.099064) vcan0 04A#0200000000000000
(1486050215.100235) vcan0 04B#00C0D8D8D8D8C000
(1486050215.100291) vcan0 04C#105FFFC000000000
(1486050215.100326) vcan0 091#7EEF7EF439E1F000
(1486050215.100361) vcan0 092#6FB36F88736247E1
(1486050215.101087) vcan0 047#2000000000000000
(1486050215.101122) vcan0 217#1014101C10181020
(1486050215.101153) vcan0 165#10C3460000000000
(1486050215.102067) vcan0 167#727FD2100019C700
(1486050215.102099) vcan0 186#13E2026000850400
(1486050215.102128) vcan0 187#DC1408C800700300
(1486050215.102157) vcan0 082#800814009F804000
(1486050215.103077) vcan0 085#7C40800081707C3F
(1486050215.103111) vcan0 200#00007FD67FD60000
(1486050215.103141) vcan0 202#04171800608512D0
(1486050215.103171) vcan0 204#C0007D0274000000
(1486050215.103199) vcan0 230#500600009D000000
(1486050215.109085) vcan0 42C#8C20000008C00000
(1486050215.110085) vcan0 091#7EEE7EF439E2F000
(1486050215.110129) vcan0 092#6FB06F8573614DE2
(1486050215.111099) vcan0 455#A000000000000000
(1486050215.111144) vcan0 167#727FD2100019C700
(1486050215.111183) vcan0 076#3E80C0800FFF0000
(1486050215.111221) vcan0 077#12D507FF7FF7F9F5
(1486050215.112085) vcan0 07D#0000F960001F97FF
(1486050215.112128) vcan0 202#04162000608512D0
(1486050215.112167) vcan0 085#7C40800080807C3F
(1486050215.112204) vcan0 204#C0007D0274000000
(1486050215.113094) vcan0 213#FFFF00040001FB40
(1486050215.113139) vcan0 214#000000000000F960
(1486050215.113181) vcan0 216#45F9781900000000
(1486050215.113220) vcan0 217#1014101C101C1020
(1486050215.114079) vcan0 261#0000000000000000
(1486050215.114123) vcan0 3A8#0100271000000000
(1486050215.114208) vcan0 3CA#FE80184100000000
(1486050215.114246) vcan0 3CC#B000000000000000
(1486050215.115087) vcan0 415#12CFE81108000800
(1486050215.115133) vcan0 41D#8000600000000000
(1486050215.115173) vcan0 42F#7D04002E65F6027A
(1486050215.115210) vcan0 4B0#01008000600000F9
(1486050215.116211) vcan0 078#0168800000000000
(1486050215.117241) vcan0 422#000000923802FE02
(1486050215.117283) vcan0 423#92E0000000000000
(1486050215.117320) vcan0 430#37000CF8C88C7700
(1486050215.119346) vcan0 091#7EE47EF442E3F000
(1486050215.120361) vcan0 092#6FAC6F84736052E3
(1486050215.121494) vcan0 047#2000000000000000
(1486050215.121536) vcan0 186#13E1026000850400
(1486050215.121577) vcan0 165#10C3460000000000
(1486050215.121615) vcan0 167#727FD2100019C700
(1486050215.121653) vcan0 187#DC1408C800700300
(1486050215.122471) vcan0 200#00007FD67FD60000
(1486050215.122511) vcan0 082#800814009F804000
(1486050215.122548) vcan0 085#7C4080007F907C3F
(1486050215.122586) vcan0 202#04152800608512D0
(1486050215.123470) vcan0 204#C0007D0274000000
(1486050215.123516) vcan0 217#1014101C101C1018
(1486050215.123558) vcan0 230#500600009D000000
(1486050215.123594) vcan0 456#8000000000000000
(1486050215.128594) vcan0 242#05B32110DF000001
(1486050215.129774) vcan0 091#7ED97EF44CE4F000
(1486050215.130736) vcan0 092#6FAD6F85735B54E4
(1486050215.130794) vcan0 167#727FD2100019C700
(1486050215.131651) vcan0 202#04153000608512CF
(1486050215.131695) vcan0 076#3E80C0800FFF0000
(1486050215.131730) vcan0 077#12D407FF7FF7F1F4
(1486050215.131762) vcan0 07D#0000F870001F97FB
(1486050215.132610) vcan0 204#C0007D0274000000
(1486050215.132645) vcan0 085#7C4080007EA07C3F
(1486050215.132676) vcan0 213#FFFF00040001FB40
(1486050215.132705) vcan0 214#000000000000F870
(1486050215.132735) vcan0 216#5609892B00000000
(1486050215.133572) vcan0 217#1014101C10201018
(1486050215.133606) vcan0 3A8#0100271000000000
(1486050215.133672) vcan0 415#12CFEC1008000800
(1486050215.133703) vcan0 41D#8000600000000000
(1486050215.134574) vcan0 4B0#01008000700000F8
(1486050215.135942) vcan0 078#0068000000000000
(1486050215.139127) vcan0 091#7ECF7EF455E5F000
(1486050215.140138) vcan0 092#6FB16F85735A50E5
(1486050215.141215) vcan0 186#13E1026000850400
(1486050215.141251) vcan0 187#DC1408C800700300
(1486050215.141274) vcan0 047#2000000000000000
(1486050215.141297) vcan0 05C#807000F4201E0000
(1486050215.142134) vcan0 217#1014101C10201018
(1486050215.142166) vcan0 165#10C3460000000000
(1486050215.142193) vcan0 167#727FD2100019C700
(1486050215.142215) vcan0 082#7F0814009F804000
(1486050215.143217) vcan0 085#7C4080007DB07C3F
(1486050215.143255) vcan0 200#00007FD67FD60000
(1486050215.143279) vcan0 3CA#FE80184100000000
(1486050215.143301) vcan0 3CC#B000000000000000
(1486050215.144219) vcan0 202#04143800608512CF
(1486050215.144258) vcan0 204#C0007D0274000000
(1486050215.144282) vcan0 230#500600009D000000
(1486050215.144305) vcan0 42F#7D04002E65F6027A
(1486050215.148128) vcan0 33B#0000000000000000
(1486050215.149591) vcan0 091#7ECA7EF459E6F000
(1486050215.150593) vcan0 092#6FB26F84736445E6
(1486050215.150631) vcan0 167#727FD2100019C700
(1486050215.151514) vcan0 202#04134000608512CF
(1486050215.151547) vcan0 076#3E80C0800FFF0000
(1486050215.151571) vcan0 077#12D307FF7FF7F9F5
(1486050215.151595) vcan0 07D#0000F780001F77F5
(1486050215.152502) vcan0 204#C0007D0274000000
(1486050215.152534) vcan0 085#7C4080007CC07C3F
(1486050215.152560) vcan0 213#FFFF00040001FB40
(1486050215.152582) vcan0 214#000000000000F780
(1486050215.153512) vcan0 216#661A993C00000000
(1486050215.153546) vcan0 217#1018101C10201018
(1486050215.153575) vcan0 3A8#0100271000000000
(1486050215.153637) vcan0 415#12CFF00F08000800
(1486050215.154509) vcan0 416#5C00F20001000000
(1486050215.154541) vcan0 41D#8000600000000000
(1486050215.154566) vcan0 4B0#01008000800000F7
(1486050215.155879) vcan0 078#0168800000000000
(1486050215.158129) vcan0 42C#8C20000008C00000
(1486050215.159474) vcan0 091#7ED27EF450E7F000
(1486050215.160606) vcan0 092#6FB36F87736A3AE7
(1486050215.160671) vcan0 186#13E0026000850400
(1486050215.161463) vcan0 187#DB1408C800800300
(1486050215.161496) vcan0 047#2000000000000000
(1486050215.161521) vcan0 217#1018101810201018
(1486050215.161546) vcan0 165#10C3460000000000
(1486050215.161569) vcan0 167#727FD2100019C700
(1486050215.162444) vcan0 178#000001FF0E79CE78
(1486050215.162470) vcan0 082#7F0814009F804000
(1486050215.162492) vcan0 085#7C4080007BD07C3F
(1486050215.162517) vcan0 200#00007FD67FD60000
(1486050215.163441) vcan0 202#04134800608512CE
(1486050215.163468) vcan0 204#C0007D0274000000
(1486050215.164481) vcan0 230#500600009D000000
(1486050215.164513) vcan0 261#0000000000000000
(1486050215.167017) vcan0 05D#8357AF5F33000000
(1486050215.168122) vcan0 083#4020000008000000
(1486050215.169112) vcan0 2A1#FFFFFFFF00000000
(1486050215.169163) vcan0 242#05B3210FDF000001
(1486050215.170127) vcan0 091#7EE57EF43CE8F000
(1486050215.170189) vcan0 092#6FB66F8B736339E8
(1486050215.171273) vcan0 167#727FD2100019C700
(1486050215.171304) vcan0 3CA#FE7FF84A00000000
(1486050215.171345) vcan0 076#3E80C0800FFF0000
(1486050215.171371) vcan0 077#12D207FF7FF7F9F5
(1486050215.172258) vcan0 07D#0000F690001FC7F6
(1486050215.172303) vcan0 202#04125000608512CE
(1486050215.172341) vcan0 085#7C4080007AE07C3F
(1486050215.172376) vcan0 204#C0007D0274000000
(1486050215.173201) vcan0 213#FFFF00040001FB40
(1486050215.173227) vcan0 214#000000000000F690
(1486050215.173262) vcan0 216#772BAA4C00000000
(1486050215.173296) vcan0 217#10141018101C1014
(1486050215.174211) vcan0 3A8#0100271000000000
(1486050215.174273) vcan0 3CC#B000000000000000
(1486050215.174296) vcan0 415#12CEF40F08000800
(1486050215.174330) vcan0 41D#8000600000000000
(1486050215.175263) vcan0 42F#7D04002E65F6027A
(1486050215.175296) vcan0 4B0#01008000900000F6
(1486050215.176262) vcan0 078#0569800000000000
(1486050215.179515) vcan0 091#7EF67EF42AE9F000
(1486050215.180609) vcan0 092#6FB66F8C735743E9
(1486050215.180666) vcan0 186#13E0026000850400
(1486050215.180693) vcan0 187#DB1408C800800300
(1486050215.181506) vcan0 047#2000000000000000
(1486050215.181539) vcan0 165#10C3460000000000
(1486050215.181566) vcan0 167#727FD2100019C700
(1486050215.181589) vcan0 18A#0020180214000000
(1486050215.181609) vcan0 200#00007FD67FD60000
(1486050215.182510) vcan0 202#04115800608512CE
(1486050215.182554) vcan0 082#800814009F804000
(1486050215.182591) vcan0 085#7C40800079F07C3F
(1486050215.182626) vcan0 204#C0007D0274000000
(1486050215.183512) vcan0 217#1010101810181014
(1486050215.183556) vcan0 230#500600009D000000
(1486050215.189512) vcan0 091#7F007EF41EEAF000
(1486050215.190563) vcan0 092#6FB56F89735944EA
(1486050215.190613) vcan0 167#727FD2100019C700
(1486050215.191511) vcan0 202#04106000608512CE
(1486050215.191555) vcan0 076#3E80C0800FFF0000
(1486050215.191581) vcan0 077#12D107FF7FF7FDF7
(1486050215.191615) vcan0 07D#0000F5A0001F67FF
(1486050215.192510) vcan0 204#C0007D0274000000
(1486050215.192544) vcan0 085#7C40800088007C3F
(1486050215.192582) vcan0 213#FFFF00040001FB40
(1486050215.192606) vcan0 214#000000000000F5A0
(1486050215.193593) vcan0 216#873BB95D00000000
(1486050215.193629) vcan0 217#1010101810141014
(1486050215.193662) vcan0 3A8#0100271000000000
(1486050215.193721) vcan0 415#12C7F81508000800
(1486050215.194638) vcan0 41D#8000600000000000
(1486050215.194671) vcan0 4B0#01008000A00000F5
(1486050215.196510) vcan0 078#0068000000000000
(1486050215.197478) vcan0 05A#00000045E6E10000
(1486050215.197515) vcan0 168#0000000000000000
(1486050215.199102) vcan0 04A#0200000000000000
(1486050215.200104) vcan0 04B#00C0D8D8D8D8C000
(1486050215.200130) vcan0 04C#105FFFC000000000
(1486050215.200150) vcan0 091#7F047EF419EBF000
(1486050215.200184) vcan0 092#6FB36F86736938EB
(1486050215.201217) vcan0 186#13E0026000850400
(1486050215.201256) vcan0 187#DB1408C800800300
(1486050215.201279) vcan0 047#2000000000000000
(1486050215.201302) vcan0 165#10C3460000000000
(1486050215.202236) vcan0 167#727FD2100019C700
(1486050215.202280) vcan0 217#1010101810101014
(1486050215.202321) vcan0 3CA#FE7FF84A00000000
(1486050215.202346) vcan0 082#800814009F804000
(1486050215.203238) vcan0 085#7C40800087107C3F
(1486050215.203296) vcan0 200#00007FD67FD60000
(1486050215.203323) vcan0 202#04116800608512CC
(1486050215.203357) vcan0 204#C0007D0274000000
(1486050215.204134) vcan0 3CC#B000000000000000
(1486050215.204167) vcan0 230#500600009D000000
(1486050215.204192) vcan0 42F#7D04002E65F6027A
(1486050215.208124) vcan0 33B#0000000000000000
(1486050215.208622) vcan0 242#05B3210FDF000001
(1486050215.209639) vcan0 091#7F027EF41AECF000
(1486050215.210741) vcan0 092#6FB26F86737B26EC
(1486050215.210800) vcan0 3EB#C604140000200000
(1486050215.210827) vcan0 40A#C000000740CF3E00
(1486050215.210862) vcan0 167#727FD2100019C700
(1486050215.211739) vcan0 076#3E80C0800FFF0000
(1486050215.211784) vcan0 077#12CF07FF7FF7F9F5
(1486050215.211824) vcan0 07D#0000F4B0001FB804
(1486050215.211859) vcan0 202#04117000608512CB
(1486050215.212741) vcan0 204#C0007D0274000000
(1486050215.212787) vcan0 085#7C40800086207C3F
(1486050215.212828) vcan0 213#FFFF00040001FA40
(1486050215.212863) vcan0 214#000000000000F4B0
(1486050215.213607) vcan0 216#984CCB6C00000000
(1486050215.213643) vcan0 217#100C101810101018
(1486050215.213675) vcan0 261#0000000000000000
(1486050215.213700) vcan0 3A8#0100271000000000
(1486050215.214730) vcan0 3E2#0000000080000000
(1486050215.214757) vcan0 415#12C7FC1408000800
(1486050215.214791) vcan0 41D#8000600000000000
(1486050215.214815) vcan0 42C#8C20000008C00000
(1486050215.214838) vcan0 4B0#01008000B00000F4
(1486050215.215701) vcan0 59E#9E00FFFFFFFFFFFF
(1486050215.216732) vcan0 455#A000000000000000
(1486050215.216757) vcan0 078#0168800000000000
(1486050215.216789) vcan0 422#000000923802FE02
(1486050215.217724) vcan0 423#92E0000000000000
(1486050215.217749) vcan0 430#37000CF8C88C7700
(1486050215.217769) vcan0 3A7#0E423A045F700000
(1486050215.217791) vcan0 43A#0000020000000000
(1486050215.219516) vcan0 091#7F007EF41BEDF000
(1486050215.220611) vcan0 092#6FB16F8773821EED
(1486050215.220668) vcan0 186#13E0026000850400
(1486050215.220694) vcan0 187#DB1408C800800300
(1486050215.220717) vcan0 047#2000000000000000
(1486050215.221522) vcan0 165#10C3460000000000
(1486050215.221555) vcan0 217#100C101410101018
(1486050215.221594) vcan0 167#727FD2100019C700
(1486050215.222522) vcan0 200#00007FD67FD60000
(1486050215.222556) vcan0 082#7F0814009F804000
(1486050215.222594) vcan0 085#7C40800085307C3F
(1486050215.222629) vcan0 202#04117800608512CA
(1486050215.223455) vcan0 204#C0007D0274000000
(1486050215.223480) vcan0 230#500600009D000000
(1486050215.229457) vcan0 091#7EFE7EF41DEEF000
(1486050215.230609) vcan0 092#6FB06F87737C24EE
(1486050215.230666) vcan0 167#727FD2100019C700
(1486050215.231609) vcan0 3CA#FE7FF84A00000000
(1486050215.231653) vcan0 076#3E80C0800FFF0000
(1486050215.231678) vcan0 077#12CD07FF7FF7F9F5
(1486050215.231717) vcan0 07D#0000F3C000202803
(1486050215.232614) vcan0 202#04210000608512C9
(1486050215.232672) vcan0 085#7C40800084407C3F
(1486050215.232709) vcan0 204#C0007D0274000000
(1486050215.232734) vcan0 213#FFFF00040001FB40
(1486050215.233523) vcan0 214#000000000000F3C0
(1486050215.233567) vcan0 216#A95CDC7E00000000
(1486050215.233602) vcan0 217#100C101810101018
(1486050215.233634) vcan0 3A8#0100271000000000
(1486050215.234485) vcan0 3CC#B000000000000000
(1486050215.234512) vcan0 415#12C4C02608000800
(1486050215.234546) vcan0 41D#8000600000000000
(1486050215.234569) vcan0 42F#7D04002E65F60279
(1486050215.235455) vcan0 4B0#01008000C00000F3
(1486050215.236450) vcan0 078#0168800000000000
(1486050215.239107) vcan0 091#7EFC7EF31FEFF000
(1486050215.240234) vcan0 092#6FAF6F8773732DEF
(1486050215.240299) vcan0 186#13E0026000850400
(1486050215.240344) vcan0 187#DB1408C800800300
(1486050215.241084) vcan0 047#2000000000000000
(1486050215.241111) vcan0 217#1010101410141018
(1486050215.241148) vcan0 05C#801000FA201E0000
(1486050215.242063) vcan0 165#10C3460000000000
(1486050215.242087) vcan0 167#727FD2100019C700
(1486050215.242109) vcan0 200#00007FD67FD60000
(1486050215.242131) vcan0 082#7F0814009F804000
(1486050215.243066) vcan0 085#7C40800083507C3F
(1486050215.243100) vcan0 202#04210800608512C8
(1486050215.243134) vcan0 204#C0007D0273000000
(1486050215.244104) vcan0 230#500600009D000000
(1486050215.245979) vcan0 3A6#0E401A045F700000
(1486050215.248604) vcan0 242#05B3210FDF000001
(1486050215.249738) vcan0 091#7EFA7EEF24F0F000
(1486050215.249781) vcan0 092#6FAD6F8873752BF0
(1486050215.250700) vcan0 167#727FD2100019C700
(1486050215.250727) vcan0 202#04211000608512C7
(1486050215.251758) vcan0 076#3E80C0800FFF0000
(1486050215.251792) vcan0 077#12CC07FF7FF7F5F5
(1486050215.251831) vcan0 07D#0000F2D0001FE801
(1486050215.251866) vcan0 204#C0007D0273000000
(1486050215.252767) vcan0 085#7C40800082607C3F
(1486050215.252812) vcan0 213#FFFF00040001FA40
(1486050215.252848) vcan0 214#000000000000F2D0
(1486050215.252880) vcan0 216#B96DEC8D00000000
(1486050215.253714) vcan0 217#1010101810141018
(1486050215.253749) vcan0 3A8#0100271000000000
(1486050215.253853) vcan0 415#12C7C42208000800
(1486050215.253931) vcan0 416#5D00F10001000000
(1486050215.254751) vcan0 41D#8000600000000000
(1486050215.254808) vcan0 4B0#01008000D00000F2
(1486050215.255888) vcan0 078#0068000000000000
(1486050215.258387) vcan0 42C#8C20000008C00000
(1486050215.259609) vcan0 091#7EF67EEB2BF1F000
(1486050215.259766) vcan0 186#13E0026000850400
(1486050215.260736) vcan0 092#6FAE6F88737B23F1
(1486050215.260897) vcan0 187#DA1408C800900300
(1486050215.260984) vcan0 047#2000000000000000
(1486050215.261591) vcan0 217#1010101810141018
(1486050215.261664) vcan0 3CA#FE7FF84A00000000
(1486050215.261719) vcan0 165#10C3460000000000
(1486050215.261770) vcan0 167#727FD2100019C700
(1486050215.262618) vcan0 082#7E0814009F804000
(1486050215.262714) vcan0 085#7C40800081707C3F
(1486050215.262797) vcan0 178#000001FF0E79CE78
(1486050215.263601) vcan0 200#00007FD67FD60000
(1486050215.263674) vcan0 3CC#B000000000000000
(1486050215.263730) vcan0 202#04201800608512C7
(1486050215.263810) vcan0 204#C0007D0273000000
(1486050215.264587) vcan0 230#500600009D000000
(1486050215.264658) vcan0 261#0000000000000000
(1486050215.265587) vcan0 42F#7D04002E65F60279
(1486050215.267098) vcan0 05D#8357975F39000000
(1486050215.268203) vcan0 5B3#B300FFFFFFFFFFFF
(1486050215.269227) vcan0 081#0000000000000000
(1486050215.269299) vcan0 083#4020000008000000
(1486050215.269357) vcan0 2A1#FFFFFFFF00000000
(1486050215.269407) vcan0 091#7EF17EE931F2F000
(1486050215.270357) vcan0 33B#0000000000000000
(1486050215.270430) vcan0 092#6FB06F88737B20F2
(1486050215.270515) vcan0 3E6#0001040880000000
(1486050215.271363) vcan0 167#727FD2100019C700
(1486050215.271437) vcan0 202#041F2000608512C7
(1486050215.271522) vcan0 076#3E80C0800FFF0000
(1486050215.271577) vcan0 077#12CB07FD7FF7F5F5
(1486050215.272360) vcan0 07D#0000F1E0002007FF
(1486050215.272458) vcan0 204#C0007D0273000000
(1486050215.272516) vcan0 085#7C40800080807C3F
(1486050215.272591) vcan0 213#FFFF00040001FA40
(1486050215.273300) vcan0 214#000000000000F1E0
(1486050215.273381) vcan0 216#CA7DFD9F00000000
(1486050215.273454) vcan0 217#1010101810181014
(1486050215.273525) vcan0 3A8#0100271000000000
(1486050215.274281) vcan0 415#12CBC81D08000800
(1486050215.274362) vcan0 41D#8000600000000000
(1486050215.274414) vcan0 4B0#01008000E00000F1
(1486050215.275888) vcan0 078#0569800000000000
(1486050215.279112) vcan0 186#13E0026000850400
(1486050215.280364) vcan0 187#DA1408C800900300
(1486050215.280482) vcan0 091#7EEA7EE937F3F000
(1486050215.280576) vcan0 092#6FB26F88737325F3
(1486050215.280655) vcan0 18A#0020180214000000
(1486050215.281233) vcan0 047#2000000000000000
(1486050215.281308) vcan0 217#1010101410181014
(1486050215.281397) vcan0 165#10C3460000000000
(1486050215.282238) vcan0 167#727FD2100019C700
(1486050215.282314) vcan0 200#00007FD67FD60000
(1486050215.282371) vcan0 202#041E2800608512C7
(1486050215.282451) vcan0 082#7F0814009F804000
(1486050215.282527) vcan0 085#7C4080007F907C3F
(1486050215.283264) vcan0 204#C0007D0273000000
(1486050215.283320) vcan0 230#500600009D000000
(1486050215.288720) vcan0 242#05B32110DF000001
(1486050215.289906) vcan0 091#7EE47EEB3AF4F000
(1486050215.290868) vcan0 092#6FB56F87736B2AF4
(1486050215.291022) vcan0 167#727FD2100019C700
(1486050215.291878) vcan0 3CA#FE7FE84E00000000
(1486050215.292042) vcan0 076#3E80C0800FFF0000
(1486050215.292107) vcan0 077#12CA07FC7FF7F9F5
(1486050215.292191) vcan0 07D#0000F0F0001FE7FD
(1486050215.292268) vcan0 202#041C3000608512C8
(1486050215.293000) vcan0 085#7C4080007EA07C3F
(1486050215.293159) vcan0 204#C0007D0273000000
(1486050215.293222) vcan0 213#FFFF00040001FB40
(1486050215.293310) vcan0 214#000000000000F0F0
(1486050215.293901) vcan0 216#DA8E0DAE00000000
(1486050215.294000) vcan0 217#10101018101C1010
(1486050215.294081) vcan0 3A8#0100271000000000
(1486050215.294213) vcan0 3CC#B000000000000000
(1486050215.294855) vcan0 415#12C6CC2108000800
(1486050215.294953) vcan0 41D#8000600000000000
(1486050215.295012) vcan0 42F#7D04002E65F60279
(1486050215.295063) vcan0 4B0#01008000F00000F0
(1486050215.296729) vcan0 078#0168800000000000
(1486050215.297730) vcan0 05A#00000045EC810000
(1486050215.299088) vcan0 186#13E0026000850400
(1486050215.300099) vcan0 04A#0200000000000000
(1486050215.300173) vcan0 04B#00C0D8D8D8D8C000
(1486050215.300228) vcan0 04C#105FFFC000000000
(1486050215.300278) vcan0 091#7EE57EEC37F5F000
(1486050215.301100) vcan0 092#6FB66F8773652EF5
(1486050215.301197) vcan0 187#DA1408C800900300
(1486050215.301255) vcan0 047#2000000000000000
(1486050215.301305) vcan0 165#10C3460000000000
(1486050215.302104) vcan0 167#727FD2100019C700
(1486050215.302181) vcan0 200#00007FD67FD60000
(1486050215.302238) vcan0 202#041C3800608512C7
(1486050215.302318) vcan0 082#7E0814009F804000
(1486050215.303101) vcan0 085#7C4080007DB07C3F
(1486050215.303197) vcan0 204#C0007D0273000000
(1486050215.303256) vcan0 217#10101014101C1010
(1486050215.303330) vcan0 230#500600009D000000
(1486050215.308653) vcan0 3B3#4048020F10050002
(1486050215.310049) vcan0 3C3#7EC0000000000000
(1486050215.310149) vcan0 42C#8C20000008C00000
(1486050215.310204) vcan0 091#7EE77EEC34F6F000
(1486050215.310281) vcan0 092#6FB26F8973652FF6
(1486050215.310825) vcan0 455#A000000000000000
(1486050215.310891) vcan0 167#727FD2100019C700
(1486050215.311982) vcan0 076#3E80C0800FFF0000
(1486050215.312085) vcan0 077#12CA07FD7FF7FDF5
(1486050215.312168) vcan0 07D#0000FF00001FA7FB
(1486050215.312238) vcan0 202#041B4000608512C7
(1486050215.312789) vcan0 085#7C4080007CC07C3F
(1486050215.312893) vcan0 204#C0007D0274000000
(1486050215.312980) vcan0 213#FFFF00040001FB40
(1486050215.313024) vcan0 214#000000000000FF00
(1486050215.313762) vcan0 216#EB9D1EC000000000
(1486050215.313858) vcan0 217#10101014101C100C
(1486050215.313923) vcan0 261#0000000000000000
(1486050215.313968) vcan0 3A8#0100271000000000
(1486050215.314757) vcan0 415#12C8D01E08000800
(1486050215.314829) vcan0 41D#8000600000000000
(1486050215.314874) vcan0 4B0#01008000000000FF
(1486050215.316025) vcan0 078#0068000000000000
(1486050215.317010) vcan0 422#000000923802FE02
(1486050215.317059) vcan0 423#92E0000000000000
(1486050215.317099) vcan0 430#37000CF8C88C7700
(1486050215.317142) vcan0 431#057B00C609800002
(1486050215.318532) vcan0 3A7#0E401A045F700000
(1486050215.319601) vcan0 186#13DD026000850400
(1486050215.319687) vcan0 187#DA1408C800900300
(1486050215.319739) vcan0 091#7EEB7EE932F7F000
(1486050215.320532) vcan0 092#6FAF6F8C736A29F7
(1486050215.320606) vcan0 047#2000000000000000
(1486050215.321525) vcan0 3CA#FE7FE84E00000000
(1486050215.321575) vcan0 165#10C3460000000000
(1486050215.321619) vcan0 167#727FD2100019C700
(1486050215.321662) vcan0 217#101010101018100C
(1486050215.322513) vcan0 200#00007FD67FD60000
(1486050215.322564) vcan0 082#7F0814009E804000
(1486050215.322630) vcan0 085#7C4080007BD07C3F
(1486050215.322695) vcan0 202#041A4800608512C7
(1486050215.323620) vcan0 204#C0007D0274000000
(1486050215.323667) vcan0 230#500600009D000000
(1486050215.323710) vcan0 3CC#B000000000000000
(1486050215.323753) vcan0 42F#7D04002E65F60279
(1486050215.328240) vcan0 33B#0000000000000000
(1486050215.329434) vcan0 242#05B32110DF000001
(1486050215.330471) vcan0 091#7EEF7EE72FF8F000
(1486050215.330608) vcan0 092#6FB06F8E736B24F8
(1486050215.331476) vcan0 167#727FD2100019C700
(1486050215.331577) vcan0 202#04195000608512C7
(1486050215.331661) vcan0 076#3E80C0800FFF0000
(1486050215.331711) vcan0 077#12CA07FC7FF7F5F7
(1486050215.332365) vcan0 07D#0000FE10001FC7FD
(1486050215.332452) vcan0 204#C0007D0274000000
(1486050215.332505) vcan0 085#7C4080007AE07C3F
(1486050215.332573) vcan0 213#FFFF00040001FC40
(1486050215.333287) vcan0 214#000000000000FE10
(1486050215.333359) vcan0 216#FBAF2DCF00000000
(1486050215.333424) vcan0 217#101010101014100C
(1486050215.333489) vcan0 3A8#0100271000000000
(1486050215.334262) vcan0 415#12C5D42008000800
(1486050215.334331) vcan0 41D#8000600000000000
(1486050215.334378) vcan0 4B0#01008000100000FE
(1486050215.335737) vcan0 078#0168800000000000
(1486050215.338715) vcan0 186#13DE026000850400
(1486050215.339855) vcan0 187#DA1408C800900300
(1486050215.339952) vcan0 091#7EF37EE42DF9F000
(1486050215.340032) vcan0 092#6FB16F8D736727F9
(1486050215.340702) vcan0 047#2000000000000000
(1486050215.341911) vcan0 217#100C101010101010
(1486050215.342012) vcan0 05C#80B000F0201E0000
(1486050215.342095) vcan0 165#10C3460000000000
(1486050215.342148) vcan0 167#727FD2100019C700
(1486050215.342861) vcan0 200#00007FD67FD60000
(1486050215.342935) vcan0 082#7F0814009F804000
(1486050215.343021) vcan0 085#7C40800079F07C3F
(1486050215.343097) vcan0 202#04195800608512C6
(1486050215.343171) vcan0 204#C0007D0273000000
(1486050215.343766) vcan0 230#500600009D000000
(1486050215.349534) vcan0 091#7EF77EE626FAF000
(1486050215.350749) vcan0 092#6FB46F8A736B22FA
(1486050215.350892) vcan0 167#727FD2100019C700
(1486050215.351737) vcan0 3CA#FE7FE84E00000000
(1486050215.351849) vcan0 076#3E80C0800FFF0000
(1486050215.351909) vcan0 077#12C907FB7FF7F9F7
(1486050215.351994) vcan0 07D#0000FD20001FB7FF
(1486050215.352540) vcan0 202#04186000608512C6
(1486050215.352618) vcan0 085#7C40800088007C3F
(1486050215.352692) vcan0 204#C0007D0273000000
(1486050215.352743) vcan0 213#FFFF00040001FC40
(1486050215.353520) vcan0 214#000000000000FD20
(1486050215.353598) vcan0 216#0CBE3FE000000000
(1486050215.353672) vcan0 217#100C1010100C1010
(1486050215.353744) vcan0 3A8#0100271000000000
(1486050215.354494) vcan0 3CC#B000000000000000
(1486050215.354540) vcan0 415#12C0D82408000800
(1486050215.354601) vcan0 416#5E00F00001000000
(1486050215.354659) vcan0 41D#8000600000000000
(1486050215.355489) vcan0 42F#7D04002E65F60279
(1486050215.355533) vcan0 4B0#01008000200000FD
(1486050215.356478) vcan0 078#0168800000000000
(1486050215.358122) vcan0 42C#8C20000008C00000
(1486050215.359337) vcan0 186#13DB026000850400
(1486050215.359414) vcan0 187#D91408C800A00300
(1486050215.359477) vcan0 091#7EFE7EE81CFBF000
(1486050215.360298) vcan0 092#6FB46F87737C13FB
(1486050215.361247) vcan0 047#2000000000000000
(1486050215.361296) vcan0 217#10081010100C1010
(1486050215.361359) vcan0 165#10C3460000000000
(1486050215.362229) vcan0 167#727FD2100019C700
(1486050215.362273) vcan0 178#000001FF0E79CE78
(1486050215.362314) vcan0 082#800814009F804000
(1486050215.362374) vcan0 085#7C40800087107C3F
(1486050215.363217) vcan0 200#00007FD67FD60000
(1486050215.363259) vcan0 202#04196800608512C4
(1486050215.363317) vcan0 204#C0007D0273000000
(1486050215.364223) vcan0 230#500600009D000000
(1486050215.364264) vcan0 261#0000000000000000
(1486050215.366989) vcan0 05D#8357BF602E000000
(1486050215.368052) vcan0 169#008BC00000000000
(1486050215.369040) vcan0 083#4020000008000000
(1486050215.369098) vcan0 2A1#FFFFFFFF00000000
(1486050215.369142) vcan0 188#4000000000000000
(1486050215.370032) vcan0 242#05B3210FDF000001
(1486050215.370120) vcan0 091#7F027EE816FCF000
(1486050215.370182) vcan0 092#6FB06F87738909FC
(1486050215.371014) vcan0 167#727FD2100019C700
(1486050215.371066) vcan0 202#04197000608512C3
(1486050215.371123) vcan0 076#3E80C0800FFF0000
(1486050215.371987) vcan0 077#12C807FC7FF7FDF5
(1486050215.372041) vcan0 07D#0000FC3000201802
(1486050215.372090) vcan0 204#C0007D0273000000
(1486050215.372125) vcan0 085#7C40800086207C3F
(1486050215.372986) vcan0 213#FFFF00040001FB40
(1486050215.373039) vcan0 214#000000000000FC30
(1486050215.373090) vcan0 216#1CD04EF000000000
(1486050215.373138) vcan0 217#1008101010081014
(1486050215.373968) vcan0 3A8#0100271000000000
(1486050215.374053) vcan0 415#12C0DC2308000800
(1486050215.374104) vcan0 41D#8000600000000000
(1486050215.374138) vcan0 4B0#01008000300000FC
(1486050215.375725) vcan0 078#0469000000000000
(1486050215.378405) vcan0 186#13DD026000850400
(1486050215.379390) vcan0 187#D91408C800A00300
(1486050215.379438) vcan0 18A#0020180214000000
(1486050215.380404) vcan0 091#7F017EE618FDF000
(1486050215.380467) vcan0 092#6FAE6F8973820FFD
(1486050215.381359) vcan0 047#2000000000000000
(1486050215.381399) vcan0 217#10081010100C1014
(1486050215.381450) vcan0 165#10C3460000000000
(1486050215.381486) vcan0 167#727FD2100019C700
(1486050215.382358) vcan0 3CA#FE7FF85500000000
(1486050215.382412) vcan0 200#00007FD67FD60000
(1486050215.382447) vcan0 082#800814009F804000
(1486050215.382479) vcan0 085#7C40800085307C3F
(1486050215.383405) vcan0 202#04187800608512C3
(1486050215.383468) vcan0 204#C0007D0273000000
(1486050215.383506) vcan0 230#500600009D000000
(1486050215.383539) vcan0 3CC#B000000000000000
(1486050215.383572) vcan0 42F#7D04002E65F60278
(1486050215.388397) vcan0 33B#0000000000000000
(1486050215.389568) vcan0 091#7EFA7EE421FEF000
(1486050215.390549) vcan0 092#6FB06F8B736C20FE
(1486050215.390615) vcan0 167#727FD2100019C700
(1486050215.391519) vcan0 202#04280000608512C2
(1486050215.391576) vcan0 076#3E80C0800FFF0000
(1486050215.391612) vcan0 077#12C707FB7FF7F5F6
(1486050215.391661) vcan0 07D#0000FB4000202803
(1486050215.392508) vcan0 204#C0007D0273000000
(1486050215.392547) vcan0 085#7C40800084407C3F
(1486050215.392596) vcan0 213#FFFF00040001FB40
(1486050215.392630) vcan0 214#000000000000FB40
(1486050215.393470) vcan0 216#2DDF600100000000
(1486050215.393522) vcan0 217#100C101010101014
(1486050215.393569) vcan0 3A8#0100271000000000
(1486050215.393658) vcan0 415#12C0E02208000800
(1486050215.394495) vcan0 41D#8000600000000000
(1486050215.394533) vcan0 4B0#01008000400000FB
(1486050215.396367) vcan0 078#0168800000000000
(1486050215.397368) vcan0 05A#00000045F2210000
(1486050215.398488) vcan0 186#13DD026000850400
(1486050215.398524) vcan0 187#D91408C800A00300
(1486050215.399540) vcan0 04A#0200000000000000
(1486050215.399589) vcan0 04B#00C0D8D8D8D8C000
(1486050215.400551) vcan0 04C#105FFFC000000000
(1486050215.400601) vcan0 091#7EF87EE422FFF000
(1486050215.400660) vcan0 092#6FB16F8A735A31FF
(1486050215.400712) vcan0 047#2000000000000000
(1486050215.401558) vcan0 165#10C3460000000000
(1486050215.401608) vcan0 217#100C1014100C1010
(1486050215.401664) vcan0 167#727FD2100019C700
(1486050215.401701) vcan0 200#00007FD67FD60000
(1486050215.402553) vcan0 202#04280800608512C1
(1486050215.402618) vcan0 082#7F0814009F804000
(1486050215.402672) vcan0 085#7C40800083507C3F
(1486050215.402722) vcan0 204#C0007D0273000000
(1486050215.403487) vcan0 230#500600009D000000
(1486050215.408622) vcan0 242#05B3210EDF000001
(1486050215.410007) vcan0 40A#C100334641365030
(1486050215.410107) vcan0 42C#8C20000008C00000
(1486050215.410156) vcan0 091#7EFC7EE51C00F000
(1486050215.410219) vcan0 092#6FB26F8873593200
(1486050215.410915) vcan0 455#A000000000000000
(1486050215.410991) vcan0 167#727FD2100019C700
(1486050215.411956) vcan0 076#3E80C0800FFF0000
(1486050215.412045) vcan0 077#12C607FB7FF7F9F6
(1486050215.412118) vcan0 07D#0000FA50001F7800
(1486050215.412181) vcan0 202#04271000608512C1
(1486050215.412837) vcan0 085#7C40800082607C3F
(1486050215.412914) vcan0 204#C0007D0273000000
(1486050215.412962) vcan0 213#FFFF00040001FB40
(1486050215.413002) vcan0 214#000000000000FA50
(1486050215.413770) vcan0 216#3CF16F1100000000
(1486050215.413886) vcan0 217#100C1010100C1010
(1486050215.413964) vcan0 261#0000000000000000
(1486050215.414019) vcan0 3A8#0100271000000000
(1486050215.414846) vcan0 3A7#0E401A045F700000
(1486050215.414920) vcan0 3CA#FE7FF85500000000
(1486050215.414974) vcan0 3CC#B000000000000000
(1486050215.415021) vcan0 415#12C4E41D08000800
(1486050215.415983) vcan0 41D#8000600000000000
(1486050215.416096) vcan0 42F#7D04002E65F60278
(1486050215.416157) vcan0 4B0#01008000500000FA
(1486050215.416943) vcan0 078#0168800000000000
(1486050215.417045) vcan0 422#000000923802FE02
(1486050215.417102) vcan0 423#92E0000000000000
(1486050215.417874) vcan0 430#37000CF8C88C7700
(1486050215.418990) vcan0 186#13DE026000850400
(1486050215.419091) vcan0 187#D91408C800A00300
(1486050215.419974) vcan0 091#7EFD7EE71801F000
(1486050215.420073) vcan0 092#6FB06F8773682501
(1486050215.420951) vcan0 047#2000000000000000
(1486050215.421023) vcan0 165#10C3460000000000
(1486050215.421978) vcan0 217#100C101010101010
(1486050215.422077) vcan0 167#727FD2100019C700
(1486050215.422137) vcan0 200#00007FD67FD60000
(1486050215.422187) vcan0 202#04261800608512C1
(1486050215.422976) vcan0 082#7F0814009E804000
(1486050215.423074) vcan0 085#7C40800081707C3F
(1486050215.423157) vcan0 204#C0007D0273000000
(1486050215.423212) vcan0 230#500600009D000000
(1486050215.429592) vcan0 091#7EF37EE72102F000
(1486050215.430732) vcan0 092#6FAF6F86737C1202
(1486050215.430893) vcan0 167#727FD2100019C700
(1486050215.431749) vcan0 202#04252000608512C1
(1486050215.431904) vcan0 076#3E80C0800FFF0000
(1486050215.431968) vcan0 077#12C507FC7FF7F9F5
(1486050215.432052) vcan0 07D#0000F960001FB802
(1486050215.432611) vcan0 204#C0007D0273000000
(1486050215.432687) vcan0 085#7C40800080807C3F
(1486050215.432774) vcan0 213#FFFF00040001FB40
(1486050215.432827) vcan0 214#000000000000F960
(1486050215.433613) vcan0 216#4E00812200000000
(1486050215.433708) vcan0 217#100C101810101010
(1486050215.433789) vcan0 3A8#0100271000000000
(1486050215.433958) vcan0 415#12C4E81C08000800
(1486050215.434518) vcan0 41D#8000600000000000
(1486050215.434565) vcan0 4B0#01008000600000F9
(1486050215.435765) vcan0 078#0068000000000000
(1486050215.437894) vcan0 186#13E2026000850400
(1486050215.438937) vcan0 187#D91408C800A00300
(1486050215.439948) vcan0 091#7EDE7EE73503F000
(1486050215.440025) vcan0 092#6FB06F83738B0403
(1486050215.440870) vcan0 047#2000000000000000
(1486050215.440920) vcan0 217#1008101410141008
(1486050215.441879) vcan0 05C#805000F6201E0000
(1486050215.441944) vcan0 265#2001010410000000
(1486050215.441986) vcan0 165#10C3460000000000
(1486050215.442027) vcan0 167#727FD2100019C700
(1486050215.442854) vcan0 082#7F0814009F804000
(1486050215.442915) vcan0 085#7C4080007F907C3F
(1486050215.442974) vcan0 200#00007FD67FD60000
(1486050215.443015) vcan0 202#04232800608512C2
(1486050215.443072) vcan0 204#C0007D0273000000
(1486050215.443851) vcan0 3CA#FE7FF85500000000
(1486050215.443893) vcan0 3CC#B000000000000000
(1486050215.443931) vcan0 230#500600009D000000
(1486050215.443970) vcan0 42F#7D04002E65F60278
(1486050215.444846) vcan0 453#3257364570646166
(1486050215.444888) vcan0 596#9600FFFFFFFFFFFF
(1486050215.446472) vcan0 3A6#0E401A045F700000
(1486050215.448232) vcan0 33B#0000000000000000
(1486050215.449303) vcan0 242#05B3210EDF000001
(1486050215.450323) vcan0 091#7EC57EE64E04F000
(1486050215.450400) vcan0 092#6FB16F83738C0104
(1486050215.451304) vcan0 167#727FD2100019C700
(1486050215.451365) vcan0 076#3E80C0800FFF0000
(1486050215.451409) vcan0 077#12C407FC7FF7F9F4
(1486050215.452448) vcan0 07D#0000F870002057F9
(1486050215.452554) vcan0 202#04223000608512C2
(1486050215.452630) vcan0 085#7C4080007EA07C3F
(1486050215.452693) vcan0 204#C0007D0273000000
(1486050215.453434) vcan0 213#FFFF00040001FB40
(1486050215.453495) vcan0 214#000000000000F870
(1486050215.453561) vcan0 216#5D11903300000000
(1486050215.453622) vcan0 217#1008100C10141008
(1486050215.454392) vcan0 3A8#0100271000000000
(1486050215.454496) vcan0 415#12C6EC1908000800
(1486050215.454558) vcan0 416#5F00EF0001000000
(1486050215.454616) vcan0 41D#8000600000000000
(1486050215.455384) vcan0 41E#0000000000000000
(1486050215.455429) vcan0 4B0#01008000700000F8
(1486050215.456384) vcan0 078#0168800000000000
(1486050215.457766) vcan0 186#13E4026000850400
(1486050215.458765) vcan0 187#D81408C800B00300
(1486050215.459769) vcan0 42C#8C20000008C00000
(1486050215.459814) vcan0 091#7EB97EE45B05F000
(1486050215.459871) vcan0 092#6FB46F8873780C05
(1486050215.460765) vcan0 047#2000000000000000
(1486050215.460808) vcan0 217#1008100810141008
(1486050215.461757) vcan0 165#10C3460000000000
(1486050215.461800) vcan0 167#727FD2100019C700
(1486050215.461874) vcan0 178#000001FF0E79CE78
(1486050215.462759) vcan0 082#7E0814009F804000
(1486050215.462816) vcan0 085#7C4080007DB07C3F
(1486050215.462868) vcan0 200#00007FD67FD60000
(1486050215.462905) vcan0 202#04213800608512C2
(1486050215.463741) vcan0 204#C0007D0273000000
(1486050215.463780) vcan0 230#500600009D000000
(1486050215.464738) vcan0 261#0000000000000000
(1486050215.467092) vcan0 05D#8357A75E36000000
(1486050215.468399) vcan0 083#4020000008000000
(1486050215.469399) vcan0 2A1#FFFFFFFF00000000
(1486050215.470415) vcan0 091#7EC97EE54906F000
(1486050215.470500) vcan0 092#6FB96F8D73562306
(1486050215.471545) vcan0 167#727FD2100019C700
(1486050215.471603) vcan0 076#3E80C0800FFF0000
(1486050215.471642) vcan0 077#12C307FB7FF7FDF5
(1486050215.471710) vcan0 07D#0000F780001FF7EE
(1486050215.472436) vcan0 202#041F4000608512C3
(1486050215.472512) vcan0 204#C0007D0273000000
(1486050215.472556) vcan0 085#7C4080007CC07C3F
(1486050215.472613) vcan0 213#FFFF00040001FC40
(1486050215.473408) vcan0 214#000000000000F780
(1486050215.473485) vcan0 216#6F21A14300000000
(1486050215.473545) vcan0 217#1008100410101008
(1486050215.473600) vcan0 3A8#0100271000000000
(1486050215.474380) vcan0 3CA#FE7FF85500000000
(1486050215.474421) vcan0 3CC#B000000000000000
(1486050215.474457) vcan0 415#12B9F02508000800
(1486050215.474514) vcan0 41D#8000600000000000
(1486050215.475351) vcan0 42F#7D04002E65F60278
(1486050215.475389) vcan0 4B0#01008000800000F7
(1486050215.476372) vcan0 078#0569800000000000
(1486050215.477495) vcan0 186#13E3026000850400
(1486050215.478494) vcan0 187#D81408C800B00300
(1486050215.478533) vcan0 18A#0020180214000000
(1486050215.479486) vcan0 091#7EF07EE62007F000
(1486050215.480680) vcan0 092#6FBB6F8A734D2C07
(1486050215.480755) vcan0 047#2000000000000000
(1486050215.481677) vcan0 165#10C3460000000000
(1486050215.481727) vcan0 217#10081008100C1008
(1486050215.481793) vcan0 167#727FD2100019C700
(1486050215.481877) vcan0 200#00007FD67FD60000
(1486050215.482664) vcan0 202#04204800608512C1
(1486050215.482733) vcan0 082#7F0814009F804000
(1486050215.482790) vcan0 085#7C4080007BD07C3F
(1486050215.482841) vcan0 204#C0007D0273000000
(1486050215.483656) vcan0 230#500600009D000000
(1486050215.488669) vcan0 242#05B3210BDF000001
(1486050215.489642) vcan0 091#7F167EE7F708F000
(1486050215.490647) vcan0 092#6FB66F83736E1608
(1486050215.490725) vcan0 167#727FD2100019C700
(1486050215.491653) vcan0 202#04215000608512BF
(1486050215.491732) vcan0 076#3E80C0800FFF0000
(1486050215.491773) vcan0 077#12C207FB7FF801F6
(1486050215.491825) vcan0 07D#0000F690001F37FF
(1486050215.492544) vcan0 204#C0007D0273000000
(1486050215.492592) vcan0 085#7C41800079E07C3F
(1486050215.492653) vcan0 213#FFFF00040001FC40
(1486050215.492691) vcan0 214#000000000000F690
(1486050215.493522) vcan0 216#7E32B15400000000
(1486050215.493592) vcan0 217#1008100C100C100C
(1486050215.493648) vcan0 3A8#0100271000000000
(1486050215.493740) vcan0 415#12BCF42108000800
(1486050215.494495) vcan0 41D#8000600000000000
(1486050215.494534) vcan0 4B0#01008000900000F6
(1486050215.496233) vcan0 078#0068000000000000
(1486050215.497297) vcan0 05A#00000045E8C10000
(1486050215.498233) vcan0 186#13E3026000850400
(1486050215.498275) vcan0 187#D81408C800B00300
(1486050215.499234) vcan0 04A#0200000000000000
(1486050215.499275) vcan0 04B#00C0D8D8D8D8C000
(1486050215.500248) vcan0 04C#105FFFC000000000
(1486050215.500322) vcan0 091#7F277EE8E409F000
(1486050215.500396) vcan0 092#6FAF6F817397F509
(1486050215.501344) vcan0 047#2000000000000000
(1486050215.501381) vcan0 3CA#FE80185600000000
(1486050215.501429) vcan0 165#10C3460000000000
(1486050215.501463) vcan0 167#727FD2100019C700
(1486050215.502345) vcan0 217#1008100810041008
(1486050215.502399) vcan0 200#00007FD67FD60000
(1486050215.502434) vcan0 082#800814009F804000
(1486050215.502483) vcan0 085#7C41800078F07C3F
(1486050215.503360) vcan0 202#04215800608512BE
(1486050215.503414) vcan0 204#C0007D0272000000
(1486050215.503464) vcan0 230#500600009D000000
(1486050215.503499) vcan0 3CC#B000000000000000
(1486050215.504407) vcan0 42F#7D04002E65F60278
(1486050215.508388) vcan0 33B#0000000000000000
(1486050215.509385) vcan0 42C#8C20000008C00000
(1486050215.510525) vcan0 091#7F297EEADF0AF000
(1486050215.510604) vcan0 092#6FAF6F84739AEE0A
(1486050215.511360) vcan0 455#A000000000000000
(1486050215.511400) vcan0 167#727FD2100019C700
(1486050215.511435) vcan0 076#3E80C0800FFF0000
(1486050215.511468) vcan0 077#12C007FC7FF7F5F3
(1486050215.512367) vcan0 07D#0000F5A00020880F
(1486050215.512420) vcan0 202#04206000608512BE
(1486050215.512468) vcan0 085#7C40800089007C3E
(1486050215.512517) vcan0 204#C0007D0272000000
(1486050215.512551) vcan0 213#FFFF00040001FB40
(1486050215.513348) vcan0 214#000000000000F5A0
(1486050215.513402) vcan0 216#9042C26400000000
(1486050215.513449) vcan0 217#100810081004100C
(1486050215.513494) vcan0 261#0000000000000000
(1486050215.514344) vcan0 3A8#0100271000000000
(1486050215.514435) vcan0 415#12BCF82008000800
(1486050215.514486) vcan0 41D#8000600000000000
(1486050215.514521) vcan0 4B0#01008000A00000F5
(1486050215.515718) vcan0 078#0168800000000000
(1486050215.517101) vcan0 422#000000923802FE02
(1486050215.517173) vcan0 423#92E0000000000000
(1486050215.517214) vcan0 430#37000CF8C88C7700
(1486050215.517919) vcan0 186#13E2026000850400
(1486050215.517989) vcan0 187#D81408C800B00300
(1486050215.519540) vcan0 091#7F2A7EECDB0BF000
(1486050215.520541) vcan0 092#6FB36F8873750A0B
(1486050215.521546) vcan0 047#2000000000000000
(1486050215.521594) vcan0 165#10C3460000000000
(1486050215.521629) vcan0 217#100410041004100C
(1486050215.521688) vcan0 167#727FD2100019C700
(1486050215.521726) vcan0 200#00007FD67FD60000
(1486050215.522542) vcan0 202#04206800608512BD
(1486050215.522612) vcan0 082#800814009F804000
(1486050215.522652) vcan0 085#7C40800087107C3F
(1486050215.522706) vcan0 204#C0007D0272000000
(1486050215.523514) vcan0 230#500600009D000000
(1486050215.529272) vcan0 242#05B32109DF000001
(1486050215.530402) vcan0 091#7F307EEED20CF000
(1486050215.530481) vcan0 092#6FB16F8A7356280C
(1486050215.530538) vcan0 454#3646200372204242
(1486050215.531400) vcan0 167#727FD2100019C700
(1486050215.531455) vcan0 3CA#FE80185600000000
(1486050215.531497) vcan0 076#3E80C0800FFF0000
(1486050215.531531) vcan0 077#12BF07FD7FF7F9F5
(1486050215.532398) vcan0 07D#0000F4B0001FF810
(1486050215.532477) vcan0 202#041F7000608512BD
(1486050215.532535) vcan0 085#7C40800087207C3E
(1486050215.532587) vcan0 204#C0007D0272000000
(1486050215.533304) vcan0 213#FFFF00040001FB40
(1486050215.533351) vcan0 214#000000000000F4B0
(1486050215.533413) vcan0 216#9F53D27500000000
(1486050215.533466) vcan0 217#100010081004100C
(1486050215.534291) vcan0 3A8#0100271000000000
(1486050215.534393) vcan0 3CC#B000000000000000
(1486050215.534432) vcan0 415#12B6FC2508000800
(1486050215.534490) vcan0 41D#8000600000000000
(1486050215.535287) vcan0 42F#7D04002E65F60277
(1486050215.535356) vcan0 4B0#01008000B00000F4
(1486050215.536281) vcan0 078#0168800000000000
(1486050215.537516) vcan0 186#13E1026000850400
(1486050215.538479) vcan0 187#D81408C800B00300
(1486050215.539423) vcan0 091#7F397EEFC70DF000
(1486050215.540410) vcan0 092#6FA96F8B73592B0D
(1486050215.541415) vcan0 047#2000000000000000
(1486050215.541463) vcan0 05C#80F000EC201E0000
(1486050215.541524) vcan0 217#100010081004100C
(1486050215.541562) vcan0 165#10C3460000000000
(1486050215.542532) vcan0 167#727FD2100019C700
(1486050215.542586) vcan0 200#00007FD67FD60000
(1486050215.542623) vcan0 082#800814009E804000
(1486050215.542685) vcan0 085#7C41800084307C3F
(1486050215.542738) vcan0 202#04207800608512BB
(1486050215.543413) vcan0 204#C0007D0272000000
(1486050215.543460) vcan0 230#500600009D000000
(1486050215.549410) vcan0 091#7F3B7EF0C30EF000
(1486050215.550530) vcan0 092#6FA36F8B7375140E
(1486050215.551523) vcan0 167#727FD2100019C700
(1486050215.551575) vcan0 202#04300000608512BA
(1486050215.551638) vcan0 076#3E80C0800FFF0000
(1486050215.551677) vcan0 077#12BE07FE7FF7F1F7
(1486050215.552653) vcan0 07D#0000F3C0001F7814
(1486050215.552732) vcan0 204#C0007D0272000000
(1486050215.552773) vcan0 085#7C41800083407C3F
(1486050215.552826) vcan0 213#FFFF00040001FC40
(1486050215.552877) vcan0 214#000000000000F3C0
(1486050215.553551) vcan0 216#B063E38500000000
(1486050215.553620) vcan0 217#1004100C1008100C
(1486050215.553676) vcan0 3A8#0100271000000000
(1486050215.553768) vcan0 415#12B6C03408000800
(1486050215.554522) vcan0 416#5000FE0001000000
(1486050215.554591) vcan0 41D#8000600000000000
(1486050215.554631) vcan0 4B0#01008000C00000F3
(1486050215.555659) vcan0 078#0068000000000000
(1486050215.557288) vcan0 186#13E1026000850400
(1486050215.558294) vcan0 187#D71408C800C00300
(1486050215.558363) vcan0 42C#8C20000008C00000
(1486050215.559520) vcan0 091#7F2A7EF1D20FF000
(1486050215.560518) vcan0 092#6FA66F88738FF90F
(1486050215.561481) vcan0 047#2000000000000000
(1486050215.561524) vcan0 3CA#FE80185600000000
(1486050215.561560) vcan0 217#100410101008100C
(1486050215.561615) vcan0 165#10C3460000000000
(1486050215.561652) vcan0 167#727FD2100019C700
(1486050215.562449) vcan0 082#7F0814009E804000
(1486050215.562502) vcan0 085#7C41800082507C3F
(1486050215.562554) vcan0 178#000001FF0E79CE78
(1486050215.563444) vcan0 3CC#B000000000000000
(1486050215.563478) vcan0 200#00007FD67FD60000
(1486050215.563511) vcan0 202#04300800608512B9
(1486050215.563561) vcan0 204#C0007D0272000000
(1486050215.564533) vcan0 230#500600009D000000
(1486050215.564580) vcan0 261#0000000000000000
(1486050215.565533) vcan0 42F#7D04002E65F60277
(1486050215.567033) vcan0 05D#83578F5B3F000000
(1486050215.568406) vcan0 083#4020000008000000
(1486050215.569413) vcan0 2A1#FFFFFFFF00000000
(1486050215.569460) vcan0 242#05B32107DF000001
(1486050215.569520) vcan0 33B#0000000000000000
(1486050215.570396) vcan0 091#7F097EF2F110F000
(1486050215.570467) vcan0 092#6FAC6F847391F410
(1486050215.571531) vcan0 167#727FD2100019C700
(1486050215.571586) vcan0 076#3E80C0800FFF0000
(1486050215.571621) vcan0 077#12BD07FF7FF7EDF5
(1486050215.572525) vcan0 07D#0000F2D000206810
(1486050215.572602) vcan0 202#04301000608512B8
(1486050215.572659) vcan0 085#7C40800082607C3F
(1486050215.572711) vcan0 204#C0007D0272000000
(1486050215.573420) vcan0 213#FFFF00040001FC40
(1486050215.573466) vcan0 214#000000000000F2D0
(1486050215.573526) vcan0 216#C074F39600000000
(1486050215.573580) vcan0 217#1004101010081008
(1486050215.573630) vcan0 3A8#0100271000000000
(1486050215.574369) vcan0 415#12BFC42A08000800
(1486050215.574424) vcan0 41D#8000600000000000
(1486050215.574459) vcan0 4B0#01008000D00000F2
(1486050215.575592) vcan0 078#0569800000000000
(1486050215.576735) vcan0 186#13E3026000850400
(1486050215.577734) vcan0 187#D71408C800C00300
(1486050215.577770) vcan0 18A#0020180214000000
(1486050215.579534) vcan0 091#7EE87EF41011F000
(1486050215.580641) vcan0 092#6FAF6F83737D0511
(1486050215.581651) vcan0 047#2000000000000000
(1486050215.581703) vcan0 217#1004100C10081008
(1486050215.581767) vcan0 165#10C3460000000000
(1486050215.581862) vcan0 167#727FD2100019C700
(1486050215.581918) vcan0 200#00007FD67FD60000
(1486050215.582597) vcan0 202#042E1800608512B9
(1486050215.582700) vcan0 082#7F0814009F804000
(1486050215.582784) vcan0 085#7C40800082707C3E
(1486050215.582861) vcan0 204#C0007D0272000000
(1486050215.583568) vcan0 230#500600009D000000
(1486050215.589586) vcan0 091#7ED77EF42012F000
(1486050215.590591) vcan0 092#6FB16F85736B1212
(1486050215.590695) vcan0 167#727FD2100019C700
(1486050215.591593) vcan0 3CA#FE80185600000000
(1486050215.591666) vcan0 076#3E80C0800FFF0000
(1486050215.591721) vcan0 077#12BC07FF7FF7F5F4
(1486050215.591807) vcan0 07D#0000F1E0002017FC
(1486050215.592582) vcan0 202#042C2000608512BA
(1486050215.592685) vcan0 085#7C4180007F807C3F
(1486050215.592775) vcan0 204#C0007D0272000000
(1486050215.592829) vcan0 213#FFFF00040001FB40
(1486050215.593717) vcan0 214#000000000000F1E0
(1486050215.593890) vcan0 216#D18404A600000000
(1486050215.593969) vcan0 217#1004100C10081004
(1486050215.594038) vcan0 3A8#0100271000000000
(1486050215.594581) vcan0 3CC#B000000000000000
(1486050215.594645) vcan0 415#12BCC82C08000800
(1486050215.594726) vcan0 41D#8000600000000000
(1486050215.594777) vcan0 42F#7D04002E65F60277
(1486050215.595693) vcan0 4B0#01008000E00000F1
(1486050215.596697) vcan0 078#0168800000000000
(1486050215.597708) vcan0 186#13E3026000850400
(1486050215.597772) vcan0 187#D71408C800C00300
(1486050215.597845) vcan0 05A#00000045EE610000
(1486050215.599200) vcan0 04A#0200000000000000
(1486050215.600204) vcan0 04B#00C0D8D8D8D8C000
(1486050215.600266) vcan0 04C#105FFFC000000000
(1486050215.600315) vcan0 091#7ED27EF42413F000
(1486050215.600393) vcan0 092#6FB36F8A736F0613
(1486050215.601197) vcan0 047#2000000000000000
(1486050215.601261) vcan0 165#10C3460000000000
(1486050215.601309) vcan0 217#10041008100C1004
(1486050215.602201) vcan0 167#727FD2100019C700
(1486050215.602264) vcan0 200#00007FD67FD60000
(1486050215.602314) vcan0 202#042B2800608512BA
(1486050215.602392) vcan0 082#7F0814009F804000
(1486050215.603199) vcan0 085#7C4180007E907C3F
(1486050215.603290) vcan0 204#C0007D0271000000
(1486050215.603363) vcan0 230#500600009D000000
(1486050215.608703) vcan0 242#05B32104DF000001
(1486050215.609708) vcan0 40A#C1014B3931485232
(1486050215.609800) vcan0 42C#8C20000008C00000
(1486050215.609908) vcan0 091#7ECD7EF42814F000
(1486050215.610801) vcan0 092#6FB46F8D7381EF14
(1486050215.610894) vcan0 455#A000000000000000
(1486050215.611807) vcan0 167#727FD2100019C700
(1486050215.611872) vcan0 076#3E80C0800FFF0000
(1486050215.611917) vcan0 077#12BB07FF7FF7F9F6
(1486050215.611990) vcan0 07D#0000F0F0001FD7F6
(1486050215.612052) vcan0 202#042A3000608512BA
(1486050215.612696) vcan0 085#7C4180007DA07C3F
(1486050215.612778) vcan0 204#C0007D0271000000
(1486050215.612828) vcan0 213#FFFF00040001FC40
(1486050215.612890) vcan0 214#000000000000F0F0
(1486050215.613630) vcan0 216#E19514B700000000
(1486050215.613695) vcan0 217#10041004100C1004
(1486050215.613753) vcan0 261#0000000000000000
(1486050215.613795) vcan0 3A8#0100271000000000
(1486050215.614736) vcan0 3A7#0E401A045F700000
(1486050215.614781) vcan0 415#12B8CC2F08000800
(1486050215.614843) vcan0 41D#8000600000000000
(1486050215.614884) vcan0 4B0#01008000F00000F0
(1486050215.615805) vcan0 078#0068000000000000
(1486050215.616806) vcan0 422#000000923802FE02
(1486050215.616864) vcan0 423#92E0000000000000
(1486050215.616907) vcan0 430#37000CF8C88C7700
(1486050215.617838) vcan0 186#13E2026000850400
(1486050215.617906) vcan0 187#D71408C800C00300
(1486050215.619502) vcan0 091#7EC87EF22E15F000
(1486050215.620629) vcan0 092#6FB46F8D7389E615
(1486050215.621636) vcan0 047#2000000000000000
(1486050215.621685) vcan0 3CA#FE80185D00000000
(1486050215.621743) vcan0 165#10C3460000000000
(1486050215.621780) vcan0 167#727FD2100019C700
(1486050215.621840) vcan0 217#10001008100C1000
(1486050215.622540) vcan0 200#00007FD67FD60000
(1486050215.622584) vcan0 082#800814009F804000
(1486050215.622640) vcan0 085#7C4180007CB07C3F
(1486050215.622689) vcan0 202#04293800608512BA
(1486050215.623526) vcan0 204#C0007D0271000000
(1486050215.623571) vcan0 230#500600009D000000
(1486050215.623605) vcan0 3CC#B000000000000000
(1486050215.623638) vcan0 42F#7D04002E65F60277
(1486050215.628379) vcan0 33B#0000000000000000
(1486050215.629514) vcan0 091#7EC67EF13016F000
(1486050215.630630) vcan0 092#6FB56F897382EF16
(1486050215.631637) vcan0 167#727FD2100019C700
(1486050215.631685) vcan0 076#3E80C0800FFF0000
(1486050215.631718) vcan0 077#12BB07FF7FF7FDF7
(1486050215.631774) vcan0 07D#0000FF00002047F2
(1486050215.632540) vcan0 202#04294000608512B9
(1486050215.632603) vcan0 204#C0007D0271000000
(1486050215.632641) vcan0 085#7C4180007BC07C3F
(1486050215.632690) vcan0 213#FFFF00040001FC40
(1486050215.633533) vcan0 214#000000000000FF00
(1486050215.633598) vcan0 216#F2A525C700000000
(1486050215.633649) vcan0 217#1004100410081000
(1486050215.633698) vcan0 3A8#0100271000000000
(1486050215.633783) vcan0 415#12B5D03108000800
(1486050215.634530) vcan0 41D#8000600000000000
(1486050215.634574) vcan0 4B0#01008000000000FF
(1486050215.635525) vcan0 078#0168800000000000
(1486050215.636652) vcan0 186#13E1026000850400
(1486050215.637749) vcan0 187#D71408C800C00300
(1486050215.639534) vcan0 091#7EC57EF13017F000
(1486050215.640622) vcan0 092#6FB56F847378FD17
(1486050215.641472) vcan0 047#2000000000000000
(1486050215.641510) vcan0 217#1000100410001000
(1486050215.641559) vcan0 05C#809000F2201E0000
(1486050215.641604) vcan0 165#10C3460000000000
(1486050215.642444) vcan0 167#727FD2100019C700
(1486050215.642474) vcan0 082#800814009F804000
(1486050215.642503) vcan0 085#7C4180007AD07C3F
(1486050215.642548) vcan0 200#00007FD67FD60000
(1486050215.643436) vcan0 202#04294800608512B8
(1486050215.643481) vcan0 204#C0007D0271000000
(1486050215.643511) vcan0 230#500600009D000000
(1486050215.646076) vcan0 3A6#0E401A045F700000
(1486050215.648624) vcan0 084#110000212A250A00
(1486050215.649627) vcan0 242#05B32107DF000001
(1486050215.649687) vcan0 091#7EC47EF22F18F000
(1486050215.650628) vcan0 092#6FB76F817378FD18
(1486050215.650688) vcan0 167#727FD2100019C700
(1486050215.651629) vcan0 3CA#FE80185D00000000
(1486050215.651671) vcan0 076#3E80C0800FFF0000
(1486050215.651708) vcan0 077#12BA07FF7FF7FDF4
(1486050215.651760) vcan0 07D#0000FE10001FF7F1
(1486050215.652628) vcan0 202#04295000608512B7
(1486050215.652690) vcan0 085#7C41800079E07C3F
(1486050215.652739) vcan0 204#C0007D0271000000
(1486050215.652771) vcan0 213#FFFF00040001FC40
(1486050215.653631) vcan0 214#000000000000FE10
(1486050215.653691) vcan0 216#02B635D800000000
(1486050215.653740) vcan0 217#1000100410001000
(1486050215.653772) vcan0 3A8#0100271000000000
(1486050215.654632) vcan0 3CC#B000000000000000
(1486050215.654675) vcan0 415#12B4D43108000800
(1486050215.654729) vcan0 416#5100FD0001000000
(1486050215.654776) vcan0 41D#8000600000000000
(1486050215.654807) vcan0 42F#7D04002E65F60277
(1486050215.655624) vcan0 4B0#01008000100000FE
(1486050215.656628) vcan0 078#0168800000000000
(1486050215.656671) vcan0 186#13E4026000850400
(1486050215.656723) vcan0 187#D61408C800D00300
(1486050215.658124) vcan0 42C#8C20000008C00000
(1486050215.659375) vcan0 091#7ECB7EF12819F000
(1486050215.660500) vcan0 092#6FBC6F84737BF119
(1486050215.661504) vcan0 047#2000000000000000
(1486050215.661547) vcan0 3D8#0000000080456030
(1486050215.661601) vcan0 217#0FFC10000FFC100C
(1486050215.661647) vcan0 165#10C3460000000000
(1486050215.661677) vcan0 3CD#0000000000000000
(1486050215.662498) vcan0 167#727FD2100019C700
(1486050215.662536) vcan0 082#810814009F804000
(1486050215.662586) vcan0 085#7C41800078F07C3F
(1486050215.662629) vcan0 178#000001FF0E79CE78
(1486050215.663495) vcan0 200#00007FD67FD60000
(1486050215.663533) vcan0 202#04285800608512B7
(1486050215.663581) vcan0 204#C0007D0271000000
(1486050215.664490) vcan0 230#500600009D000000
(1486050215.664528) vcan0 261#0000000000000000
(1486050215.666992) vcan0 05D#8357B76030000000
(1486050215.668480) vcan0 083#4020000008000000
(1486050215.669391) vcan0 2A1#FFFFFFFF00000000
(1486050215.670491) vcan0 091#7EE27EF1101AF000
(1486050215.670555) vcan0 092#6FBD6F8A7375EF1A
(1486050215.671501) vcan0 167#727FD2100019C700
(1486050215.671546) vcan0 202#04286000608512B6
(1486050215.671597) vcan0 076#3E80C0800FFF0000
(1486050215.671629) vcan0 077#12B807FF7FF801F4
(1486050215.672496) vcan0 07D#0000FD20002007F3
(1486050215.672560) vcan0 204#C0007D0271000000
(1486050215.672594) vcan0 085#7C41800087007C3F
(1486050215.672637) vcan0 213#FFFF00040001FC40
(1486050215.672667) vcan0 214#000000000000FD20
(1486050215.673395) vcan0 216#13C646E800000000
(1486050215.673451) vcan0 217#0FFC100410001010
(1486050215.673495) vcan0 3A8#0100271000000000
(1486050215.673570) vcan0 415#12B0D83408000800
(1486050215.674517) vcan0 41D#8000600000000000
(1486050215.674557) vcan0 4B0#01008000200000FD
(1486050215.675512) vcan0 078#0469000000000000
(1486050215.676516) vcan0 186#13E2026000850400
(1486050215.676572) vcan0 187#D61408C800D00300
(1486050215.676604) vcan0 18A#0020180214000000
(1486050215.679495) vcan0 091#7F017EF2EE1BF000
(1486050215.680614) vcan0 092#6FBD6F8F7365F91B
(1486050215.681619) vcan0 047#2000000000000000
(1486050215.681663) vcan0 3CA#FE80185D00000000
(1486050215.681691) vcan0 165#10C3460000000000
(1486050215.681718) vcan0 167#727FD2100019C700
(1486050215.681744) vcan0 217#0FFC10040FFC1010
(1486050215.682528) vcan0 200#00007FD67FD60000
(1486050215.682566) vcan0 082#820814009F804000
(1486050215.682614) vcan0 085#7C41800086107C3F
(1486050215.682658) vcan0 202#04286800608512B5
(1486050215.683497) vcan0 204#C0007D0271000000
(1486050215.683535) vcan0 230#500600009D000000
(1486050215.683565) vcan0 3CC#B000000000000000
(1486050215.683593) vcan0 42F#7D04002E65F60276
(1486050215.688384) vcan0 33B#0000000000000000
(1486050215.689480) vcan0 242#05B32107DF000001
(1486050215.690401) vcan0 091#7F1B7EF3D21CF000
(1486050215.690460) vcan0 092#6FBA6F907357081C
(1486050215.691389) vcan0 076#3E80C0800FFF0000
(1486050215.691427) vcan0 077#12B907FF7FF801F8
(1486050215.691475) vcan0 07D#0000FC30001FA803
(1486050215.692394) vcan0 167#727FD2100019C700
(1486050215.692434) vcan0 202#04287000608512B4
(1486050215.692483) vcan0 085#7C41800085207C3F
(1486050215.692525) vcan0 204#C0007D0271000000
(1486050215.693620) vcan0 213#FFFF00040001FC40
(1486050215.693662) vcan0 214#000000000000FC30
(1486050215.693713) vcan0 216#23D756F800000000
(1486050215.693756) vcan0 217#0FFC10040FFC1008
(1486050215.693797) vcan0 3A8#0100271000000000
(1486050215.694520) vcan0 415#12B1DC3208000800
(1486050215.694575) vcan0 41D#8000600000000000
(1486050215.694607) vcan0 4B0#01008000300000FC
(1486050215.695642) vcan0 078#0168800000000000
(1486050215.696635) vcan0 186#13E2026000850400
(1486050215.696673) vcan0 187#D61408C800D00300
(1486050215.696701) vcan0 350#0000000000000000
(1486050215.697636) vcan0 3E0#0000000080000000
(1486050215.697672) vcan0 05A#00000045F4010000
(1486050215.699481) vcan0 04A#0200000000000000
(1486050215.700493) vcan0 04B#00C0D8D8D8D8C000
(1486050215.700535) vcan0 04C#105FFFC000000000
(1486050215.700563) vcan0 091#7F277EF2C61DF000
(1486050215.700613) vcan0 092#6FB06F8D7359121D
(1486050215.701618) vcan0 047#2000000000000000
(1486050215.701662) vcan0 217#0FFC10040FFC1004
(1486050215.701712) vcan0 165#10C3460000000000
(1486050215.701745) vcan0 167#727FD2100019C700
(1486050215.702619) vcan0 200#00007FD67FD60000
(1486050215.702663) vcan0 082#820814009F804000
(1486050215.702692) vcan0 085#7C41800084307C3F
(1486050215.702742) vcan0 202#04287800608512B3
(1486050215.703520) vcan0 204#C0007D0271000000
(1486050215.703558) vcan0 230#500600009D000000
(1486050215.709515) vcan0 091#7F2D7EF4BD1EF000
(1486050215.710616) vcan0 092#6FA56F897368111E
(1486050215.710679) vcan0 42C#8C20000008C00000
(1486050215.710712) vcan0 455#A000000000000000
(1486050215.711617) vcan0 167#727FD2100019C700
(1486050215.711661) vcan0 076#3E80C0800FFF0000
(1486050215.711689) vcan0 077#12B807FF7FF801F8
(1486050215.711738) vcan0 07D#0000FB40001F680F
(1486050215.712489) vcan0 202#04380000608512B2
(1486050215.712533) vcan0 085#7C41800083407C3F
(1486050215.712572) vcan0 204#C0007D0271000000
(1486050215.712600) vcan0 213#FFFF00040001FC40
(1486050215.713533) vcan0 214#000000000000FB40
(1486050215.713584) vcan0 216#34E7670900000000
(1486050215.713625) vcan0 217#0FFC100410001000
(1486050215.713664) vcan0 261#0000000000000000
(1486050215.713691) vcan0 3A8#0100271000000000
(1486050215.714447) vcan0 3CA#FE80185D00000000
(1486050215.714476) vcan0 3CC#B000000000000000
(1486050215.714503) vcan0 415#12B0E03208000800
(1486050215.714544) vcan0 41D#8000600000000000
(1486050215.715451) vcan0 42F#7D04002E65F60276
(1486050215.715480) vcan0 4B0#01008000400000FB
(1486050215.716578) vcan0 078#0168800000000000
(1486050215.716608) vcan0 186#13E5026000850400
(1486050215.716648) vcan0 187#D61408C800D00300
(1486050215.717593) vcan0 422#000000923802FE02
(1486050215.717622) vcan0 423#92E0000000000000
(1486050215.717646) vcan0 430#37000CF8C88C7700
(1486050215.719519) vcan0 091#7F357EF4B41FF000
(1486050215.720612) vcan0 092#6FA26F8573720D1F
(1486050215.721616) vcan0 047#2000000000000000
(1486050215.721660) vcan0 165#10C3460000000000
(1486050215.721688) vcan0 217#1000100410041004
(1486050215.721739) vcan0 167#727FD2100019C700
(1486050215.722605) vcan0 200#00007FD67FD60000
(1486050215.722678) vcan0 202#04370800608512B2
(1486050215.722772) vcan0 082#810814009F804000
(1486050215.722853) vcan0 085#7C41800082507C3F
(1486050215.722931) vcan0 204#C0007D0271000000
(1486050215.723572) vcan0 230#500600009D000000
(1486050215.728832) vcan0 242#05B32108DF000001
(1486050215.729882) vcan0 091#7F3D7EF4AB20F000
(1486050215.730835) vcan0 092#6FA96F8373760320
(1486050215.730951) vcan0 167#727FD2100019C700
(1486050215.731840) vcan0 202#04371000608512B1
(1486050215.731957) vcan0 076#3E80C0800FFF0000
(1486050215.732020) vcan0 077#12B707FF7FF7E9F5
(1486050215.732100) vcan0 07D#0000FA50001FE813
(1486050215.732842) vcan0 204#C0007D0271000000
(1486050215.732925) vcan0 085#7C41800081607C3F
(1486050215.733024) vcan0 213#FFFF00040001FC40
(1486050215.733083) vcan0 214#000000000000FA50
(1486050215.733161) vcan0 216#44F8771900000000
(1486050215.733716) vcan0 217#1000100410041004
(1486050215.733785) vcan0 3A8#0100271000000000
(1486050215.733963) vcan0 415#12B5E42C08000800
(1486050215.734045) vcan0 41D#8000600000000000
(1486050215.734696) vcan0 4B0#01008000500000FA
(1486050215.735695) vcan0 078#0068000000000000
(1486050215.736836) vcan0 186#13E6026000850400
(1486050215.736927) vcan0 187#D61408C800D00300
(1486050215.739486) vcan0 091#7F3C7EF4AB21F000
(1486050215.740563) vcan0 092#6FB16F837376FA21
(1486050215.741575) vcan0 047#2000000000000000
(1486050215.741647) vcan0 217#0FFC100410040FFC
(1486050215.741737) vcan0 05C#803000F8201E0000
(1486050215.741863) vcan0 3CA#FE7FF86100000000
(1486050215.742441) vcan0 165#10C3460000000000
(1486050215.742499) vcan0 167#727FD2100019C700
(1486050215.742543) vcan0 082#820814009F804000
(1486050215.742612) vcan0 085#7C41800081707C3E
(1486050215.742676) vcan0 200#00007FD67FD60000
(1486050215.743568) vcan0 202#04351800608512B2
(1486050215.743651) vcan0 204#C0007D0271000000
(1486050215.743697) vcan0 3CC#B000000000000000
(1486050215.743739) vcan0 230#500600009D000000
(1486050215.744551) vcan0 42F#7D04002E65F60276
(1486050215.748532) vcan0 33B#0000000000000000
(1486050215.749673) vcan0 091#7F317EF4B522F000
(1486050215.750675) vcan0 092#6FB16F867374F822
(1486050215.751679) vcan0 167#727FD2100019C700
(1486050215.751743) vcan0 076#3E80C0800FFF0000
(1486050215.751794) vcan0 077#12B607FF7FF7F9F4
(1486050215.751867) vcan0 07D#0000F960001FF815
(1486050215.752573) vcan0 202#04342000608512B2
(1486050215.752656) vcan0 085#7C41800080807C3E
(1486050215.752724) vcan0 204#C0007D0271000000
(1486050215.752767) vcan0 213#FFFF00040001FC40
(1486050215.753568) vcan0 214#000000000000F960
(1486050215.753651) vcan0 216#5508882A00000000
(1486050215.753719) vcan0 217#0FFC100410040FF8
(1486050215.753782) vcan0 3A8#0100271000000000
(1486050215.754547) vcan0 415#12B2E82E08000800
(1486050215.754624) vcan0 416#5200FC0001000000
(1486050215.754684) vcan0 41D#8000600000000000
(1486050215.754724) vcan0 4B0#01008000600000F9
(1486050215.755479) vcan0 078#0168800000000000
(1486050215.756545) vcan0 186#13E7026000850400
(1486050215.756620) vcan0 187#D51408C800E00300
(1486050215.758272) vcan0 42C#8C20000008C00000
(1486050215.759530) vcan0 091#7F1D7EF4C823F000
(1486050215.760536) vcan0 092#6FA86F8873700223
(1486050215.761656) vcan0 047#2000000000000000
(1486050215.761716) vcan0 217#0FFC100010040FF8
(1486050215.761790) vcan0 165#10C3460000000000
(1486050215.761866) vcan0 167#727FD2100019C700
(1486050215.762667) vcan0 178#000001FF0E79CE78
(1486050215.762725) vcan0 082#820814009F804000
(1486050215.762763) vcan0 085#7C4180007F907C3E
(1486050215.762830) vcan0 200#00007FD67FD60000
(1486050215.763555) vcan0 202#04332800608512B2
(1486050215.763631) vcan0 204#C0007D0271000000
(1486050215.764548) vcan0 230#500600009D000000
(1486050215.764598) vcan0 261#0000000000000000
(1486050215.767044) vcan0 05D#83579F5E38000000
(1486050215.768521) vcan0 083#4020000008000000
(1486050215.769536) vcan0 2A1#FFFFFFFF00000000
(1486050215.769595) vcan0 242#05B3210ADF000001
(1486050215.769664) vcan0 091#7F097EF4DB24F000
(1486050215.770572) vcan0 092#6FA26F8573710924
(1486050215.771660) vcan0 167#727FD2100019C700
(1486050215.771716) vcan0 3CA#FE7FF86100000000
(1486050215.771754) vcan0 076#3E80C0800FFF0000
(1486050215.771791) vcan0 077#12B507FF7FF7EDF5
(1486050215.771858) vcan0 07D#0000F870001FD80C
(1486050215.772552) vcan0 202#04333000608512B1
(1486050215.772628) vcan0 085#7C4180007EA07C3E
(1486050215.772690) vcan0 204#C0007D0270000000
(1486050215.772746) vcan0 213#FFFF00040001FC40
(1486050215.773548) vcan0 214#000000000000F870
(1486050215.773624) vcan0 216#6517983A00000000
(1486050215.773686) vcan0 217#0FFC100010040FF4
(1486050215.773743) vcan0 3A8#0100271000000000
(1486050215.774540) vcan0 3CC#B000000000000000
(1486050215.774588) vcan0 415#12AFEC3008000800
(1486050215.774649) vcan0 41D#8000600000000000
(1486050215.774687) vcan0 42F#7D04002E65F60276
(1486050215.775537) vcan0 4B0#01008000700000F8
(1486050215.775607) vcan0 186#13E8026000850400
(1486050215.776534) vcan0 187#D51408C800E00300
(1486050215.776581) vcan0 078#0569800000000000
(1486050215.776642) vcan0 18A#0020180214000000
(1486050215.779538) vcan0 091#7EF57EF4EF25F000
(1486050215.780642) vcan0 092#6FA86F837376FF25
(1486050215.780721) vcan0 047#2000000000000000
(1486050215.781645) vcan0 165#10C3460000000000
(1486050215.781699) vcan0 217#0FF80FFC10040FF8
(1486050215.781763) vcan0 167#727FD2100019C700
(1486050215.781827) vcan0 200#00007FD67FD60000
(1486050215.782646) vcan0 202#04323800608512B1
(1486050215.782723) vcan0 082#820814009E804000
(1486050215.782780) vcan0 085#7C4180007DB07C3E
(1486050215.782833) vcan0 204#C0007D0270000000
(1486050215.783535) vcan0 230#500600009D000000
(1486050215.789640) vcan0 091#7EE77EF4FC26F000
(1486050215.790648) vcan0 092#6FB46F857375F126
(1486050215.790725) vcan0 167#727FD2100019C700
(1486050215.791647) vcan0 076#3E80C0800FFF0000
(1486050215.791701) vcan0 077#12B407FF7FF7EDF4
(1486050215.791764) vcan0 07D#0000F780001FF7FF
(1486050215.791819) vcan0 202#04324000608512B0
(1486050215.792547) vcan0 204#C0007D0270000000
(1486050215.792595) vcan0 085#7C4180007CC07C3E
(1486050215.792657) vcan0 213#FFFF00040001FC40
(1486050215.792695) vcan0 214#000000000000F780
(1486050215.793536) vcan0 216#7629A94B00000000
(1486050215.793606) vcan0 217#0FF40FFC0FFC0FFC
(1486050215.793662) vcan0 3A8#0100271000000000
(1486050215.793752) vcan0 415#12ABF03308000800
(1486050215.794537) vcan0 41D#8000600000000000
(1486050215.794585) vcan0 4B0#01008000800000F7
(1486050215.795654) vcan0 186#13E8026000850400
(1486050215.795703) vcan0 187#D51408C800E00300
(1486050215.796656) vcan0 078#0068000000000000
(1486050215.797664) vcan0 05A#00000045EAA10000
(1486050215.799505) vcan0 04A#0200000000000000
(1486050215.800646) vcan0 04B#00C0D8D8D8D8C000
(1486050215.800700) vcan0 04C#105FFFC000000000
(1486050215.800735) vcan0 091#7EE17EF30227F000
(1486050215.800797) vcan0 092#6FBD6F88736BEE27
(1486050215.801618) vcan0 217#0FF40FF80FFC0FFC
(1486050215.801696) vcan0 047#2000000000000000
(1486050215.801738) vcan0 165#10C3460000000000
(1486050215.801773) vcan0 167#727FD2100019C700
(1486050215.802551) vcan0 3CA#FE7FF86100000000
(1486050215.802599) vcan0 082#820814009F804000
(1486050215.802661) vcan0 085#7C42800079D07C3F
(1486050215.802715) vcan0 200#00007FD67FD60000
(1486050215.803518) vcan0 202#04324800608512AF
(1486050215.803588) vcan0 204#C0007D0270000000
(1486050215.803627) vcan0 3CC#B000000000000000
(1486050215.803662) vcan0 230#500600009D000000
(1486050215.804510) vcan0 42F#7D04002E65F60276
(1486050215.808401) vcan0 33B#0000000000000000
(1486050215.809648) vcan0 242#05B3210BDF000001
(1486050215.809725) vcan0 3B3#4048020F10050002
(1486050215.809767) vcan0 091#7EE67EF2FD28F000
(1486050215.809854) vcan0 40A#C1023130373639FF
(1486050215.810593) vcan0 092#6FC16F8B7362EF28
(1486050215.810646) vcan0 42C#8C20000008C00000
(1486050215.810674) vcan0 455#A000000000000000
(1486050215.811506) vcan0 167#727FD2100019C700
(1486050215.811538) vcan0 076#3E80C0800FFF0000
(1486050215.811565) vcan0 077#12B207FF7FF7FDF5
(1486050215.811604) vcan0 07D#0000F690001FF7FA
(1486050215.812506) vcan0 202#04325000608512AE
(1486050215.812554) vcan0 085#7C42800078E07C3F
(1486050215.812591) vcan0 204#C0007D0270000000
(1486050215.812616) vcan0 213#FFFF00040001FB40
(1486050215.813478) vcan0 214#000000000000F690
(1486050215.813525) vcan0 216#8638B95A00000000
(1486050215.813563) vcan0 217#0FF40FFC0FF80FFC
(1486050215.813598) vcan0 261#0000000000000000
(1486050215.814504) vcan0 3A8#0100271000000000
(1486050215.814575) vcan0 415#12A6F43708000800
(1486050215.814616) vcan0 41D#8000600000000000
(1486050215.814642) vcan0 4B0#01008000900000F6
(1486050215.815471) vcan0 186#13E8026000850400
(1486050215.815497) vcan0 187#D51408C800E00300
(1486050215.816503) vcan0 078#0168800000000000
(1486050215.816549) vcan0 422#000000923802FE02
(1486050215.816577) vcan0 423#92E0000000000000
(1486050215.816599) vcan0 430#37000CF8C88CF700
(1486050215.817474) vcan0 3A7#0E401A045F700000
